Freq.	V(vo)
1.00000000000000e+004	(-2.61141503325968e-001dB,1.09476159268806e+002°)
1.02329299228075e+004	(-2.47975658121444e-001dB,1.07788510473923e+002°)
1.04712854805090e+004	(-2.33747343469435e-001dB,1.06053981793141e+002°)
1.07151930523761e+004	(-2.18414260686503e-001dB,1.04270568262716e+002°)
1.09647819614318e+004	(-2.01938752339519e-001dB,1.02436131021387e+002°)
1.12201845430196e+004	(-1.84289281847874e-001dB,1.00548388799246e+002°)
1.14815362149688e+004	(-1.65442151121976e-001dB,9.86049094788402e+001°)
1.17489755493953e+004	(-1.45383480324423e-001dB,9.66031019182938e+001°)
1.20226443461741e+004	(-1.24111472941661e-001dB,9.45402082764361e+001°)
1.23026877081238e+004	(-1.01638986978827e-001dB,9.24132971382372e+001°)
1.25892541179417e+004	(-7.79964286794165e-002dB,9.02192578051663e+001°)
1.28824955169313e+004	(-5.32349780343506e-002dB,8.79547961885827e+001°)
1.31825673855641e+004	(-2.74301446340283e-002dB,8.56164328228777e+001°)
1.34896288259165e+004	(-6.85637151467001e-004dB,8.32005035949618e+001°)
1.38038426460288e+004	(2.68624911865928e-002dB,8.07031638615493e+001°)
1.41253754462275e+004	(5.50414865399058e-002dB,7.81203966858105e+001°)
1.44543977074593e+004	(8.36374288859538e-002dB,7.54480259562377e+001°)
1.47910838816821e+004	(1.12390802459861e-001dB,7.26817351333659e+001°)
1.51356124843621e+004	(1.40992301169470e-001dB,6.98170922781301e+001°)
1.54881661891248e+004	(1.69079129643779e-001dB,6.68495818157744e+001°)
1.58489319246111e+004	(1.96232128104670e-001dB,6.37746431409963e+001°)
1.62181009735893e+004	(2.21974117833136e-001dB,6.05877156275884e+001°)
1.65958690743756e+004	(2.45769925581106e-001dB,5.72842888217384e+001°)
1.69824365246174e+004	(2.67028587674881e-001dB,5.38599555300015e+001°)
1.73780082874937e+004	(2.85108240771906e-001dB,5.03104641340502e+001°)
1.77827941003892e+004	(2.99324154270875e-001dB,4.66317647780697e+001°)
1.81970085860998e+004	(3.08960222883896e-001dB,4.28200421323429e+001°)
1.86208713666287e+004	(3.13283988026365e-001dB,3.88717253556856e+001°)
1.90546071796325e+004	(3.11564865393079e-001dB,3.47834638591771e+001°)
1.94984459975804e+004	(3.03094700518478e-001dB,3.05520558017456e+001°)
1.99526231496888e+004	(2.87209041461165e-001dB,2.61743152941340e+001°)
2.04173794466953e+004	(2.63306608887901e-001dB,2.16468644814718e+001°)
2.08929613085404e+004	(2.30863373829893e-001dB,1.69658384773360e+001°)
2.13796208950223e+004	(1.89436447159269e-001dB,1.21264950099869e+001°)
2.18776162394955e+004	(1.38651668406772e-001dB,7.12272713774688e+000°)
2.23872113856834e+004	(7.81673734632671e-002dB,1.94648719484047e+000°)
2.29086765276777e+004	(7.60533551619568e-003dB,-3.41285560954075e+000°)
2.34422881531992e+004	(-7.35616405042419e-002dB,-8.96918076203210e+000°)
2.39883291901949e+004	(-1.66177342599935e-001dB,-1.47402313012920e+001°)
2.45470891568503e+004	(-2.71637497056924e-001dB,-2.07480581379118e+001°)
2.51188643150958e+004	(-3.92203888676893e-001dB,-2.70191061679367e+001°)
2.57039578276886e+004	(-5.31402007337023e-001dB,-3.35836593201667e+001°)
2.63026799189538e+004	(-6.94490876142172e-001dB,-4.04742426122604e+001°)
2.69153480392691e+004	(-8.88960528569798e-001dB,-4.77224653476776e+001°)
2.75422870333816e+004	(-1.12495473259944e+000dB,-5.53537632922982e+001°)
2.81838293126445e+004	(-1.41543378551118e+000dB,-6.33797244549449e+001°)
2.88403150312660e+004	(-1.77580810774607e+000dB,-7.17883972956066e+001°)
2.95120922666638e+004	(-2.22275549836397e+000dB,-8.05343327595880e+001°)
3.01995172040201e+004	(-2.77209037206034e+000dB,-8.95318060800353e+001°)
3.09029543251359e+004	(-3.43595014878053e+000dB,-9.86555880543053e+001°)
3.16227766016837e+004	(-4.22007976480732e+000dB,-1.07752197026569e+002°)
3.23593656929628e+004	(-5.12225955633626e+000dB,-1.16660289692384e+002°)
3.31131121482591e+004	(-6.13258320593269e+000dB,-1.25233973792508e+002°)
3.38844156139202e+004	(-7.23545991869818e+000dB,-1.33361102823827e+002°)
3.46736850452531e+004	(-8.41247478201308e+000dB,-1.40971531329920e+002°)
3.54813389233575e+004	(-9.64508606508289e+000dB,-1.48035386699093e+002°)
3.63078054770101e+004	(-1.09165172271320e+001dB,-1.54554989752859e+002°)
3.71535229097172e+004	(-1.22127117919984e+001dB,-1.60554697736476e+002°)
3.80189396320560e+004	(-1.35225493152000e+001dB,-1.66071644790523e+002°)
3.89045144994280e+004	(-1.48376160975814e+001dB,-1.71148683086506e+002°)
3.98107170553496e+004	(-1.61517776295032e+001dB,-1.75829653777607e+002°)
4.07380277804112e+004	(-1.74607109529193e+001dB,1.79843433778531e+002°)
4.16869383470335e+004	(-1.87614781025131e+001dB,1.75831865596645e+002°)
4.26579518801592e+004	(-2.00521713922222e+001dB,1.72100811731569e+002°)
4.36515832240165e+004	(-2.13316340471292e+001dB,1.68619396428724e+002°)
4.46683592150962e+004	(-2.25992475595607e+001dB,1.65360488177882e+002°)
4.57088189614874e+004	(-2.38547733972401e+001dB,1.62300358271131e+002°)
4.67735141287197e+004	(-2.50982369223484e+001dB,1.59418295008925e+002°)
4.78630092322637e+004	(-2.63298431526942e+001dB,1.56696221394912e+002°)
4.89778819368445e+004	(-2.75499161086258e+001dB,1.54118340254430e+002°)
5.01187233627271e+004	(-2.87588554289885e+001dB,1.51670816804006e+002°)
5.12861383991363e+004	(-2.99571055385530e+001dB,1.49341500993161e+002°)
5.24807460249771e+004	(-3.11451338954427e+001dB,1.47119687945301e+002°)
5.37031796370251e+004	(-3.23234157869695e+001dB,1.44995912979139e+002°)
5.49540873857623e+004	(-3.34924238374284e+001dB,1.42961777046018e+002°)
5.62341325190347e+004	(-3.46526208994462e+001dB,1.41009798408815e+002°)
5.75439937337155e+004	(-3.58044553692148e+001dB,1.39133286689561e+002°)
5.88843655355587e+004	(-3.69483582325423e+001dB,1.37326235842710e+002°)
6.00000000000000e+004	(-3.78752010190789e+001dB,1.35900874427958e+002°)
