Freq.	V(vo)
2.00000000000000e+004	(-4.12546468786320e+001dB,1.73705597889954e+002°)
2.00461047615580e+004	(-4.11777576076684e+001dB,1.73679299290472e+002°)
2.00923158055679e+004	(-4.11006175550475e+001dB,1.73652805514574e+002°)
2.01386333770361e+004	(-4.10232244577693e+001dB,1.73626114202100e+002°)
2.01850577215337e+004	(-4.09455760246689e+001dB,1.73599222953480e+002°)
2.02315890851980e+004	(-4.08676699359494e+001dB,1.73572129328901e+002°)
2.02782277147336e+004	(-4.07895038427052e+001dB,1.73544830847457e+002°)
2.03249738574139e+004	(-4.07110753664344e+001dB,1.73517324986264e+002°)
2.03718277610823e+004	(-4.06323820985417e+001dB,1.73489609179569e+002°)
2.04187896741536e+004	(-4.05534215998304e+001dB,1.73461680817819e+002°)
2.04658598456151e+004	(-4.04741913999839e+001dB,1.73433537246719e+002°)
2.05130385250281e+004	(-4.03946889970356e+001dB,1.73405175766258e+002°)
2.05603259625295e+004	(-4.03149118568277e+001dB,1.73376593629712e+002°)
2.06077224088323e+004	(-4.02348574124587e+001dB,1.73347788042618e+002°)
2.06552281152279e+004	(-4.01545230637178e+001dB,1.73318756161726e+002°)
2.07028433335869e+004	(-4.00739061765086e+001dB,1.73289495093916e+002°)
2.07505683163602e+004	(-3.99930040822583e+001dB,1.73260001895094e+002°)
2.07984033165812e+004	(-3.99118140773160e+001dB,1.73230273569047e+002°)
2.08463485878661e+004	(-3.98303334223357e+001dB,1.73200307066282e+002°)
2.08944043844160e+004	(-3.97485593416472e+001dB,1.73170099282818e+002°)
2.09425709610180e+004	(-3.96664890226119e+001dB,1.73139647058959e+002°)
2.09908485730464e+004	(-3.95841196149650e+001dB,1.73108947178019e+002°)
2.10392374764644e+004	(-3.95014482301425e+001dB,1.73077996365024e+002°)
2.10877379278252e+004	(-3.94184719405927e+001dB,1.73046791285373e+002°)
2.11363501842731e+004	(-3.93351877790730e+001dB,1.73015328543461e+002°)
2.11850745035457e+004	(-3.92515927379295e+001dB,1.72983604681263e+002°)
2.12339111439745e+004	(-3.91676837683612e+001dB,1.72951616176882e+002°)
2.12828603644863e+004	(-3.90834577796668e+001dB,1.72919359443053e+002°)
2.13319224246051e+004	(-3.89989116384737e+001dB,1.72886830825602e+002°)
2.13810975844531e+004	(-3.89140421679495e+001dB,1.72854026601867e+002°)
2.14303861047521e+004	(-3.88288461469958e+001dB,1.72820942979069e+002°)
2.14797882468249e+004	(-3.87433203094213e+001dB,1.72787576092639e+002°)
2.15293042725967e+004	(-3.86574613430974e+001dB,1.72753922004494e+002°)
2.15789344445965e+004	(-3.85712658890924e+001dB,1.72719976701262e+002°)
2.16286790259587e+004	(-3.84847305407857e+001dB,1.72685736092461e+002°)
2.16785382804240e+004	(-3.83978518429612e+001dB,1.72651196008615e+002°)
2.17285124723413e+004	(-3.83106262908775e+001dB,1.72616352199325e+002°)
2.17786018666686e+004	(-3.82230503293176e+001dB,1.72581200331272e+002°)
2.18288067289751e+004	(-3.81351203516141e+001dB,1.72545735986168e+002°)
2.18791273254418e+004	(-3.80468326986512e+001dB,1.72509954658643e+002°)
2.19295639228637e+004	(-3.79581836578419e+001dB,1.72473851754067e+002°)
2.19801167886504e+004	(-3.78691694620808e+001dB,1.72437422586307e+002°)
2.20307861908283e+004	(-3.77797862886701e+001dB,1.72400662375415e+002°)
2.20815723980414e+004	(-3.76900302582192e+001dB,1.72363566245246e+002°)
2.21324756795533e+004	(-3.75998974335171e+001dB,1.72326129221001e+002°)
2.21834963052480e+004	(-3.75093838183757e+001dB,1.72288346226696e+002°)
2.22346345456318e+004	(-3.74184853564452e+001dB,1.72250212082549e+002°)
2.22858906718345e+004	(-3.73271979299978e+001dB,1.72211721502287e+002°)
2.23372649556112e+004	(-3.72355173586815e+001dB,1.72172869090371e+002°)
2.23887576693430e+004	(-3.71434393982419e+001dB,1.72133649339124e+002°)
2.24403690860392e+004	(-3.70509597392100e+001dB,1.72094056625778e+002°)
2.24920994793385e+004	(-3.69580740055576e+001dB,1.72054085209420e+002°)
2.25439491235101e+004	(-3.68647777533161e+001dB,1.72013729227840e+002°)
2.25959182934559e+004	(-3.67710664691600e+001dB,1.71972982694281e+002°)
2.26480072647111e+004	(-3.66769355689530e+001dB,1.71931839494076e+002°)
2.27002163134462e+004	(-3.65823803962555e+001dB,1.71890293381182e+002°)
2.27525457164686e+004	(-3.64873962207921e+001dB,1.71848337974595e+002°)
2.28049957512233e+004	(-3.63919782368783e+001dB,1.71805966754648e+002°)
2.28575666957954e+004	(-3.62961215618053e+001dB,1.71763173059184e+002°)
2.29102588289106e+004	(-3.61998212341801e+001dB,1.71719950079603e+002°)
2.29630724299376e+004	(-3.61030722122213e+001dB,1.71676290856773e+002°)
2.30160077788886e+004	(-3.60058693720079e+001dB,1.71632188276805e+002°)
2.30690651564218e+004	(-3.59082075056798e+001dB,1.71587635066680e+002°)
2.31222448438419e+004	(-3.58100813195886e+001dB,1.71542623789729e+002°)
2.31755471231024e+004	(-3.57114854323974e+001dB,1.71497146840956e+002°)
2.32289722768068e+004	(-3.56124143731262e+001dB,1.71451196442198e+002°)
2.32825205882097e+004	(-3.55128625791440e+001dB,1.71404764637115e+002°)
2.33361923412192e+004	(-3.54128243941024e+001dB,1.71357843286003e+002°)
2.33899878203973e+004	(-3.53122940658115e+001dB,1.71310424060431e+002°)
2.34439073109625e+004	(-3.52112657440542e+001dB,1.71262498437672e+002°)
2.34979510987905e+004	(-3.51097334783384e+001dB,1.71214057694950e+002°)
2.35521194704161e+004	(-3.50076912155830e+001dB,1.71165092903467e+002°)
2.36064127130345e+004	(-3.49051327977375e+001dB,1.71115594922225e+002°)
2.36608311145032e+004	(-3.48020519593310e+001dB,1.71065554391609e+002°)
2.37153749633431e+004	(-3.46984423249494e+001dB,1.71014961726746e+002°)
2.37700445487403e+004	(-3.45942974066377e+001dB,1.70963807110612e+002°)
2.38248401605474e+004	(-3.44896106012244e+001dB,1.70912080486882e+002°)
2.38797620892854e+004	(-3.43843751875661e+001dB,1.70859771552515e+002°)
2.39348106261448e+004	(-3.42785843237082e+001dB,1.70806869750057e+002°)
2.39899860629875e+004	(-3.41722310439602e+001dB,1.70753364259653e+002°)
2.40452886923482e+004	(-3.40653082558805e+001dB,1.70699243990754e+002°)
2.41007188074359e+004	(-3.39578087371689e+001dB,1.70644497573500e+002°)
2.41562767021355e+004	(-3.38497251324636e+001dB,1.70589113349778e+002°)
2.42119626710095e+004	(-3.37410499500367e+001dB,1.70533079363922e+002°)
2.42677770092994e+004	(-3.36317755583879e+001dB,1.70476383353055e+002°)
2.43237200129273e+004	(-3.35218941827293e+001dB,1.70419012737044e+002°)
2.43797919784972e+004	(-3.34113979013594e+001dB,1.70360954608057e+002°)
2.44359932032973e+004	(-3.33002786419210e+001dB,1.70302195719702e+002°)
2.44923239853009e+004	(-3.31885281775386e+001dB,1.70242722475727e+002°)
2.45487846231680e+004	(-3.30761381228311e+001dB,1.70182520918260e+002°)
2.46053754162475e+004	(-3.29630999297939e+001dB,1.70121576715565e+002°)
2.46620966645781e+004	(-3.28494048835465e+001dB,1.70059875149302e+002°)
2.47189486688901e+004	(-3.27350440979400e+001dB,1.69997401101245e+002°)
2.47759317306073e+004	(-3.26200085110177e+001dB,1.69934139039455e+002°)
2.48330461518481e+004	(-3.25042888803244e+001dB,1.69870073003863e+002°)
2.48902922354276e+004	(-3.23878757780580e+001dB,1.69805186591249e+002°)
2.49476702848587e+004	(-3.22707595860559e+001dB,1.69739462939564e+002°)
2.50051806043543e+004	(-3.21529304906113e+001dB,1.69672884711598e+002°)
2.50628234988282e+004	(-3.20343784771102e+001dB,1.69605434077916e+002°)
2.51205992738974e+004	(-3.19150933244839e+001dB,1.69537092699065e+002°)
2.51785082358832e+004	(-3.17950645994672e+001dB,1.69467841706987e+002°)
2.52365506918133e+004	(-3.16742816506562e+001dB,1.69397661685611e+002°)
2.52947269494229e+004	(-3.15527336023556e+001dB,1.69326532650573e+002°)
2.53530373171568e+004	(-3.14304093482066e+001dB,1.69254434028026e+002°)
2.54114821041707e+004	(-3.13072975445880e+001dB,1.69181344632478e+002°)
2.54700616203331e+004	(-3.11833866037775e+001dB,1.69107242643627e+002°)
2.55287761762267e+004	(-3.10586646868658e+001dB,1.69032105582113e+002°)
2.55876260831503e+004	(-3.09331196964110e+001dB,1.68955910284151e+002°)
2.56466116531203e+004	(-3.08067392688216e+001dB,1.68878632874964e+002°)
2.57057331988722e+004	(-3.06795107664582e+001dB,1.68800248740971e+002°)
2.57649910338625e+004	(-3.05514212694379e+001dB,1.68720732500633e+002°)
2.58243854722705e+004	(-3.04224575671319e+001dB,1.68640057973912e+002°)
2.58839168289996e+004	(-3.02926061493392e+001dB,1.68558198150233e+002°)
2.59435854196790e+004	(-3.01618531971232e+001dB,1.68475125154894e+002°)
2.60033915606656e+004	(-3.00301845732960e+001dB,1.68390810213804e+002°)
2.60633355690458e+004	(-2.98975858125324e+001dB,1.68305223616480e+002°)
2.61234177626367e+004	(-2.97640421110991e+001dB,1.68218334677174e+002°)
2.61836384599880e+004	(-2.96295383161777e+001dB,1.68130111694045e+002°)
2.62439979803839e+004	(-2.94940589147653e+001dB,1.68040521906236e+002°)
2.63044966438446e+004	(-2.93575880221311e+001dB,1.67949531448741e+002°)
2.63651347711280e+004	(-2.92201093698073e+001dB,1.67857105304933e+002°)
2.64259126837313e+004	(-2.90816062930939e+001dB,1.67763207256593e+002°)
2.64868307038931e+004	(-2.89420617180508e+001dB,1.67667799831300e+002°)
2.65478891545946e+004	(-2.88014581479552e+001dB,1.67570844247012e+002°)
2.66090883595616e+004	(-2.86597776491953e+001dB,1.67472300353651e+002°)
2.66704286432663e+004	(-2.85170018365743e+001dB,1.67372126571524e+002°)
2.67319103309287e+004	(-2.83731118579943e+001dB,1.67270279826350e+002°)
2.67935337485185e+004	(-2.82280883784882e+001dB,1.67166715480695e+002°)
2.68552992227571e+004	(-2.80819115635687e+001dB,1.67061387261562e+002°)
2.69172070811188e+004	(-2.79345610618574e+001dB,1.66954247183894e+002°)
2.69792576518329e+004	(-2.77860159869574e+001dB,1.66845245469715e+002°)
2.70414512638854e+004	(-2.76362548985318e+001dB,1.66734330462610e+002°)
2.71037882470205e+004	(-2.74852557825446e+001dB,1.66621448537228e+002°)
2.71662689317429e+004	(-2.73329960306214e+001dB,1.66506544003473e+002°)
2.72288936493188e+004	(-2.71794524184829e+001dB,1.66389559005005e+002°)
2.72916627317783e+004	(-2.70246010834022e+001dB,1.66270433411659e+002°)
2.73545765119168e+004	(-2.68684175006326e+001dB,1.66149104705345e+002°)
2.74176353232969e+004	(-2.67108764587528e+001dB,1.66025507858973e+002°)
2.74808395002501e+004	(-2.65519520338671e+001dB,1.65899575207884e+002°)
2.75441893778787e+004	(-2.63916175626024e+001dB,1.65771236313255e+002°)
2.76076852920575e+004	(-2.62298456138313e+001dB,1.65640417816881e+002°)
2.76713275794354e+004	(-2.60666079590557e+001dB,1.65507043286680e+002°)
2.77351165774376e+004	(-2.59018755413719e+001dB,1.65371033052249e+002°)
2.77990526242669e+004	(-2.57356184429410e+001dB,1.65232304029679e+002°)
2.78631360589058e+004	(-2.55678058508796e+001dB,1.65090769534834e+002°)
2.79273672211185e+004	(-2.53984060214803e+001dB,1.64946339084181e+002°)
2.79917464514521e+004	(-2.52273862426694e+001dB,1.64798918182189e+002°)
2.80562740912389e+004	(-2.50547127945986e+001dB,1.64648408094248e+002°)
2.81209504825981e+004	(-2.48803509082660e+001dB,1.64494705603918e+002°)
2.81857759684373e+004	(-2.47042647220513e+001dB,1.64337702753257e+002°)
2.82507508924549e+004	(-2.45264172360441e+001dB,1.64177286564832e+002°)
2.83158755991414e+004	(-2.43467702640403e+001dB,1.64013338743877e+002°)
2.83811504337816e+004	(-2.41652843830664e+001dB,1.63845735358951e+002°)
2.84465757424562e+004	(-2.39819188802920e+001dB,1.63674346499247e+002°)
2.85121518720435e+004	(-2.37966316971744e+001dB,1.63499035906557e+002°)
2.85778791702218e+004	(-2.36093793706760e+001dB,1.63319660579681e+002°)
2.86437579854706e+004	(-2.34201169713819e+001dB,1.63136070348852e+002°)
2.87097886670729e+004	(-2.32287980383372e+001dB,1.62948107417506e+002°)
2.87759715651167e+004	(-2.30353745104131e+001dB,1.62755605868451e+002°)
2.88423070304971e+004	(-2.28397966539998e+001dB,1.62558391131187e+002°)
2.89087954149183e+004	(-2.26420129868139e+001dB,1.62356279406774e+002°)
2.89754370708950e+004	(-2.24419701975976e+001dB,1.62149077046299e+002°)
2.90422323517546e+004	(-2.22396130614763e+001dB,1.61936579878518e+002°)
2.91091816116391e+004	(-2.20348843507285e+001dB,1.61718572481828e+002°)
2.91762852055067e+004	(-2.18277247407164e+001dB,1.61494827395133e+002°)
2.92435434891341e+004	(-2.16180727107107e+001dB,1.61265104261625e+002°)
2.93109568191180e+004	(-2.14058644393397e+001dB,1.61029148898771e+002°)
2.93785255528771e+004	(-2.11910336943824e+001dB,1.60786692287082e+002°)
2.94462500486541e+004	(-2.09735117166235e+001dB,1.60537449469358e+002°)
2.95141306655176e+004	(-2.07532270974846e+001dB,1.60281118351149e+002°)
2.95821677633639e+004	(-2.05301056501501e+001dB,1.60017378392076e+002°)
2.96503617029188e+004	(-2.03040702739116e+001dB,1.59745889176417e+002°)
2.97187128457399e+004	(-2.00750408114708e+001dB,1.59466288849991e+002°)
2.97872215542180e+004	(-1.98429338989619e+001dB,1.59178192408746e+002°)
2.98558881915796e+004	(-1.96076628084874e+001dB,1.58881189822703e+002°)
2.99247131218884e+004	(-1.93691372830099e+001dB,1.58574843976840e+002°)
2.99936967100472e+004	(-1.91272633635048e+001dB,1.58258688408169e+002°)
3.00628393218002e+004	(-1.88819432083654e+001dB,1.57932224815649e+002°)
3.01321413237346e+004	(-1.86330749051662e+001dB,1.57594920316516e+002°)
3.02016030832827e+004	(-1.83805522750368e+001dB,1.57246204419194e+002°)
3.02712249687239e+004	(-1.81242646700926e+001dB,1.56885465679033e+002°)
3.03410073491864e+004	(-1.78640967646113e+001dB,1.56512047998584e+002°)
3.04109505946496e+004	(-1.75999283409611e+001dB,1.56125246529045e+002°)
3.04810550759455e+004	(-1.73316340716858e+001dB,1.55724303123576e+002°)
3.05513211647612e+004	(-1.70590832996589e+001dB,1.55308401286524e+002°)
3.06217492336403e+004	(-1.67821398188614e+001dB,1.54876660554845e+002°)
3.06923396559856e+004	(-1.65006616591490e+001dB,1.54428130239272e+002°)
3.07630928060604e+004	(-1.62145008793993e+001dB,1.53961782442692e+002°)
3.08340090589909e+004	(-1.59235033747204e+001dB,1.53476504261731e+002°)
3.09050887907680e+004	(-1.56275087050268e+001dB,1.52971089064484e+002°)
3.09763323782493e+004	(-1.53263499543438e+001dB,1.52444226722446e+002°)
3.10477401991613e+004	(-1.50198536327761e+001dB,1.51894492657902e+002°)
3.11193126321012e+004	(-1.47078396363378e+001dB,1.51320335549041e+002°)
3.11910500565388e+004	(-1.43901212839354e+001dB,1.50720063513855e+002°)
3.12629528528188e+004	(-1.40665054559680e+001dB,1.50091828570319e+002°)
3.13350214021627e+004	(-1.37367928655247e+001dB,1.49433609144536e+002°)
3.14072560866707e+004	(-1.34007785013819e+001dB,1.48743190370767e+002°)
3.14796572893241e+004	(-1.30582522923693e+001dB,1.48018141898078e+002°)
3.15522253939866e+004	(-1.27090000557500e+001dB,1.47255792888930e+002°)
3.16249607854073e+004	(-1.23528048087373e+001dB,1.46453203867139e+002°)
3.16978638492219e+004	(-1.19894485430212e+001dB,1.45607135049386e+002°)
3.17709349719552e+004	(-1.16187145882568e+001dB,1.44714010780327e+002°)
3.18441745410231e+004	(-1.12403907231651e+001dB,1.43769879693524e+002°)
3.19175829447343e+004	(-1.08542732337443e+001dB,1.42770370249430e+002°)
3.19911605722930e+004	(-1.04601721688302e+001dB,1.41710641373045e+002°)
3.20649078138005e+004	(-1.00579181058182e+001dB,1.40585328050349e+002°)
3.21388250602572e+004	(-9.64737081568456e+000dB,1.39388481976923e+002°)
3.22129127035651e+004	(-9.22843030815007e+000dB,1.38113507730665e+002°)
3.22871711365294e+004	(-8.80105084559879e+000dB,1.36753095528262e+002°)
3.23616007528610e+004	(-8.36525863690235e+000dB,1.35299152511604e+002°)
3.24362019471782e+004	(-7.92117405448598e+000dB,1.33742735815810e+002°)
3.25109751150093e+004	(-7.46903934797588e+000dB,1.32073992551378e+002°)
3.25859206527941e+004	(-7.00925293248523e+000dB,1.30282114482879e+002°)
3.26610389578863e+004	(-6.54241136794848e+000dB,1.28355318827585e+002°)
3.27363304285558e+004	(-6.06936004951976e+000dB,1.26280871448168e+002°)
3.28117954639904e+004	(-5.59125329054590e+000dB,1.24045174917381e+002°)
3.28874344642983e+004	(-5.10962374050701e+000dB,1.21633951413519e+002°)
3.29632478305098e+004	(-4.62645972410405e+000dB,1.19032558616461e+002°)
3.30392359645799e+004	(-4.14428685064307e+000dB,1.16226484301730e+002°)
3.31153992693902e+004	(-3.66624686542611e+000dB,1.13202069357324e+002°)
3.31917381487508e+004	(-3.19616206777669e+000dB,1.09947504695052e+002°)
3.32682530074030e+004	(-2.73856794331497e+000dB,1.06454128023886e+002°)
3.33449442510209e+004	(-2.29869091887468e+000dB,1.02718003377398e+002°)
3.34218122862138e+004	(-1.88234443202933e+000dB,9.87416929752979e+001°)
3.34988575205283e+004	(-1.49571815075898e+000dB,9.45360285309165e+001°)
3.35760803624508e+004	(-1.14504613779552e+000dB,9.01215747955206e+001°)
3.36534812214089e+004	(-8.36162675644550e-001dB,8.55293918953381e+001°)
3.37310605077744e+004	(-5.73987598142494e-001dB,8.08007028845112e+001°)
3.38088186328649e+004	(-3.62017525292303e-001dB,7.59852108471492e+001°)
3.38867560089462e+004	(-2.01920428800355e-001dB,7.11380913387110e+001°)
3.39648730492345e+004	(-9.33239399795187e-002dB,6.63160386223669e+001°)
3.40431701678986e+004	(-3.38485687810931e-002dB,6.15730313859838e+001°)
3.41216477800620e+004	(-1.93775795096402e-002dB,5.69565735727447e+001°)
3.42003063018053e+004	(-4.44991848872204e-002dB,5.25050145162218e+001°)
3.42791461501681e+004	(-1.03025541738280e-001dB,4.82462332753919e+001°)
3.43581677431513e+004	(-1.88494468470437e-001dB,4.41976267736396e+001°)
3.44373714997197e+004	(-2.94586030925469e-001dB,4.03670943836323e+001°)
3.45167578398036e+004	(-4.15421591098683e-001dB,3.67546135500579e+001°)
3.45963271843016e+004	(-5.45743876054934e-001dB,3.33540299815184e+001°)
3.46760799550823e+004	(-6.80996300680470e-001dB,3.01547847859866e+001°)
3.47560165749871e+004	(-8.17327905025988e-001dB,2.71434149954832e+001°)
3.48361374678318e+004	(-9.51550107486312e-001dB,2.43047594930760e+001°)
3.49164430584096e+004	(-1.08106694873005e+000dB,2.16228672613455e+001°)
3.49969337724927e+004	(-1.20379463233493e+000dB,1.90816408623756e+001°)
3.50776100368348e+004	(-1.31808071395008e+000dB,1.66652626988524e+001°)
3.51584722791734e+004	(-1.42262898637432e+000dB,1.43584530386602e+001°)
3.52395209282321e+004	(-1.51643306482674e+000dB,1.21466034216894e+001°)
3.53207564137228e+004	(-1.59871971353151e+000dB,1.00158211218347e+001°)
3.54021791663480e+004	(-1.66890180300915e+000dB,7.95291219774435e+000°)
3.54837896178029e+004	(-1.72654019404094e+000dB,5.94532347186760e+000°)
3.55655882007780e+004	(-1.77131360910348e+000dB,3.98105792294022e+000°)
3.56475753489613e+004	(-1.80299553255341e+000dB,2.04857346746716e+000°)
3.57297514970406e+004	(-1.82143728271130e+000dB,1.36671777797053e-001°)
3.58121170807054e+004	(-1.82655656392364e+000dB,-1.76561857125130e+000°)
3.58946725366501e+004	(-1.81833100108391e+000dB,-3.66916191244558e+000°)
3.59774183025753e+004	(-1.79679636535052e+000dB,-5.58483648873719e+000°)
3.60603548171909e+004	(-1.76204940986906e+000dB,-7.52365530888207e+000°)
3.61434825202181e+004	(-1.71425544505315e+000dB,-9.49688546232156e+000°)
3.62268018523916e+004	(-1.65366099256955e+000dB,-1.15161639604042e+001°)
3.63103132554622e+004	(-1.58061206169314e+000dB,-1.35936070874348e+001°)
3.63940171721992e+004	(-1.49557878136921e+000dB,-1.57419085044124e+001°)
3.64779140463923e+004	(-1.39918727550830e+000dB,-1.79744187878372e+001°)
3.65620043228544e+004	(-1.29225974934149e+000dB,-2.03051955048981e+001°)
3.66462884474237e+004	(-1.17586369558646e+000dB,-2.27490081188748e+001°)
3.67307668669664e+004	(-1.05137082642106e+000dB,-2.53212758462544e+001°)
3.68154400293786e+004	(-9.20525635585773e-001dB,-2.80379091205625e+001°)
3.69003083835890e+004	(-7.85522180899783e-001dB,-3.09150170852062e+001°)
3.69853723795610e+004	(-6.49085489298718e-001dB,-3.39684359150941e+001°)
3.70706324682957e+004	(-5.14550663419008e-001dB,-3.72130285118896e+001°)
3.71560891018335e+004	(-3.85928173926469e-001dB,-4.06617099333814e+001°)
3.72417427332568e+004	(-2.67938176335408e-001dB,-4.43241717016647e+001°)
3.73275938166929e+004	(-1.65990929637505e-001dB,-4.82053201958643e+001°)
3.74136428073155e+004	(-8.60865565238881e-002dB,-5.23035164859163e+001°)
3.74998901613478e+004	(-3.46087684495402e-002dB,-5.66088065451713e+001°)
3.75863363360648e+004	(-1.79977418645089e-002dB,-6.11014452190356e+001°)
3.76729817897955e+004	(-4.23098189636999e-002dB,-6.57511055176631e+001°)
3.77598269819253e+004	(-1.12704579014568e-001dB,-7.05171690826226e+001°)
