Freq.	V(va)/I(R3)
2.00000000000000e+004	(1.00417154965572e+002dB,1.78824486476287e+002°)
2.00461047615580e+004	(1.00418087236869e+002dB,1.78818373801860e+002°)
2.00923158055679e+004	(1.00419028038165e+002dB,1.78812204103656e+002°)
2.01386333770361e+004	(1.00419977476064e+002dB,1.78805976565751e+002°)
2.01850577215337e+004	(1.00420935658917e+002dB,1.78799690356661e+002°)
2.02315890851980e+004	(1.00421902696856e+002dB,1.78793344628970e+002°)
2.02782277147336e+004	(1.00422878701832e+002dB,1.78786938518947e+002°)
2.03249738574139e+004	(1.00423863787650e+002dB,1.78780471146160e+002°)
2.03718277610823e+004	(1.00424858070011e+002dB,1.78773941613073e+002°)
2.04187896741536e+004	(1.00425861666546e+002dB,1.78767349004630e+002°)
2.04658598456151e+004	(1.00426874696859e+002dB,1.78760692387830e+002°)
2.05130385250281e+004	(1.00427897282567e+002dB,1.78753970811291e+002°)
2.05603259625295e+004	(1.00428929547343e+002dB,1.78747183304796e+002°)
2.06077224088323e+004	(1.00429971616955e+002dB,1.78740328878832e+002°)
2.06552281152279e+004	(1.00431023619315e+002dB,1.78733406524111e+002°)
2.07028433335869e+004	(1.00432085684523e+002dB,1.78726415211079e+002°)
2.07505683163602e+004	(1.00433157944908e+002dB,1.78719353889408e+002°)
2.07984033165812e+004	(1.00434240535082e+002dB,1.78712221487474e+002°)
2.08463485878661e+004	(1.00435333591985e+002dB,1.78705016911822e+002°)
2.08944043844160e+004	(1.00436437254935e+002dB,1.78697739046611e+002°)
2.09425709610180e+004	(1.00437551665680e+002dB,1.78690386753046e+002°)
2.09908485730464e+004	(1.00438676968449e+002dB,1.78682958868785e+002°)
2.10392374764644e+004	(1.00439813310005e+002dB,1.78675454207340e+002°)
2.10877379278252e+004	(1.00440960839702e+002dB,1.78667871557447e+002°)
2.11363501842731e+004	(1.00442119709540e+002dB,1.78660209682426e+002°)
2.11850745035457e+004	(1.00443290074222e+002dB,1.78652467319518e+002°)
2.12339111439745e+004	(1.00444472091214e+002dB,1.78644643179196e+002°)
2.12828603644863e+004	(1.00445665920808e+002dB,1.78636735944464e+002°)
2.13319224246051e+004	(1.00446871726178e+002dB,1.78628744270127e+002°)
2.13810975844531e+004	(1.00448089673450e+002dB,1.78620666782042e+002°)
2.14303861047521e+004	(1.00449319931767e+002dB,1.78612502076338e+002°)
2.14797882468249e+004	(1.00450562673350e+002dB,1.78604248718622e+002°)
2.15293042725967e+004	(1.00451818073576e+002dB,1.78595905243150e+002°)
2.15789344445965e+004	(1.00453086311042e+002dB,1.78587470151977e+002°)
2.16286790259587e+004	(1.00454367567641e+002dB,1.78578941914073e+002°)
2.16785382804240e+004	(1.00455662028633e+002dB,1.78570318964421e+002°)
2.17285124723413e+004	(1.00456969882728e+002dB,1.78561599703072e+002°)
2.17786018666686e+004	(1.00458291322158e+002dB,1.78552782494179e+002°)
2.18288067289751e+004	(1.00459626542761e+002dB,1.78543865664997e+002°)
2.18791273254418e+004	(1.00460975744062e+002dB,1.78534847504841e+002°)
2.19295639228637e+004	(1.00462339129359e+002dB,1.78525726264027e+002°)
2.19801167886504e+004	(1.00463716905813e+002dB,1.78516500152755e+002°)
2.20307861908283e+004	(1.00465109284530e+002dB,1.78507167339974e+002°)
2.20815723980414e+004	(1.00466516480663e+002dB,1.78497725952198e+002°)
2.21324756795533e+004	(1.00467938713498e+002dB,1.78488174072280e+002°)
2.21834963052480e+004	(1.00469376206556e+002dB,1.78478509738151e+002°)
2.22346345456318e+004	(1.00470829187689e+002dB,1.78468730941511e+002°)
2.22858906718345e+004	(1.00472297889187e+002dB,1.78458835626474e+002°)
2.23372649556112e+004	(1.00473782547879e+002dB,1.78448821688166e+002°)
2.23887576693430e+004	(1.00475283405246e+002dB,1.78438686971277e+002°)
2.24403690860392e+004	(1.00476800707524e+002dB,1.78428429268557e+002°)
2.24920994793385e+004	(1.00478334705827e+002dB,1.78418046319260e+002°)
2.25439491235101e+004	(1.00479885656259e+002dB,1.78407535807537e+002°)
2.25959182934559e+004	(1.00481453820035e+002dB,1.78396895360761e+002°)
2.26480072647111e+004	(1.00483039463608e+002dB,1.78386122547803e+002°)
2.27002163134462e+004	(1.00484642858790e+002dB,1.78375214877238e+002°)
2.27525457164686e+004	(1.00486264282891e+002dB,1.78364169795486e+002°)
2.28049957512233e+004	(1.00487904018847e+002dB,1.78352984684886e+002°)
2.28575666957954e+004	(1.00489562355360e+002dB,1.78341656861702e+002°)
2.29102588289106e+004	(1.00491239587042e+002dB,1.78330183574048e+002°)
2.29630724299376e+004	(1.00492936014558e+002dB,1.78318561999740e+002°)
2.30160077788886e+004	(1.00494651944780e+002dB,1.78306789244064e+002°)
2.30690651564218e+004	(1.00496387690937e+002dB,1.78294862337465e+002°)
2.31222448438419e+004	(1.00498143572776e+002dB,1.78282778233141e+002°)
2.31755471231024e+004	(1.00499919916727e+002dB,1.78270533804552e+002°)
2.32289722768068e+004	(1.00501717056067e+002dB,1.78258125842825e+002°)
2.32825205882097e+004	(1.00503535331096e+002dB,1.78245551054064e+002°)
2.33361923412192e+004	(1.00505375089311e+002dB,1.78232806056555e+002°)
2.33899878203973e+004	(1.00507236685592e+002dB,1.78219887377859e+002°)
2.34439073109625e+004	(1.00509120482389e+002dB,1.78206791451791e+002°)
2.34979510987905e+004	(1.00511026849912e+002dB,1.78193514615281e+002°)
2.35521194704161e+004	(1.00512956166331e+002dB,1.78180053105104e+002°)
2.36064127130345e+004	(1.00514908817983e+002dB,1.78166403054486e+002°)
2.36608311145032e+004	(1.00516885199577e+002dB,1.78152560489568e+002°)
2.37153749633431e+004	(1.00518885714414e+002dB,1.78138521325727e+002°)
2.37700445487403e+004	(1.00520910774606e+002dB,1.78124281363745e+002°)
2.38248401605474e+004	(1.00522960801304e+002dB,1.78109836285825e+002°)
2.38797620892854e+004	(1.00525036224936e+002dB,1.78095181651432e+002°)
2.39348106261448e+004	(1.00527137485444e+002dB,1.78080312892976e+002°)
2.39899860629875e+004	(1.00529265032534e+002dB,1.78065225311294e+002°)
2.40452886923482e+004	(1.00531419325931e+002dB,1.78049914070957e+002°)
2.41007188074359e+004	(1.00533600835643e+002dB,1.78034374195374e+002°)
2.41562767021355e+004	(1.00535810042224e+002dB,1.78018600561674e+002°)
2.42119626710095e+004	(1.00538047437059e+002dB,1.78002587895389e+002°)
2.42677770092994e+004	(1.00540313522642e+002dB,1.77986330764885e+002°)
2.43237200129273e+004	(1.00542608812872e+002dB,1.77969823575566e+002°)
2.43797919784972e+004	(1.00544933833354e+002dB,1.77953060563808e+002°)
2.44359932032973e+004	(1.00547289121702e+002dB,1.77936035790644e+002°)
2.44923239853009e+004	(1.00549675227865e+002dB,1.77918743135146e+002°)
2.45487846231680e+004	(1.00552092714443e+002dB,1.77901176287525e+002°)
2.46053754162475e+004	(1.00554542157028e+002dB,1.77883328741916e+002°)
2.46620966645781e+004	(1.00557024144543e+002dB,1.77865193788829e+002°)
2.47189486688901e+004	(1.00559539279597e+002dB,1.77846764507265e+002°)
2.47759317306073e+004	(1.00562088178844e+002dB,1.77828033756457e+002°)
2.48330461518481e+004	(1.00564671473351e+002dB,1.77808994167236e+002°)
2.48902922354276e+004	(1.00567289808984e+002dB,1.77789638132990e+002°)
2.49476702848587e+004	(1.00569943846790e+002dB,1.77769957800198e+002°)
2.50051806043543e+004	(1.00572634263400e+002dB,1.77749945058512e+002°)
2.50628234988282e+004	(1.00575361751435e+002dB,1.77729591530374e+002°)
2.51205992738974e+004	(1.00578127019923e+002dB,1.77708888560123e+002°)
2.51785082358832e+004	(1.00580930794726e+002dB,1.77687827202584e+002°)
2.52365506918133e+004	(1.00583773818977e+002dB,1.77666398211092e+002°)
2.52947269494229e+004	(1.00586656853527e+002dB,1.77644592024936e+002°)
2.53530373171568e+004	(1.00589580677395e+002dB,1.77622398756171e+002°)
2.54114821041707e+004	(1.00592546088236e+002dB,1.77599808175786e+002°)
2.54700616203331e+004	(1.00595553902814e+002dB,1.77576809699167e+002°)
2.55287761762267e+004	(1.00598604957477e+002dB,1.77553392370826e+002°)
2.55876260831503e+004	(1.00601700108653e+002dB,1.77529544848355e+002°)
2.56466116531203e+004	(1.00604840233342e+002dB,1.77505255385556e+002°)
2.57057331988722e+004	(1.00608026229619e+002dB,1.77480511814694e+002°)
2.57649910338625e+004	(1.00611259017147e+002dB,1.77455301527830e+002°)
2.58243854722705e+004	(1.00614539537687e+002dB,1.77429611457171e+002°)
2.58839168289996e+004	(1.00617868755620e+002dB,1.77403428054378e+002°)
2.59435854196790e+004	(1.00621247658469e+002dB,1.77376737268775e+002°)
2.60033915606656e+004	(1.00624677257422e+002dB,1.77349524524387e+002°)
2.60633355690458e+004	(1.00628158587858e+002dB,1.77321774695726e+002°)
2.61234177626367e+004	(1.00631692709871e+002dB,1.77293472082269e+002°)
2.61836384599880e+004	(1.00635280708785e+002dB,1.77264600381523e+002°)
2.62439979803839e+004	(1.00638923695676e+002dB,1.77235142660594e+002°)
2.63044966438446e+004	(1.00642622807872e+002dB,1.77205081326182e+002°)
2.63651347711280e+004	(1.00646379209451e+002dB,1.77174398092867e+002°)
2.64259126837313e+004	(1.00650194091723e+002dB,1.77143073949612e+002°)
2.64868307038931e+004	(1.00654068673687e+002dB,1.77111089124338e+002°)
2.65478891545946e+004	(1.00658004202475e+002dB,1.77078423046462e+002°)
2.66090883595616e+004	(1.00662001953765e+002dB,1.77045054307252e+002°)
2.66704286432663e+004	(1.00666063232155e+002dB,1.77010960617864e+002°)
2.67319103309287e+004	(1.00670189371509e+002dB,1.76976118764895e+002°)
2.67935337485185e+004	(1.00674381735246e+002dB,1.76940504563293e+002°)
2.68552992227571e+004	(1.00678641716582e+002dB,1.76904092806430e+002°)
2.69172070811188e+004	(1.00682970738704e+002dB,1.76866857213165e+002°)
2.69792576518329e+004	(1.00687370254875e+002dB,1.76828770371664e+002°)
2.70414512638854e+004	(1.00691841748452e+002dB,1.76789803679770e+002°)
2.71037882470205e+004	(1.00696386732805e+002dB,1.76749927281666e+002°)
2.71662689317429e+004	(1.00701006751129e+002dB,1.76709110000584e+002°)
2.72288936493188e+004	(1.00705703376121e+002dB,1.76667319267260e+002°)
2.72916627317783e+004	(1.00710478209516e+002dB,1.76624521043844e+002°)
2.73545765119168e+004	(1.00715332881456e+002dB,1.76580679742925e+002°)
2.74176353232969e+004	(1.00720269049663e+002dB,1.76535758141326e+002°)
2.74808395002501e+004	(1.00725288398404e+002dB,1.76489717288273e+002°)
2.75441893778787e+004	(1.00730392637198e+002dB,1.76442516407528e+002°)
2.76076852920575e+004	(1.00735583499259e+002dB,1.76394112793034e+002°)
2.76713275794354e+004	(1.00740862739608e+002dB,1.76344461697588e+002°)
2.77351165774376e+004	(1.00746232132834e+002dB,1.76293516214011e+002°)
2.77990526242669e+004	(1.00751693470447e+002dB,1.76241227148243e+002°)
2.78631360589058e+004	(1.00757248557766e+002dB,1.76187542883752e+002°)
2.79273672211185e+004	(1.00762899210292e+002dB,1.76132409236572e+002°)
2.79917464514521e+004	(1.00768647249488e+002dB,1.76075769300264e+002°)
2.80562740912389e+004	(1.00774494497886e+002dB,1.76017563279990e+002°)
2.81209504825981e+004	(1.00780442773449e+002dB,1.75957728314858e+002°)
2.81857759684373e+004	(1.00786493883068e+002dB,1.75896198287614e+002°)
2.82507508924549e+004	(1.00792649615098e+002dB,1.75832903620659e+002°)
2.83158755991414e+004	(1.00798911730795e+002dB,1.75767771057314e+002°)
2.83811504337816e+004	(1.00805281954519e+002dB,1.75700723427144e+002°)
2.84465757424562e+004	(1.00811761962529e+002dB,1.75631679394054e+002°)
2.85121518720435e+004	(1.00818353370189e+002dB,1.75560553185758e+002°)
2.85778791702218e+004	(1.00825057717381e+002dB,1.75487254303119e+002°)
2.86437579854706e+004	(1.00831876451871e+002dB,1.75411687207711e+002°)
2.87097886670729e+004	(1.00838810910365e+002dB,1.75333750985820e+002°)
2.87759715651167e+004	(1.00845862296939e+002dB,1.75253338986971e+002°)
2.88423070304971e+004	(1.00853031658498e+002dB,1.75170338434884e+002°)
2.89087954149183e+004	(1.00860319856845e+002dB,1.75084630008599e+002°)
2.89754370708950e+004	(1.00867727536915e+002dB,1.74996087391351e+002°)
2.90422323517546e+004	(1.00875255090637e+002dB,1.74904576784542e+002°)
2.91091816116391e+004	(1.00882902615827e+002dB,1.74809956383999e+002°)
2.91762852055067e+004	(1.00890669869426e+002dB,1.74712075815457e+002°)
2.92435434891341e+004	(1.00898556214292e+002dB,1.74610775526026e+002°)
2.93109568191180e+004	(1.00906560558643e+002dB,1.74505886128140e+002°)
2.93785255528771e+004	(1.00914681287119e+002dB,1.74397227692289e+002°)
2.94462500486541e+004	(1.00922916182275e+002dB,1.74284608984616e+002°)
2.95141306655176e+004	(1.00931262335132e+002dB,1.74167826645226e+002°)
2.95821677633639e+004	(1.00939716043235e+002dB,1.74046664302918e+002°)
2.96503617029188e+004	(1.00948272694390e+002dB,1.73920891621848e+002°)
2.97187128457399e+004	(1.00956926634023e+002dB,1.73790263275572e+002°)
2.97872215542180e+004	(1.00965671013747e+002dB,1.73654517843889e+002°)
2.98558881915796e+004	(1.00974497618400e+002dB,1.73513376627957e+002°)
2.99247131218884e+004	(1.00983396668348e+002dB,1.73366542379423e+002°)
2.99936967100472e+004	(1.00992356593389e+002dB,1.73213697939688e+002°)
3.00628393218002e+004	(1.01001363774027e+002dB,1.73054504786103e+002°)
3.01321413237346e+004	(1.01010402245200e+002dB,1.72888601482918e+002°)
3.02016030832827e+004	(1.01019453356822e+002dB,1.72715602036210e+002°)
3.02712249687239e+004	(1.01028495384613e+002dB,1.72535094154076e+002°)
3.03410073491864e+004	(1.01037503083670e+002dB,1.72346637416078e+002°)
3.04109505946496e+004	(1.01046447176104e+002dB,1.72149761359698e+002°)
3.04810550759455e+004	(1.01055293762713e+002dB,1.71943963496439e+002°)
3.05513211647612e+004	(1.01064003647173e+002dB,1.71728707276749e+002°)
3.06217492336403e+004	(1.01072531559496e+002dB,1.71503420031462e+002°)
3.06923396559856e+004	(1.01080825263568e+002dB,1.71267490928498e+002°)
3.07630928060604e+004	(1.01088824531429e+002dB,1.71020268997914e+002°)
3.08340090589909e+004	(1.01096459964526e+002dB,1.70761061296793e+002°)
3.09050887907680e+004	(1.01103651639591e+002dB,1.70489131309066e+002°)
3.09763323782493e+004	(1.01110307553973e+002dB,1.70203697705494e+002°)
3.10477401991613e+004	(1.01116321842368e+002dB,1.69903933627219e+002°)
3.11193126321012e+004	(1.01121572734009e+002dB,1.69588966704685e+002°)
3.11910500565388e+004	(1.01125920216703e+002dB,1.69257880084542e+002°)
3.12629528528188e+004	(1.01129203371973e+002dB,1.68909714813255e+002°)
3.13350214021627e+004	(1.01131237344380e+002dB,1.68543474020864e+002°)
3.14072560866707e+004	(1.01131809908569e+002dB,1.68158129465195e+002°)
3.14796572893241e+004	(1.01130677600606e+002dB,1.67752631139843e+002°)
3.15522253939866e+004	(1.01127561387025e+002dB,1.67325920822313e+002°)
3.16249607854073e+004	(1.01122141857541e+002dB,1.66876950645175e+002°)
3.16978638492219e+004	(1.01114053947899e+002dB,1.66404708015028e+002°)
3.17709349719552e+004	(1.01102881231002e+002dB,1.65908248480777e+002°)
3.18441745410231e+004	(1.01088149861397e+002dB,1.65386738458619e+002°)
3.19175829447343e+004	(1.01069322325245e+002dB,1.64839510042979e+002°)
3.19911605722930e+004	(1.01045791241311e+002dB,1.64266130444799e+002°)
3.20649078138005e+004	(1.01016873584823e+002dB,1.63666488857809e+002°)
3.21388250602572e+004	(1.00981805872473e+002dB,1.63040903691115e+002°)
3.22129127035651e+004	(1.00939741059293e+002dB,1.62390253020518e+002°)
3.22871711365294e+004	(1.00889748159841e+002dB,1.61716130656981e+002°)
3.23616007528610e+004	(1.00830815914173e+002dB,1.61021029215447e+002°)
3.24362019471782e+004	(1.00761862159706e+002dB,1.60308549748497e+002°)
3.25109751150093e+004	(1.00681750913082e+002dB,1.59583634608174e+002°)
3.25859206527941e+004	(1.00589319457005e+002dB,1.58852815933525e+002°)
3.26610389578863e+004	(1.00483417880610e+002dB,1.58124466311280e+002°)
3.27363304285558e+004	(1.00362963417674e+002dB,1.57409030670198e+002°)
3.28117954639904e+004	(1.00227011411445e+002dB,1.56719209609079e+002°)
3.28874344642983e+004	(1.00074843635635e+002dB,1.56070054878922e+002°)
3.29632478305098e+004	(9.99060728573100e+001dB,1.55478929059567e+002°)
3.30392359645799e+004	(9.97207598402607e+001dB,1.54965275777176e+002°)
3.31153992693902e+004	(9.95195354881909e+001dB,1.54550147016476e+002°)
3.31917381487508e+004	(9.93037167552871e+001dB,1.54255443564162e+002°)
3.32682530074030e+004	(9.90754008283220e+001dB,1.54102846639181e+002°)
3.33449442510209e+004	(9.88375187590195e+001dB,1.54112455556461e+002°)
3.34218122862138e+004	(9.85938283688626e+001dB,1.54301197750029e+002°)
3.34988575205283e+004	(9.83488282415084e+001dB,1.54681139618585e+002°)
3.35760803624508e+004	(9.81075812598135e+001dB,1.55257889776763e+002°)
3.36534812214089e+004	(9.78754481040470e+001dB,1.56029334183806e+002°)
3.37310605077744e+004	(9.76577476596783e+001dB,1.56984954113378e+002°)
3.38088186328649e+004	(9.74593794979859e+001dB,1.58105932911849e+002°)
3.38867560089462e+004	(9.72844584102542e+001dB,1.59366147511050e+002°)
3.39648730492345e+004	(9.71360164310826e+001dB,1.60733980062214e+002°)
3.40431701678986e+004	(9.70158196987170e+001dB,1.62174714383596e+002°)
3.41216477800620e+004	(9.69243262774008e+001dB,1.63653156297184e+002°)
3.42003063018053e+004	(9.68607825999769e+001dB,1.65136081525510e+002°)
3.42791461501681e+004	(9.68234296403223e+001dB,1.66594181134237e+002°)
3.43581677431513e+004	(9.68097734275509e+001dB,1.68003314078434e+002°)
3.44373714997197e+004	(9.68168715252159e+001dB,1.69345036658051e+002°)
3.45167578398036e+004	(9.68415956277927e+001dB,1.70606509522820e+002°)
3.45963271843016e+004	(9.68808451068285e+001dB,1.71779956705484e+002°)
3.46760799550823e+004	(9.69317014992714e+001dB,1.72861866976236e+002°)
3.47560165749871e+004	(9.69915257621454e+001dB,1.73852102237211e+002°)
3.48361374678318e+004	(9.70580072369086e+001dB,1.74753032390384e+002°)
3.49164430584096e+004	(9.71291761085097e+001dB,1.75568768759213e+002°)
3.49969337724927e+004	(9.72033909935080e+001dB,1.76304528950747e+002°)
3.50776100368348e+004	(9.72793115146834e+001dB,1.76966138582055e+002°)
3.51584722791734e+004	(9.73558633685911e+001dB,1.77559658905947e+002°)
3.52395209282321e+004	(9.74322011138117e+001dB,1.78091121518496e+002°)
3.53207564137228e+004	(9.75076720097113e+001dB,1.78566349162290e+002°)
3.54021791663480e+004	(9.75817828043040e+001dB,1.78990842757726e+002°)
3.54837896178029e+004	(9.76541703715298e+001dB,1.79369717487435e+002°)
3.55655882007780e+004	(9.77245764502643e+001dB,1.79707673945143e+002°)
3.56475753489613e+004	(9.77928263488904e+001dB,-1.79991006562437e+002°)
3.57297514970406e+004	(9.78588112705093e+001dB,-1.79722450787292e+002°)
3.58121170807054e+004	(9.79224738224088e+001dB,-1.79483172411102e+002°)
3.58946725366501e+004	(9.79837962539306e+001dB,-1.79270045313038e+002°)
3.59774183025753e+004	(9.80427909882962e+001dB,-1.79080274217398e+002°)
3.60603548171909e+004	(9.80994930560131e+001dB,-1.78911364729685e+002°)
3.61434825202181e+004	(9.81539540875859e+001dB,-1.78761094062935e+002°)
3.62268018523916e+004	(9.82062375740400e+001dB,-1.78627483253818e+002°)
3.63103132554622e+004	(9.82564151512223e+001dB,-1.78508771318273e+002°)
3.63940171721992e+004	(9.83045637061238e+001dB,-1.78403391558286e+002°)
3.64779140463923e+004	(9.83507631399304e+001dB,-1.78309950073689e+002°)
3.65620043228544e+004	(9.83950946532787e+001dB,-1.78227206431848e+002°)
3.66462884474237e+004	(9.84376394446977e+001dB,-1.78154056386666e+002°)
3.67307668669664e+004	(9.84784777341021e+001dB,-1.78089516503464e+002°)
3.68154400293786e+004	(9.85176880401090e+001dB,-1.78032710528810e+002°)
3.69003083835890e+004	(9.85553466535670e+001dB,-1.77982857337143e+002°)
3.69853723795610e+004	(9.85915272606712e+001dB,-1.77939260284040e+002°)
3.70706324682957e+004	(9.86263006781194e+001dB,-1.77901297795445e+002°)
3.71560891018335e+004	(9.86597346707033e+001dB,-1.77868415020997e+002°)
3.72417427332568e+004	(9.86918938294069e+001dB,-1.77840116378057e+002°)
3.73275938166929e+004	(9.87228394962914e+001dB,-1.77815958814489e+002°)
3.74136428073155e+004	(9.87526297316327e+001dB,-1.77795545630804e+002°)
3.74998901613478e+004	(9.87813193283768e+001dB,-1.77778520737102e+002°)
3.75863363360648e+004	(9.88089598868005e+001dB,-1.77764563287742e+002°)
3.76729817897955e+004	(9.88355999643582e+001dB,-1.77753382735546e+002°)
3.77598269819253e+004	(9.88612853078718e+001dB,-1.77744714453359e+002°)
3.78468723728990e+004	(9.88860591563201e+001dB,-1.77738316134316e+002°)
3.79341184242224e+004	(9.89099625779872e+001dB,-1.77733965148487e+002°)
3.80215655984654e+004	(9.89330347876206e+001dB,-1.77731456884720e+002°)
3.81092143592644e+004	(9.89553133897476e+001dB,-1.77730603893633e+002°)
