Freq.	V(vo)
Step Information: Run=1  (Run: 1/100)
1.50000000000000e+002	(-3.13550708396180e-001dB,1.43698564761708e+002°)
1.53493948842113e+002	(-3.23577357098861e-001dB,1.42853927916813e+002°)
1.57069282207635e+002	(-3.34079300698665e-001dB,1.41989685851896e+002°)
1.60727895785641e+002	(-3.45079199396303e-001dB,1.41105387093975e+002°)
1.64471729421478e+002	(-3.56600805688648e-001dB,1.40200570055896e+002°)
1.68302768145294e+002	(-3.68669018095388e-001dB,1.39274762832989e+002°)
1.72223043224532e+002	(-3.81309937621825e-001dB,1.38327482997671e+002°)
1.76234633240929e+002	(-3.94550927105131e-001dB,1.37358237392196e+002°)
1.80339665192612e+002	(-4.08420673599988e-001dB,1.36366521919742e+002°)
1.84540315621857e+002	(-4.22949253968679e-001dB,1.35351821334088e+002°)
1.88838811769125e+002	(-4.38168203849981e-001dB,1.34313609028129e+002°)
1.93237432753970e+002	(-4.54110590193068e-001dB,1.33251346821542e+002°)
1.97738510783461e+002	(-4.70811087552098e-001dB,1.32164484747930e+002°)
2.02344432388748e+002	(-4.88306058350496e-001dB,1.31052460841805e+002°)
2.07057639690433e+002	(-5.06633637336347e-001dB,1.29914700925844e+002°)
2.11880631693413e+002	(-5.25833820464207e-001dB,1.28750618398853e+002°)
2.16815965611889e+002	(-5.45948558453731e-001dB,1.27559614024965e+002°)
2.21866258225231e+002	(-5.67021855291959e-001dB,1.26341075724627e+002°)
2.27034187265431e+002	(-5.89099871962947e-001dB,1.25094378368001e+002°)
2.32322492836872e+002	(-6.12231035708707e-001dB,1.23818883571463e+002°)
2.37733978869167e+002	(-6.36466155144998e-001dB,1.22513939497967e+002°)
2.43271514603839e+002	(-6.61858541579179e-001dB,1.21178880662108e+002°)
2.48938036115634e+002	(-6.88464136901975e-001dB,1.19813027740799e+002°)
2.54736547869261e+002	(-7.16341648452564e-001dB,1.18415687390609e+002°)
2.60670124312406e+002	(-7.45552691286836e-001dB,1.16986152072852e+002°)
2.66741911505838e+002	(-7.76161938312330e-001dB,1.15523699887713e+002°)
2.72955128791497e+002	(-8.08237278790901e-001dB,1.14027594418748e+002°)
2.79313070499430e+002	(-8.41849985752003e-001dB,1.12497084589325e+002°)
2.85819107694487e+002	(-8.77074892906442e-001dB,1.10931404532673e+002°)
2.92476689963707e+002	(-9.13990581702789e-001dB,1.09329773477462e+002°)
2.99289347245332e+002	(-9.52679579228093e-001dB,1.07691395651008e+002°)
3.06260691700429e+002	(-9.93228567721404e-001dB,1.06015460202508e+002°)
3.13394419628106e+002	(-1.03572860654365e+000dB,1.04301141148980e+002°)
3.20694313425334e+002	(-1.08027536753289e+000dB,1.02547597346977e+002°)
3.28164243592433e+002	(-1.12696938477047e+000dB,1.00753972493541e+002°)
3.35808170785251e+002	(-1.17591631989180e+000dB,9.89193951604357e+001°)
3.43630147915166e+002	(-1.22722724419912e+000dB,9.70429788662480e+001°)
3.51634322297988e+002	(-1.28101893897105e+000dB,9.51238221917802e+001°)
3.59824937852923e+002	(-1.33741421551829e+000dB,9.31610089450137e+001°)
3.68206337352754e+002	(-1.39654225670856e+000dB,9.11536083830723e+001°)
3.76782964726436e+002	(-1.45853898187349e+000dB,8.91006754999702e+001°)
3.85559367415329e+002	(-1.52354743722145e+000dB,8.70012513905877e+001°)
3.94540198784307e+002	(-1.59171821410744e+000dB,8.48543637033575e+001°)
4.03730220589037e+002	(-1.66320989775564e+000dB,8.26590271966132e+001°)
4.13134305500724e+002	(-1.73818954928583e+000dB,8.04142444165708e+001°)
4.22757439689667e+002	(-1.81683322415784e+000dB,7.81190065185704e+001°)
4.32604725468990e+002	(-1.89932653040538e+000dB,7.57722942576298e+001°)
4.42681383999957e+002	(-1.98586523027183e+000dB,7.33730791796908e+001°)
4.52992758060302e+002	(-2.07665588906359e+000dB,7.09203250513269e+001°)
4.63544314877038e+002	(-2.17191657517578e+000dB,6.84129895732816e+001°)
4.74341649025256e+002	(-2.27187761528497e+000dB,6.58500264322016e+001°)
4.85390485394441e+002	(-2.37678240859740e+000dB,6.32303877554763e+001°)
4.96696682223886e+002	(-2.48688830373068e+000dB,6.05530270463485e+001°)
5.08266234208803e+002	(-2.60246754121486e+000dB,5.78169026905401e+001°)
5.20105275678796e+002	(-2.72380826363730e+000dB,5.50209821415930e+001°)
5.32220083850362e+002	(-2.85121559400719e+000dB,5.21642469099369e+001°)
5.44617082155151e+002	(-2.98501278085326e+000dB,4.92456985001654e+001°)
5.57302843645758e+002	(-3.12554240573355e+000dB,4.62643654617865e+001°)
5.70284094480841e+002	(-3.27316764505849e+000dB,4.32193117401525e+001°)
5.83567717491420e+002	(-3.42827357322065e+000dB,4.01096465354002e+001°)
5.97160755830245e+002	(-3.59126848779085e+000dB,3.69345358966089e+001°)
6.11070416706168e+002	(-3.76258522979832e+000dB,3.36932162940386e+001°)
6.25304075205502e+002	(-3.94268246270423e+000dB,3.03850104216388e+001°)
6.39869278202387e+002	(-4.13204586251079e+000dB,2.70093454816592e+001°)
6.54773748360247e+002	(-4.33118915852367e+000dB,2.35657741890441e+001°)
6.70025388226443e+002	(-4.54065494976307e+000dB,2.00539987004644e+001°)
6.85632284422311e+002	(-4.76101520626651e+000dB,1.64738976158219e+001°)
7.01602711930795e+002	(-4.99287134819616e+000dB,1.28255561129748e+001°)
7.17945138483956e+002	(-5.23685377976124e+000dB,9.10929915350255e+000°)
7.34668229052667e+002	(-5.49362074090985e+000dB,5.32572753361427e+000°)
7.51780850440906e+002	(-5.76385632940471e+000dB,1.47575634670752e+000°)
7.69292075987045e+002	(-6.04826754158506e+000dB,-2.43934482739940e+000°)
7.87211190374657e+002	(-6.34758018450503e+000dB,-6.41791098227670e+000°)
8.05547694555377e+002	(-6.66253352807521e+000dB,-1.04578412886554e+001°)
8.24311310786434e+002	(-6.99387359605322e+000dB,-1.45565608664073e+001°)
8.43511987785521e+002	(-7.34234504140663e+000dB,-1.87109866617402e+001°)
8.63159906005733e+002	(-7.70868161579548e+000dB,-2.29174996279697e+001°)
8.83265483033381e+002	(-8.09359532407890e+000dB,-2.71719255769332e+001°)
9.03839379111534e+002	(-8.49776444996851e+000dB,-3.14695271000998e+001°)
9.24892502792220e+002	(-8.92182074269833e+000dB,-3.58050088124166e+001°)
9.46436016720287e+002	(-9.36633615861205e+000dB,-4.01725378166853e+001°)
9.68481343551980e+002	(-9.83180964533841e+000dB,-4.45657807085772e+001°)
9.91040172011391e+002	(-1.03186545278974e+001dB,-4.89779576543725e+001°)
1.01412446308797e+003	(-1.08271870940349e+001dB,-5.34019131171741e+001°)
1.03774645637840e+003	(-1.13576169708462e+001dB,-5.78302017547902e+001°)
1.06191867657620e+003	(-1.19100398308931e+001dB,-6.22551869603741e+001°)
1.08665394011248e+003	(-1.24844328637262e+001dB,-6.66691485751023e+001°)
1.11196536195137e+003	(-1.30806533044879e+001dB,-7.10643955780535e+001°)
1.13786636254377e+003	(-1.36984401375197e+001dB,-7.54333791397417e+001°)
1.16437067494303e+003	(-1.43374189064656e+001dB,-7.97688013653438e+001°)
1.19149235208642e+003	(-1.49971093820307e+001dB,-8.40637153601717e+001°)
1.21924577424614e+003	(-1.56769356822144e+001dB,-8.83116128860641e+001°)
1.24764565665400e+003	(-1.63762383218078e+001dB,-9.25064967665786e+001°)
1.27670705730356e+003	(-1.70942875970545e+001dB,-9.66429362387654e+001°)
1.30644538493412e+003	(-1.78302976901263e+001dB,-1.00716104528492e+002°)
1.33687640720061e+003	(-1.85834409029635e+001dB,-1.04721798941064e+002°)
1.36801625903386e+003	(-1.93528614928359e+001dB,-1.08656444626480e+002°)
1.39988145119548e+003	(-2.01376886715858e+001dB,-1.12517083845174e+002°)
1.43248887903215e+003	(-2.09370484348550e+001dB,-1.16301353002147e+002°)
1.46585583143371e+003	(-2.17500739954020e+001dB,-1.20007449939585e+002°)
1.49999999999999e+003	(-2.25759146965987e+001dB,-1.23634094005569e+002°)
1.53493948842113e+003	(-2.34137433716870e+001dB,-1.27180481288300e+002°)
1.57069282207634e+003	(-2.42627621874736e+001dB,-1.30646237165207e+002°)
1.60727895785640e+003	(-2.51222070663668e+001dB,-1.34031368007978e+002°)
1.64471729421477e+003	(-2.59913508185043e+001dB,-1.37336213545726e+002°)
1.68302768145294e+003	(-2.68695051379859e+001dB,-1.40561401049816e+002°)
1.72223043224532e+003	(-2.77560216265001e+001dB,-1.43707802187030e+002°)
1.76234633240929e+003	(-2.86502920067703e+001dB,-1.46776493106961e+002°)
1.80339665192611e+003	(-2.95517476800322e+001dB,-1.49768718091756e+002°)
1.84540315621856e+003	(-3.04598587686983e+001dB,-1.52685856903694e+002°)
1.88838811769124e+003	(-3.13741327695366e+001dB,-1.55529395816623e+002°)
1.93237432753969e+003	(-3.22941129257241e+001dB,-1.58300902206925e+002°)
1.97738510783460e+003	(-3.32193764092437e+001dB,-1.61002002502930e+002°)
2.02344432388747e+003	(-3.41495323890807e+001dB,-1.63634363242815e+002°)
2.07057639690432e+003	(-3.50842200460697e+001dB,-1.66199674964215e+002°)
2.11880631693412e+003	(-3.60231065823088e+001dB,-1.68699638638964e+002°)
2.16815965611888e+003	(-3.69658852618804e+001dB,-1.71135954369036e+002°)
2.21866258225230e+003	(-3.79122735101750e+001dB,-1.73510312071145e+002°)
2.27034187265430e+003	(-3.88620110912876e+001dB,-1.75824383894554e+002°)
2.32322492836871e+003	(-3.98148583765869e+001dB,-1.78079818137173e+002°)
2.37733978869166e+003	(-4.07705947124739e+001dB,1.79721765552920e+002°)
2.43271514603838e+003	(-4.17290168913625e+001dB,1.77578779880909e+002°)
2.48938036115633e+003	(-4.26899377268536e+001dB,1.75489672682176e+002°)
2.54736547869260e+003	(-4.36531847317869e+001dB,1.73452928920550e+002°)
2.60670124312405e+003	(-4.46185988961862e+001dB,1.71467072036531e+002°)
2.66741911505837e+003	(-4.55860335609479e+001dB,1.69530664756626e+002°)
2.72955128791496e+003	(-4.65553533823566e+001dB,1.67642309459251e+002°)
2.79313070499429e+003	(-4.75264333820514e+001dB,1.65800648178685e+002°)
2.85819107694486e+003	(-4.84991580768404e+001dB,1.64004362316249e+002°)
2.92476689963705e+003	(-4.94734206827182e+001dB,1.62252172117154e+002°)
2.99289347245330e+003	(-5.04491223875246e+001dB,1.60542835962113e+002°)
3.06260691700428e+003	(-5.14261716868565e+001dB,1.58875149514784e+002°)
3.13394419628104e+003	(-5.24044837780894e+001dB,1.57247944759196e+002°)
3.20000000000000e+003	(-5.32917334471505e+001dB,1.55807903163465e+002°)
Step Information: Run=2  (Run: 2/100)
1.50000000000000e+002	(1.49797395240094e-001dB,1.46891654966904e+002°)
1.53493948842113e+002	(1.43017305371813e-001dB,1.46119965150163e+002°)
1.57069282207635e+002	(1.35916651119040e-001dB,1.45330261936010e+002°)
1.60727895785641e+002	(1.28480210938974e-001dB,1.44522122651866e+002°)
1.64471729421478e+002	(1.20692032820644e-001dB,1.43695114519663e+002°)
1.68302768145294e+002	(1.12535398288435e-001dB,1.42848794397338e+002°)
1.72223043224532e+002	(1.03992784513029e-001dB,1.41982708512147e+002°)
1.76234633240929e+002	(9.50458244156405e-002dB,1.41096392185407e+002°)
1.80339665192612e+002	(8.56752646420816e-002dB,1.40189369548232e+002°)
1.84540315621857e+002	(7.58609212738394e-002dB,1.39261153247809e+002°)
1.88838811769125e+002	(6.55816331324915e-002dB,1.38311244143711e+002°)
1.93237432753970e+002	(5.48152125224632e-002dB,1.37339130993729e+002°)
1.97738510783461e+002	(4.35383932435061e-002dB,1.36344290128631e+002°)
2.02344432388748e+002	(3.17267756903650e-002dB,1.35326185115248e+002°)
2.07057639690433e+002	(1.93547688412008e-002dB,1.34284266407200e+002°)
2.11880631693413e+002	(6.39552891803962e-003dB,1.33217970982564e+002°)
2.16815965611889e+002	(-7.17910551690918e-003dB,1.32126721967693e+002°)
2.21866258225231e+002	(-2.13986822872970e-002dB,1.31009928246346e+002°)
2.27034187265431e+002	(-3.62942084342369e-002dB,1.29866984053241e+002°)
2.32322492836872e+002	(-5.18982274643934e-002dB,1.28697268551037e+002°)
2.37733978869167e+002	(-6.82449013566175e-002dB,1.27500145389699e+002°)
2.43271514603839e+002	(-8.53700977038220e-002dB,1.26274962247112e+002°)
2.48938036115634e+002	(-1.03311482407375e-001dB,1.25021050349722e+002°)
2.54736547869261e+002	(-1.22108618384357e-001dB,1.23737723971884e+002°)
2.60670124312406e+002	(-1.41803070800057e-001dB,1.22424279912510e+002°)
2.66741911505838e+002	(-1.62438519394038e-001dB,1.21079996947491e+002°)
2.72955128791497e+002	(-1.84060878533657e-001dB,1.19704135256292e+002°)
2.79313070499430e+002	(-2.06718425702343e-001dB,1.18295935820969e+002°)
2.85819107694487e+002	(-2.30461939214246e-001dB,1.16854619795792e+002°)
2.92476689963707e+002	(-2.55344846042121e-001dB,1.15379387845529e+002°)
2.99289347245332e+002	(-2.81423380755270e-001dB,1.13869419450350e+002°)
3.06260691700429e+002	(-3.08756756688637e-001dB,1.12323872175242e+002°)
3.13394419628106e+002	(-3.37407350607855e-001dB,1.10741880901738e+002°)
3.20694313425334e+002	(-3.67440902298161e-001dB,1.09122557019751e+002°)
3.28164243592433e+002	(-3.98926730693487e-001dB,1.07464987577272e+002°)
3.35808170785251e+002	(-4.31937968376761e-001dB,1.05768234385803e+002°)
3.43630147915166e+002	(-4.66551816529572e-001dB,1.04031333079475e+002°)
3.51634322297988e+002	(-5.02849822692499e-001dB,1.02253292126097e+002°)
3.59824937852923e+002	(-5.40918184021630e-001dB,1.00433091788720e+002°)
3.68206337352754e+002	(-5.80848079098235e-001dB,9.85696830368750e+001°)
3.76782964726436e+002	(-6.22736031773360e-001dB,9.66619864074543e+001°)
3.85559367415329e+002	(-6.66684311013419e-001dB,9.47088908162712e+001°)
3.94540198784307e+002	(-7.12801371264115e-001dB,9.27092523228513e+001°)
4.03730220589037e+002	(-7.61202338475018e-001dB,9.06618928529820e+001°)
4.13134305500724e+002	(-8.12009547632989e-001dB,8.85655988861774e+001°)
4.22757439689667e+002	(-8.65353138443209e-001dB,8.64191201186297e+001°)
4.32604725468990e+002	(-9.21371716680501e-001dB,8.42211681166525e+001°)
4.42681383999957e+002	(-9.80213089705710e-001dB,8.19704149812942e+001°)
4.52992758060302e+002	(-1.04203508570623e+000dB,7.96654920520384e+001°)
4.63544314877038e+002	(-1.10700646736135e+000dB,7.73049886866540e+001°)
4.74341649025256e+002	(-1.17530795183736e+000dB,7.48874511657617e+001°)
4.85390485394441e+002	(-1.24713335025046e+000dB,7.24113817850214e+001°)
4.96696682223886e+002	(-1.32269084095034e+000dB,6.98752382156290e+001°)
5.08266234208803e+002	(-1.40220439210100e+000dB,6.72774332356747e+001°)
5.20105275678796e+002	(-1.48591534996431e+000dB,6.46163349615957e+001°)
5.32220083850362e+002	(-1.57408420988319e+000dB,6.18902677412351e+001°)
5.44617082155151e+002	(-1.66699258702127e+000dB,5.90975139086681e+001°)
5.57302843645758e+002	(-1.76494540318464e+000dB,5.62363166467390e+001°)
5.70284094480841e+002	(-1.86827330419616e+000dB,5.33048842567377e+001°)
5.83567717491420e+002	(-1.97733531888463e+000dB,5.03013961961733e+001°)
5.97160755830245e+002	(-2.09252176525915e+000dB,4.72240113149776e+001°)
6.11070416706168e+002	(-2.21425740121725e+000dB,4.40708787967914e+001°)
6.25304075205502e+002	(-2.34300480542229e+000dB,4.08401523931922e+001°)
6.39869278202387e+002	(-2.47926795791892e+000dB,3.75300086212009e+001°)
6.54773748360247e+002	(-2.62359596870331e+000dB,3.41386696724069e+001°)
6.70025388226443e+002	(-2.77658687490174e+000dB,3.06644318470433e+001°)
6.85632284422311e+002	(-2.93889139262993e+000dB,2.71057003663487e+001°)
7.01602711930795e+002	(-3.11121646749803e+000dB,2.34610314155518e+001°)
7.17945138483956e+002	(-3.29432841814667e+000dB,1.97291822073583e+001°)
7.34668229052667e+002	(-3.48905541109662e+000dB,1.59091697071356e+001°)
7.51780850440906e+002	(-3.69628894484644e+000dB,1.20003383979889e+001°)
7.69292075987045e+002	(-3.91698396063167e+000dB,8.00243705731761e+000°)
7.87211190374657e+002	(-4.15215714289503e+000dB,3.91570393985567e+000°)
8.05547694555377e+002	(-4.40288293321452e+000dB,-2.59041001857150e-001°)
8.24311310786434e+002	(-4.67028676867641e+000dB,-4.52029918029776e+000°)
8.43511987785521e+002	(-4.95553508298418e+000dB,-8.86579515184633e+000°)
8.63159906005733e+002	(-5.25982169016527e+000dB,-1.32923817517325e+001°)
8.83265483033381e+002	(-5.58435031915316e+000dB,-1.77959544159817e+001°)
9.03839379111534e+002	(-5.93031329039164e+000dB,-2.23713815358068e+001°)
9.24892502792220e+002	(-6.29886662158538e+000dB,-2.70124583270532e+001°)
9.46436016720287e+002	(-6.69110220456084e+000dB,-3.17118917377349e+001°)
9.68481343551980e+002	(-7.10801807913056e+000dB,-3.64613231605444e+001°)
9.91040172011391e+002	(-7.55048819768147e+000dB,-4.12513940346880e+001°)
1.01412446308797e+003	(-8.01923336949538e+000dB,-4.60718568063613e+001°)
1.03774645637840e+003	(-8.51479523755673e+000dB,-5.09117303285380e+001°)
1.06191867657620e+003	(-9.03751512347170e+000dB,-5.57594949540403e+001°)
1.08665394011248e+003	(-9.58751935158847e+000dB,-6.06033187916129e+001°)
1.11196536195137e+003	(-1.01647122379987e+001dB,-6.54313034012086e+001°)
1.13786636254377e+003	(-1.07687773468968e+001dB,-7.02317351085914e+001°)
1.16437067494303e+003	(-1.13991869499575e+001dB,-7.49933274722485e+001°)
1.19149235208642e+003	(-1.20552189653524e+001dB,-7.97054413497825e+001°)
1.21924577424614e+003	(-1.27359800915930e+001dB,-8.43582713317489e+001°)
1.24764565665400e+003	(-1.34404334574978e+001dB,-8.89429906545671e+001°)
1.27670705730356e+003	(-1.41674289205672e+001dB,-9.34518505487551e+001°)
1.30644538493412e+003	(-1.49157341626599e+001dB,-9.78782337794582e+001°)
1.33687640720061e+003	(-1.56840649230247e+001dB,-1.02216665431046e+002°)
1.36801625903386e+003	(-1.64711130225769e+001dB,-1.06462786467754e+002°)
1.39988145119548e+003	(-1.72755712103398e+001dB,-1.10613297136904e+002°)
1.43248887903215e+003	(-1.80961542479658e+001dB,-1.14665877899311e+002°)
1.46585583143371e+003	(-1.89316159981898e+001dB,-1.18619095417902e+002°)
1.49999999999999e+003	(-1.97807625706232e+001dB,-1.22472300416854e+002°)
1.53493948842113e+003	(-2.06424617914348e+001dB,-1.26225523158854e+002°)
1.57069282207634e+003	(-2.15156494024706e+001dB,-1.29879371073397e+002°)
1.60727895785640e+003	(-2.23993324688813e+001dB,-1.33434931857829e+002°)
1.64471729421477e+003	(-2.32925904953600e+001dB,-1.36893684269199e+002°)
1.68302768145294e+003	(-2.41945747339007e+001dB,-1.40257417888274e+002°)
1.72223043224532e+003	(-2.51045061238427e+001dB,-1.43528162389721e+002°)
1.76234633240929e+003	(-2.60216722490111e+001dB,-1.46708126291546e+002°)
1.80339665192611e+003	(-2.69454236355288e+001dB,-1.49799644763187e+002°)
1.84540315621856e+003	(-2.78751696533549e+001dB,-1.52805135818329e+002°)
1.88838811769124e+003	(-2.88103742286194e+001dB,-1.55727064076335e+002°)
1.93237432753969e+003	(-2.97505515244479e+001dB,-1.58567911217568e+002°)
1.97738510783460e+003	(-3.06952617060496e+001dB,-1.61330152258693e+002°)
2.02344432388747e+003	(-3.16441068713530e+001dB,-1.64016236814543e+002°)
2.07057639690432e+003	(-3.25967272008929e+001dB,-1.66628574577748e+002°)
2.11880631693412e+003	(-3.35527973591668e+001dB,-1.69169524324684e+002°)
2.16815965611888e+003	(-3.45120231633914e+001dB,-1.71641385838090e+002°)
2.21866258225230e+003	(-3.54741385235783e+001dB,-1.74046394217433e+002°)
2.27034187265430e+003	(-3.64389026492971e+001dB,-1.76386716124291e+002°)
2.32322492836871e+003	(-3.74060975126444e+001dB,-1.78664447579635e+002°)
2.37733978869166e+003	(-3.83755255531840e+001dB,1.79118387007958e+002°)
2.43271514603838e+003	(-3.93470076084392e+001dB,1.76959834849708e+002°)
2.48938036115633e+003	(-4.03203810524880e+001dB,1.74858014039171e+002°)
2.54736547869260e+003	(-4.12954981250160e+001dB,1.72811112249377e+002°)
2.60670124312405e+003	(-4.22722244335568e+001dB,1.70817385010137e+002°)
2.66741911505837e+003	(-4.32504376124026e+001dB,1.68875153682803e+002°)
2.72955128791496e+003	(-4.42300261226658e+001dB,1.66982803226178e+002°)
2.79313070499429e+003	(-4.52108881790880e+001dB,1.65138779827870e+002°)
2.85819107694486e+003	(-4.61929307903746e+001dB,1.63341588459432e+002°)
2.92476689963705e+003	(-4.71760689010030e+001dB,1.61589790400616e+002°)
2.99289347245330e+003	(-4.81602246235997e+001dB,1.59882000767533e+002°)
3.06260691700428e+003	(-4.91453265520575e+001dB,1.58216886070976e+002°)
3.13394419628104e+003	(-5.01313091465787e+001dB,1.56593161824311e+002°)
3.20000000000000e+003	(-5.10251928695905e+001dB,1.55156969535375e+002°)
Step Information: Run=3  (Run: 3/100)
1.50000000000000e+002	(7.70274036730431e-002dB,1.43945644726424e+002°)
1.53493948842113e+002	(6.68834475579234e-002dB,1.43107826497386e+002°)
1.57069282207635e+002	(5.62627099329236e-002dB,1.42250633290077e+002°)
1.60727895785641e+002	(4.51428365567523e-002dB,1.41373623549590e+002°)
1.64471729421478e+002	(3.35004295992027e-002dB,1.40476346098417e+002°)
1.68302768145294e+002	(2.13109992374904e-002dB,1.39558339955583e+002°)
1.72223043224532e+002	(8.54891302014833e-003dB,1.38619134154186e+002°)
