Freq.	V(n004)
1.00000000000000e+002	(-4.42576683998326e+001dB,-3.25013894828249e-001°)
1.01157945425990e+002	(-4.42577661547915e+001dB,-3.28777472421398e-001°)
1.02329299228075e+002	(-4.42578661876696e+001dB,-3.32584633495389e-001°)
1.03514216667934e+002	(-4.42579685515698e+001dB,-3.36435882839268e-001°)
1.04712854805090e+002	(-4.42580733008334e+001dB,-3.40331731091647e-001°)
1.05925372517729e+002	(-4.42581804910701e+001dB,-3.44272694808092e-001°)
1.07151930523761e+002	(-4.42582901791869e+001dB,-3.48259296529707e-001°)
1.08392691402120e+002	(-4.42584024234187e+001dB,-3.52292064853348e-001°)
1.09647819614319e+002	(-4.42585172833593e+001dB,-3.56371534501289e-001°)
1.10917481526240e+002	(-4.42586348199932e+001dB,-3.60498246392135e-001°)
1.12201845430196e+002	(-4.42587550957281e+001dB,-3.64672747713636e-001°)
1.13501081567232e+002	(-4.42588781744283e+001dB,-3.68895591994215e-001°)
1.14815362149688e+002	(-4.42590041214481e+001dB,-3.73167339177735e-001°)
1.16144861384034e+002	(-4.42591330036679e+001dB,-3.77488555697536e-001°)
1.17489755493953e+002	(-4.42592648895286e+001dB,-3.81859814551155e-001°)
1.18850222743702e+002	(-4.42593998490691e+001dB,-3.86281695377679e-001°)
1.20226443461741e+002	(-4.42595379539629e+001dB,-3.90754784534096e-001°)
1.21618600064637e+002	(-4.42596792775569e+001dB,-3.95279675173366e-001°)
1.23026877081238e+002	(-4.42598238949102e+001dB,-3.99856967323628e-001°)
1.24451461177139e+002	(-4.42599718828343e+001dB,-4.04487267967758e-001°)
1.25892541179417e+002	(-4.42601233199344e+001dB,-4.09171191124462e-001°)
1.27350308101666e+002	(-4.42602782866508e+001dB,-4.13909357929614e-001°)
1.28824955169314e+002	(-4.42604368653023e+001dB,-4.18702396719164e-001°)
1.30316677845230e+002	(-4.42605991401299e+001dB,-4.23550943112771e-001°)
1.31825673855641e+002	(-4.42607651973420e+001dB,-4.28455640098505e-001°)
1.33352143216333e+002	(-4.42609351251606e+001dB,-4.33417138117981e-001°)
1.34896288259166e+002	(-4.42611090138679e+001dB,-4.38436095153573e-001°)
1.36458313658893e+002	(-4.42612869558551e+001dB,-4.43513176815936e-001°)
1.38038426460289e+002	(-4.42614690456718e+001dB,-4.48649056432035e-001°)
1.39636836105594e+002	(-4.42616553800759e+001dB,-4.53844415135768e-001°)
1.41253754462276e+002	(-4.42618460580863e+001dB,-4.59099941957972e-001°)
1.42889395851111e+002	(-4.42620411810351e+001dB,-4.64416333918404e-001°)
1.44543977074593e+002	(-4.42622408526222e+001dB,-4.69794296119125e-001°)
1.46217717445672e+002	(-4.42624451789710e+001dB,-4.75234541837508e-001°)
1.47910838816821e+002	(-4.42626542686844e+001dB,-4.80737792622127e-001°)
1.49623565609444e+002	(-4.42628682329037e+001dB,-4.86304778388667e-001°)
1.51356124843621e+002	(-4.42630871853682e+001dB,-4.91936237517037e-001°)
1.53108746168203e+002	(-4.42633112424755e+001dB,-4.97632916949868e-001°)
1.54881661891249e+002	(-4.42635405233443e+001dB,-5.03395572292649e-001°)
1.56675107010815e+002	(-4.42637751498781e+001dB,-5.09224967913596e-001°)
1.58489319246112e+002	(-4.42640152468305e+001dB,-5.15121877046453e-001°)
1.60324539069005e+002	(-4.42642609418726e+001dB,-5.21087081893068e-001°)
1.62181009735893e+002	(-4.42645123656604e+001dB,-5.27121373728114e-001°)
1.64058977319954e+002	(-4.42647696519062e+001dB,-5.33225553004372e-001°)
1.65958690743757e+002	(-4.42650329374492e+001dB,-5.39400429459886e-001°)
1.67880401812257e+002	(-4.42653023623299e+001dB,-5.45646822225858e-001°)
1.69824365246175e+002	(-4.42655780698646e+001dB,-5.51965559936025e-001°)
1.71790838715759e+002	(-4.42658602067226e+001dB,-5.58357480837382e-001°)
1.73780082874938e+002	(-4.42661489230051e+001dB,-5.64823432901914e-001°)
1.75792361395870e+002	(-4.42664443723259e+001dB,-5.71364273940398e-001°)
1.77827941003893e+002	(-4.42667467118938e+001dB,-5.77980871716288e-001°)
1.79887091512879e+002	(-4.42670561025973e+001dB,-5.84674104062339e-001°)
1.81970085860999e+002	(-4.42673727090910e+001dB,-5.91444858997279e-001°)
1.84077200146896e+002	(-4.42676966998841e+001dB,-5.98294034845305e-001°)
1.86208713666287e+002	(-4.42680282474318e+001dB,-6.05222540355390e-001°)
1.88364908948981e+002	(-4.42683675282271e+001dB,-6.12231294823367e-001°)
1.90546071796325e+002	(-4.42687147228968e+001dB,-6.19321228214800e-001°)
1.92752491319094e+002	(-4.42690700162984e+001dB,-6.26493281288973e-001°)
1.94984459975805e+002	(-4.42694335976197e+001dB,-6.33748405725635e-001°)
1.97242273611486e+002	(-4.42698056604812e+001dB,-6.41087564251370e-001°)
1.99526231496889e+002	(-4.42701864030399e+001dB,-6.48511730769249e-001°)
2.01836636368157e+002	(-4.42705760280972e+001dB,-6.56021890489031e-001°)
2.04173794466954e+002	(-4.42709747432077e+001dB,-6.63619040058853e-001°)
2.06538015581054e+002	(-4.42713827607912e+001dB,-6.71304187699110e-001°)
2.08929613085405e+002	(-4.42718002982479e+001dB,-6.79078353337451e-001°)
2.11348903983666e+002	(-4.42722275780763e+001dB,-6.86942568745532e-001°)
2.13796208950224e+002	(-4.42726648279926e+001dB,-6.94897877676985e-001°)
2.16271852372703e+002	(-4.42731122810543e+001dB,-7.02945336008078e-001°)
2.18776162394956e+002	(-4.42735701757869e+001dB,-7.11086011878739e-001°)
2.21309470960565e+002	(-4.42740387563126e+001dB,-7.19320985836322e-001°)
2.23872113856835e+002	(-4.42745182724821e+001dB,-7.27651350980251e-001°)
2.26464430759307e+002	(-4.42750089800117e+001dB,-7.36078213109098e-001°)
2.29086765276778e+002	(-4.42755111406201e+001dB,-7.44602690869014e-001°)
2.31739464996849e+002	(-4.42760250221716e+001dB,-7.53225915903970e-001°)
2.34422881531993e+002	(-4.42765508988215e+001dB,-7.61949033007770e-001°)
2.37137370566167e+002	(-4.42770890511646e+001dB,-7.70773200278126e-001°)
2.39883291901950e+002	(-4.42776397663883e+001dB,-7.79699589272406e-001°)
2.42661009508243e+002	(-4.42782033384282e+001dB,-7.88729385164801e-001°)
2.45470891568504e+002	(-4.42787800681287e+001dB,-7.97863786906393e-001°)
2.48313310529558e+002	(-4.42793702634067e+001dB,-8.07104007386329e-001°)
2.51188643150959e+002	(-4.42799742394189e+001dB,-8.16451273594933e-001°)
2.54097270554932e+002	(-4.42805923187344e+001dB,-8.25906826789373e-001°)
2.57039578276888e+002	(-4.42812248315106e+001dB,-8.35471922660538e-001°)
2.60015956316529e+002	(-4.42818721156726e+001dB,-8.45147831502815e-001°)
2.63026799189540e+002	(-4.42825345170992e+001dB,-8.54935838384833e-001°)
2.66072505979882e+002	(-4.42832123898110e+001dB,-8.64837243323411e-001°)
2.69153480392693e+002	(-4.42839060961647e+001dB,-8.74853361458581e-001°)
2.72270130807793e+002	(-4.42846160070510e+001dB,-8.84985523231507e-001°)
2.75422870333818e+002	(-4.42853425020985e+001dB,-8.95235074564008e-001°)
2.78612116862979e+002	(-4.42860859698813e+001dB,-9.05603377040555e-001°)
2.81838293126447e+002	(-4.42868468081325e+001dB,-9.16091808092521e-001°)
2.85101826750393e+002	(-4.42876254239627e+001dB,-9.26701761184169e-001°)
2.88403150312662e+002	(-4.42884222340838e+001dB,-9.37434646001612e-001°)
2.91742701400119e+002	(-4.42892376650384e+001dB,-9.48291888643376e-001°)
2.95120922666640e+002	(-4.42900721534340e+001dB,-9.59274931813920e-001°)
2.98538261891798e+002	(-4.42909261461846e+001dB,-9.70385235019101e-001°)
3.01995172040204e+002	(-4.42918001007567e+001dB,-9.81624274763807e-001°)
3.05492111321553e+002	(-4.42926944854217e+001dB,-9.92993544752787e-001°)
3.09029543251361e+002	(-4.42936097795151e+001dB,-1.00449455609312e+000°)
3.12607936712398e+002	(-4.42945464737016e+001dB,-1.01612883749959e+000°)
3.16227766016840e+002	(-4.42955050702462e+001dB,-1.02789793550238e+000°)
3.19889510969142e+002	(-4.42964860832936e+001dB,-1.03980341465756e+000°)
3.23593656929630e+002	(-4.42974900391524e+001dB,-1.05184685775984e+000°)
3.27340694878840e+002	(-4.42985174765885e+001dB,-1.06402986605823e+000°)
3.31131121482593e+002	(-4.42995689471233e+001dB,-1.07635405947409e+000°)
3.34965439157830e+002	(-4.43006450153420e+001dB,-1.08882107682187e+000°)
3.38844156139205e+002	(-4.43017462592075e+001dB,-1.10143257603327e+000°)
3.42767786546453e+002	(-4.43028732703830e+001dB,-1.11419023438263e+000°)
3.46736850452534e+002	(-4.43040266545622e+001dB,-1.12709574871697e+000°)
3.50751873952571e+002	(-4.43052070318083e+001dB,-1.14015083568735e+000°)
3.54813389233578e+002	(-4.43064150369011e+001dB,-1.15335723198410e+000°)
3.58921934645008e+002	(-4.43076513196926e+001dB,-1.16671669457447e+000°)
3.63078054770104e+002	(-4.43089165454724e+001dB,-1.18023100094321e+000°)
3.67282300498088e+002	(-4.43102113953400e+001dB,-1.19390194933650e+000°)
3.71535229097175e+002	(-4.43115365665905e+001dB,-1.20773135900863e+000°)
3.75837404288447e+002	(-4.43128927731054e+001dB,-1.22172107047180e+000°)
3.80189396320564e+002	(-4.43142807457563e+001dB,-1.23587294574939e+000°)
3.84591782045357e+002	(-4.43157012328182e+001dB,-1.25018886863166e+000°)
3.89045144994284e+002	(-4.43171550003926e+001dB,-1.26467074493539e+000°)
3.93550075455781e+002	(-4.43186428328415e+001dB,-1.27932050276666e+000°)
3.98107170553501e+002	(-4.43201655332329e+001dB,-1.29414009278658e+000°)
4.02717034325463e+002	(-4.43217239237976e+001dB,-1.30913148848055e+000°)
4.07380277804116e+002	(-4.43233188463974e+001dB,-1.32429668643140e+000°)
4.12097519097334e+002	(-4.43249511630042e+001dB,-1.33963770659504e+000°)
4.16869383470339e+002	(-4.43266217561940e+001dB,-1.35515659258063e+000°)
4.21696503428586e+002	(-4.43283315296510e+001dB,-1.37085541193363e+000°)
4.26579518801596e+002	(-4.43300814086854e+001dB,-1.38673625642263e+000°)
4.31519076827769e+002	(-4.43318723407663e+001dB,-1.40280124233008e+000°)
4.36515832240170e+002	(-4.43337052960649e+001dB,-1.41905251074645e+000°)
4.41570447353317e+002	(-4.43355812680151e+001dB,-1.43549222786848e+000°)
4.46683592150967e+002	(-4.43375012738865e+001dB,-1.45212258530084e+000°)
4.51855944374927e+002	(-4.43394663553735e+001dB,-1.46894580036219e+000°)
4.57088189614879e+002	(-4.43414775791985e+001dB,-1.48596411639485e+000°)
4.62381021399265e+002	(-4.43435360377323e+001dB,-1.50317980307858e+000°)
4.67735141287203e+002	(-4.43456428496302e+001dB,-1.52059515674834e+000°)
4.73151258961485e+002	(-4.43477991604836e+001dB,-1.53821250071692e+000°)
4.78630092322643e+002	(-4.43500061434908e+001dB,-1.55603418560024e+000°)
4.84172367584104e+002	(-4.43522650001435e+001dB,-1.57406258964875e+000°)
4.89778819368451e+002	(-4.43545769609336e+001dB,-1.59230011908182e+000°)
4.95450190804795e+002	(-4.43569432860763e+001dB,-1.61074920842715e+000°)
5.01187233627277e+002	(-4.43593652662541e+001dB,-1.62941232086469e+000°)
5.06990708274709e+002	(-4.43618442233805e+001dB,-1.64829194857486e+000°)
5.12861383991370e+002	(-4.43643815113833e+001dB,-1.66739061309142e+000°)
5.18800038928966e+002	(-4.43669785170093e+001dB,-1.68671086565966e+000°)
5.24807460249778e+002	(-4.43696366606517e+001dB,-1.70625528759821e+000°)
5.30884444230994e+002	(-4.43723573971970e+001dB,-1.72602649066698e+000°)
5.37031796370258e+002	(-4.43751422168983e+001dB,-1.74602711743929e+000°)
5.43250331492439e+002	(-4.43779926462699e+001dB,-1.76625984167908e+000°)
5.49540873857630e+002	(-4.43809102490065e+001dB,-1.78672736872364e+000°)
5.55904257270409e+002	(-4.43838966269289e+001dB,-1.80743243587131e+000°)
5.62341325190355e+002	(-4.43869534209536e+001dB,-1.82837781277412e+000°)
5.68852930843847e+002	(-4.43900823120910e+001dB,-1.84956630183660e+000°)
5.75439937337163e+002	(-4.43932850224693e+001dB,-1.87100073861956e+000°)
5.82103217770878e+002	(-4.43965633163884e+001dB,-1.89268399224932e+000°)
5.88843655355595e+002	(-4.43999190014014e+001dB,-1.91461896583319e+000°)
5.95662143529017e+002	(-4.44033539294281e+001dB,-1.93680859688005e+000°)
6.02559586074364e+002	(-4.44068699978978e+001dB,-1.95925585772764e+000°)
6.09536897240176e+002	(-4.44104691509249e+001dB,-1.98196375597484e+000°)
6.16595001861489e+002	(-4.44141533805188e+001dB,-2.00493533492099e+000°)
6.23734835482426e+002	(-4.44179247278255e+001dB,-2.02817367401100e+000°)
6.30957344480200e+002	(-4.44217852844068e+001dB,-2.05168188928668e+000°)
6.38263486190556e+002	(-4.44257371935545e+001dB,-2.07546313384448e+000°)
6.45654229034663e+002	(-4.44297826516429e+001dB,-2.09952059830054e+000°)
6.53130552647480e+002	(-4.44339239095200e+001dB,-2.12385751126165e+000°)
6.60693448007603e+002	(-4.44381632739385e+001dB,-2.14847713980326e+000°)
6.68343917568622e+002	(-4.44425031090285e+001dB,-2.17338278995419e+000°)
6.76082975391990e+002	(-4.44469458378134e+001dB,-2.19857780718949e+000°)
6.83911647281437e+002	(-4.44514939437695e+001dB,-2.22406557692900e+000°)
6.91830970918945e+002	(-4.44561499724313e+001dB,-2.24984952504462e+000°)
6.99841996002282e+002	(-4.44609165330449e+001dB,-2.27593311837443e+000°)
7.07945784384146e+002	(-4.44657963002692e+001dB,-2.30231986524474e+000°)
7.16143410212910e+002	(-4.44707920159294e+001dB,-2.32901331599900e+000°)
7.24435960074999e+002	(-4.44759064908203e+001dB,-2.35601706353757e+000°)
7.32824533138913e+002	(-4.44811426065667e+001dB,-2.38333474386153e+000°)
7.41310241300926e+002	(-4.44865033175377e+001dB,-2.41097003662852e+000°)
7.49894209332465e+002	(-4.44919916528204e+001dB,-2.43892666571483e+000°)
7.58577575029193e+002	(-4.44976107182521e+001dB,-2.46720839978744e+000°)
7.67361489361828e+002	(-4.45033636985175e+001dB,-2.49581905288402e+000°)
7.76247116628701e+002	(-4.45092538593067e+001dB,-2.52476248500286e+000°)
7.85235634610081e+002	(-4.45152845495441e+001dB,-2.55404260270132e+000°)
7.94328234724291e+002	(-4.45214592036830e+001dB,-2.58366335970496e+000°)
8.03526122185627e+002	(-4.45277813440740e+001dB,-2.61362875752441e+000°)
8.12830516164109e+002	(-4.45342545834080e+001dB,-2.64394284608467e+000°)
8.22242649947081e+002	(-4.45408826272342e+001dB,-2.67460972436244e+000°)
8.31763771102681e+002	(-4.45476692765618e+001dB,-2.70563354103472e+000°)
8.41395141645206e+002	(-4.45546184305410e+001dB,-2.73701849513888e+000°)
8.51138038202387e+002	(-4.45617340892330e+001dB,-2.76876883674169e+000°)
8.60993752184611e+002	(-4.45690203564685e+001dB,-2.80088886762151e+000°)
8.70963589956092e+002	(-4.45764814427991e+001dB,-2.83338294196035e+000°)
8.81048873008025e+002	(-4.45841216685454e+001dB,-2.86625546704960e+000°)
8.91250938133757e+002	(-4.45919454669460e+001dB,-2.89951090400490e+000°)
9.01571137605968e+002	(-4.45999573874098e+001dB,-2.93315376849625e+000°)
9.12010839355922e+002	(-4.46081620988782e+001dB,-2.96718863148911e+000°)
9.22571427154775e+002	(-4.46165643932980e+001dB,-3.00162011999868e+000°)
9.33254300797003e+002	(-4.46251691892135e+001dB,-3.03645291785799e+000°)
9.44060876285936e+002	(-4.46339815354803e+001dB,-3.07169176649923e+000°)
9.54992586021449e+002	(-4.46430066151045e+001dB,-3.10734146574927e+000°)
9.66050878989826e+002	(-4.46522497492165e+001dB,-3.14340687463917e+000°)
9.77237220955824e+002	(-4.46617164011809e+001dB,-3.17989291222962e+000°)
9.88553094656952e+002	(-4.46714121808500e+001dB,-3.21680455845022e+000°)
1.00000000000001e+003	(-4.46813428489678e+001dB,-3.25414685495522e+000°)
1.01157945425991e+003	(-4.46915143217284e+001dB,-3.29192490599579e+000°)
1.02329299228077e+003	(-4.47019326754983e+001dB,-3.33014387930692e+000°)
1.03514216667936e+003	(-4.47126041517065e+001dB,-3.36880900701404e+000°)
1.04712854805091e+003	(-4.47235351619135e+001dB,-3.40792558655546e+000°)
1.05925372517730e+003	(-4.47347322930627e+001dB,-3.44749898162334e+000°)
1.07151930523762e+003	(-4.47462023129261e+001dB,-3.48753462312259e+000°)
1.08392691402122e+003	(-4.47579521757507e+001dB,-3.52803801015111e+000°)
1.09647819614320e+003	(-4.47699890281147e+001dB,-3.56901471099709e+000°)
1.10917481526242e+003	(-4.47823202150051e+001dB,-3.61047036415915e+000°)
1.12201845430198e+003	(-4.47949532861225e+001dB,-3.65241067938622e+000°)
1.13501081567233e+003	(-4.48078960024288e+001dB,-3.69484143873915e+000°)
1.14815362149690e+003	(-4.48211563429454e+001dB,-3.73776849767623e+000°)
1.16144861384036e+003	(-4.48347425118144e+001dB,-3.78119778616052e+000°)
1.17489755493955e+003	(-4.48486629456361e+001dB,-3.82513530979194e+000°)
1.18850222743704e+003	(-4.48629263210949e+001dB,-3.86958715096446e+000°)
1.20226443461743e+003	(-4.48775415628885e+001dB,-3.91455947004830e+000°)
1.21618600064639e+003	(-4.48925178519734e+001dB,-3.96005850660105e+000°)
1.23026877081240e+003	(-4.49078646341448e+001dB,-4.00609058060308e+000°)
1.24451461177140e+003	(-4.49235916289641e+001dB,-4.05266209372425e+000°)
1.25892541179419e+003	(-4.49397088390545e+001dB,-4.09977953062126e+000°)
1.27350308101668e+003	(-4.49562265597806e+001dB,-4.14744946026108e+000°)
1.28824955169315e+003	(-4.49731553893332e+001dB,-4.19567853728402e+000°)
1.30316677845232e+003	(-4.49905062392388e+001dB,-4.24447350339325e+000°)
1.31825673855643e+003	(-4.50082903453172e+001dB,-4.29384118878369e+000°)
1.33352143216334e+003	(-4.50265192791084e+001dB,-4.34378851360415e+000°)
1.34896288259167e+003	(-4.50452049597953e+001dB,-4.39432248945932e+000°)
1.36458313658895e+003	(-4.50643596666482e+001dB,-4.44545022095059e+000°)
1.38038426460291e+003	(-4.50839960520177e+001dB,-4.49717890725591e+000°)
1.39636836105596e+003	(-4.51041271549085e+001dB,-4.54951584375580e+000°)
1.41253754462278e+003	(-4.51247664151616e+001dB,-4.60246842370044e+000°)
1.42889395851113e+003	(-4.51459276882834e+001dB,-4.65604413992563e+000°)
1.44543977074595e+003	(-4.51676252609532e+001dB,-4.71025058661812e+000°)
1.46217717445674e+003	(-4.51898738672508e+001dB,-4.76509546112861e+000°)
1.47910838816823e+003	(-4.52126887056431e+001dB,-4.82058656584140e+000°)
1.49623565609446e+003	(-4.52360854567738e+001dB,-4.87673181010056e+000°)
1.51356124843623e+003	(-4.52600803021026e+001dB,-4.93353921219108e+000°)
1.53108746168206e+003	(-4.52846899434448e+001dB,-4.99101690138611e+000°)
1.54881661891251e+003	(-4.53099316234628e+001dB,-5.04917312005482e+000°)
1.56675107010817e+003	(-4.53358231471679e+001dB,-5.10801622584407e+000°)
1.58489319246114e+003	(-4.53623829044929e+001dB,-5.16755469392556e+000°)
1.60324539069007e+003	(-4.53896298940017e+001dB,-5.22779711932383e+000°)
1.62181009735896e+003	(-4.54175837478040e+001dB,-5.28875221932130e+000°)
1.64058977319957e+003	(-4.54462647577544e+001dB,-5.35042883594849e+000°)
1.65958690743759e+003	(-4.54756939030120e+001dB,-5.41283593856376e+000°)
1.67880401812259e+003	(-4.55058928790517e+001dB,-5.47598262652667e+000°)
1.69824365246177e+003	(-4.55368841282191e+001dB,-5.53987813197166e+000°)
1.71790838715762e+003	(-4.55686908719290e+001dB,-5.60453182268792e+000°)
1.73780082874941e+003	(-4.56013371446184e+001dB,-5.66995320510925e+000°)
1.75792361395872e+003	(-4.56348478295695e+001dB,-5.73615192742819e+000°)
1.77827941003895e+003	(-4.56692486967289e+001dB,-5.80313778283179e+000°)
1.79887091512882e+003	(-4.57045664426617e+001dB,-5.87092071287627e+000°)
1.81970085861001e+003	(-4.57408287327868e+001dB,-5.93951081100494e+000°)
1.84077200146899e+003	(-4.57780642460522e+001dB,-6.00891832621827e+000°)
1.86208713666290e+003	(-4.58163027222271e+001dB,-6.07915366691289e+000°)
1.88364908948983e+003	(-4.58555750119943e+001dB,-6.15022740489172e+000°)
1.90546071796328e+003	(-4.58959131300507e+001dB,-6.22215027956540e+000°)
1.92752491319097e+003	(-4.59373503114339e+001dB,-6.29493320235791e+000°)
1.94984459975808e+003	(-4.59799210713190e+001dB,-6.36858726132653e+000°)
1.97242273611489e+003	(-4.60236612685449e+001dB,-6.44312372601744e+000°)
1.99526231496892e+003	(-4.60686081731572e+001dB,-6.51855405257446e+000°)
2.01836636368160e+003	(-4.61148005382804e+001dB,-6.59488988911901e+000°)
2.04173794466957e+003	(-4.61622786766573e+001dB,-6.67214308142498e+000°)
2.06538015581057e+003	(-4.62110845422297e+001dB,-6.75032567891172e+000°)
2.08929613085408e+003	(-4.62612618171666e+001dB,-6.82944994098354e+000°)
2.11348903983669e+003	(-4.63128560047889e+001dB,-6.90952834374036e+000°)
2.13796208950227e+003	(-4.63659145288760e+001dB,-6.99057358710115e+000°)
2.16271852372706e+003	(-4.64204868398985e+001dB,-7.07259860236878e+000°)
2.18776162394959e+003	(-4.64766245287627e+001dB,-7.15561656027590e+000°)
2.21309470960568e+003	(-4.65343814487274e+001dB,-7.23964087956806e+000°)
2.23872113856838e+003	(-4.65938138462036e+001dB,-7.32468523615691e+000°)
2.26464430759310e+003	(-4.66549805012415e+001dB,-7.41076357291712e+000°)
2.29086765276781e+003	(-4.67179428785760e+001dB,-7.49789011017547e+000°)
