Freq.	V(n004)
1.00000000000000e+002	(-3.31641908325731e+001dB,-2.43811993026556e-001°)
1.01157945425990e+002	(-3.31642766851099e+001dB,-2.46635253038332e-001°)
1.02329299228075e+002	(-3.31643645382926e+001dB,-2.49491206624614e-001°)
1.03514216667934e+002	(-3.31644544387639e+001dB,-2.52380232421267e-001°)
1.04712854805090e+002	(-3.31645464342549e+001dB,-2.55302713450696e-001°)
1.05925372517729e+002	(-3.31646405736104e+001dB,-2.58259037172591e-001°)
1.07151930523761e+002	(-3.31647369068156e+001dB,-2.61249595535777e-001°)
1.08392691402120e+002	(-3.31648354850214e+001dB,-2.64274785029812e-001°)
1.09647819614319e+002	(-3.31649363605735e+001dB,-2.67335006738303e-001°)
1.10917481526240e+002	(-3.31650395870385e+001dB,-2.70430666391207e-001°)
1.12201845430196e+002	(-3.31651452192340e+001dB,-2.73562174419746e-001°)
1.13501081567232e+002	(-3.31652533132568e+001dB,-2.76729946010397e-001°)
1.14815362149688e+002	(-3.31653639265132e+001dB,-2.79934401160036e-001°)
1.16144861384034e+002	(-3.31654771177499e+001dB,-2.83175964731981e-001°)
1.17489755493953e+002	(-3.31655929470847e+001dB,-2.86455066512267e-001°)
1.18850222743702e+002	(-3.31657114760394e+001dB,-2.89772141266597e-001°)
1.20226443461741e+002	(-3.31658327675719e+001dB,-2.93127628798771e-001°)
1.21618600064637e+002	(-3.31659568861105e+001dB,-2.96521974008371e-001°)
1.23026877081238e+002	(-3.31660838975876e+001dB,-2.99955626950233e-001°)
1.24451461177139e+002	(-3.31662138694756e+001dB,-3.03429042894416e-001°)
1.25892541179417e+002	(-3.31663468708225e+001dB,-3.06942682386524e-001°)
1.27350308101666e+002	(-3.31664829722889e+001dB,-3.10497011308708e-001°)
1.28824955169314e+002	(-3.31666222461858e+001dB,-3.14092500942101e-001°)
1.30316677845230e+002	(-3.31667647665134e+001dB,-3.17729628029211e-001°)
1.31825673855641e+002	(-3.31669106090004e+001dB,-3.21408874837254e-001°)
1.33352143216333e+002	(-3.31670598511447e+001dB,-3.25130729222337e-001°)
1.34896288259166e+002	(-3.31672125722547e+001dB,-3.28895684694343e-001°)
1.36458313658893e+002	(-3.31673688534918e+001dB,-3.32704240482686e-001°)
1.38038426460289e+002	(-3.31675287779139e+001dB,-3.36556901602503e-001°)
1.39636836105594e+002	(-3.31676924305196e+001dB,-3.40454178921751e-001°)
1.41253754462276e+002	(-3.31678598982943e+001dB,-3.44396589229732e-001°)
1.42889395851111e+002	(-3.31680312702560e+001dB,-3.48384655304988e-001°)
1.44543977074593e+002	(-3.31682066375035e+001dB,-3.52418905985674e-001°)
1.46217717445672e+002	(-3.31683860932648e+001dB,-3.56499876239350e-001°)
1.47910838816821e+002	(-3.31685697329478e+001dB,-3.60628107234311e-001°)
1.49623565609444e+002	(-3.31687576541903e+001dB,-3.64804146411952e-001°)
1.51356124843621e+002	(-3.31689499569136e+001dB,-3.69028547559109e-001°)
1.53108746168203e+002	(-3.31691467433751e+001dB,-3.73301870882018e-001°)
1.54881661891249e+002	(-3.31693481182236e+001dB,-3.77624683081053e-001°)
1.56675107010815e+002	(-3.31695541885552e+001dB,-3.81997557425748e-001°)
1.58489319246112e+002	(-3.31697650639711e+001dB,-3.86421073831483e-001°)
1.60324539069005e+002	(-3.31699808566364e+001dB,-3.90895818936730e-001°)
1.62181009735893e+002	(-3.31702016813396e+001dB,-3.95422386180862e-001°)
1.64058977319954e+002	(-3.31704276555557e+001dB,-4.00001375883484e-001°)
1.65958690743757e+002	(-3.31706588995079e+001dB,-4.04633395324331e-001°)
1.67880401812257e+002	(-3.31708955362329e+001dB,-4.09319058823885e-001°)
1.69824365246175e+002	(-3.31711376916468e+001dB,-4.14058987825715e-001°)
1.71790838715759e+002	(-3.31713854946132e+001dB,-4.18853810979113e-001°)
1.73780082874938e+002	(-3.31716390770122e+001dB,-4.23704164222428e-001°)
1.75792361395870e+002	(-3.31718985738112e+001dB,-4.28610690868511e-001°)
1.77827941003893e+002	(-3.31721641231382e+001dB,-4.33574041690109e-001°)
1.79887091512879e+002	(-3.31724358663555e+001dB,-4.38594875006583e-001°)
1.81970085860999e+002	(-3.31727139481363e+001dB,-4.43673856771863e-001°)
1.84077200146896e+002	(-3.31729985165423e+001dB,-4.48811660663131e-001°)
1.86208713666287e+002	(-3.31732897231038e+001dB,-4.54008968170724e-001°)
1.88364908948981e+002	(-3.31735877229016e+001dB,-4.59266468689052e-001°)
1.90546071796325e+002	(-3.31738926746501e+001dB,-4.64584859608461e-001°)
1.92752491319094e+002	(-3.31742047407837e+001dB,-4.69964846408531e-001°)
1.94984459975805e+002	(-3.31745240875435e+001dB,-4.75407142751990e-001°)
1.97242273611486e+002	(-3.31748508850683e+001dB,-4.80912470580075e-001°)
1.99526231496889e+002	(-3.31751853074856e+001dB,-4.86481560208877e-001°)
2.01836636368157e+002	(-3.31755275330064e+001dB,-4.92115150426979e-001°)
2.04173794466954e+002	(-3.31758777440212e+001dB,-4.97813988593822e-001°)
2.06538015581054e+002	(-3.31762361271986e+001dB,-5.03578830739856e-001°)
2.08929613085405e+002	(-3.31766028735870e+001dB,-5.09410441667391e-001°)
2.11348903983666e+002	(-3.31769781787175e+001dB,-5.15309595052805e-001°)
2.13796208950224e+002	(-3.31773622427098e+001dB,-5.21277073549829e-001°)
2.16271852372703e+002	(-3.31777552703815e+001dB,-5.27313668894369e-001°)
2.18776162394956e+002	(-3.31781574713582e+001dB,-5.33420182010300e-001°)
2.21309470960565e+002	(-3.31785690601881e+001dB,-5.39597423116403e-001°)
2.23872113856835e+002	(-3.31789902564581e+001dB,-5.45846211834916e-001°)
2.26464430759307e+002	(-3.31794212849131e+001dB,-5.52167377301088e-001°)
2.29086765276778e+002	(-3.31798623755786e+001dB,-5.58561758274248e-001°)
2.31739464996849e+002	(-3.31803137638853e+001dB,-5.65030203249772e-001°)
2.34422881531993e+002	(-3.31807756907979e+001dB,-5.71573570573049e-001°)
2.37137370566167e+002	(-3.31812484029453e+001dB,-5.78192728554084e-001°)
2.39883291901950e+002	(-3.31817321527565e+001dB,-5.84888555584053e-001°)
2.42661009508243e+002	(-3.31822271985969e+001dB,-5.91661940252774e-001°)
2.45470891568504e+002	(-3.31827338049101e+001dB,-5.98513781467839e-001°)
2.48313310529558e+002	(-3.31832522423622e+001dB,-6.05444988575221e-001°)
2.51188643150959e+002	(-3.31837827879893e+001dB,-6.12456481480874e-001°)
2.54097270554932e+002	(-3.31843257253494e+001dB,-6.19549190774511e-001°)
2.57039578276888e+002	(-3.31848813446776e+001dB,-6.26724057854073e-001°)
2.60015956316529e+002	(-3.31854499430447e+001dB,-6.33982035052256e-001°)
2.63026799189540e+002	(-3.31860318245203e+001dB,-6.41324085764210e-001°)
2.66072505979882e+002	(-3.31866273003395e+001dB,-6.48751184576962e-001°)
2.69153480392693e+002	(-3.31872366890738e+001dB,-6.56264317400153e-001°)
2.72270130807793e+002	(-3.31878603168057e+001dB,-6.63864481598853e-001°)
2.75422870333818e+002	(-3.31884985173086e+001dB,-6.71552686127073e-001°)
2.78612116862979e+002	(-3.31891516322301e+001dB,-6.79329951663628e-001°)
2.81838293126447e+002	(-3.31898200112800e+001dB,-6.87197310749592e-001°)
2.85101826750393e+002	(-3.31905040124234e+001dB,-6.95155807926925e-001°)
2.88403150312662e+002	(-3.31912040020779e+001dB,-7.03206499878943e-001°)
2.91742701400119e+002	(-3.31919203553163e+001dB,-7.11350455572992e-001°)
2.95120922666640e+002	(-3.31926534560733e+001dB,-7.19588756403866e-001°)
2.98538261891798e+002	(-3.31934036973586e+001dB,-7.27922496339895e-001°)
3.01995172040204e+002	(-3.31941714814737e+001dB,-7.36352782069988e-001°)
3.05492111321553e+002	(-3.31949572202359e+001dB,-7.44880733153271e-001°)
3.09029543251361e+002	(-3.31957613352060e+001dB,-7.53507482169574e-001°)
3.12607936712398e+002	(-3.31965842579228e+001dB,-7.62234174872947e-001°)
3.16227766016840e+002	(-3.31974264301430e+001dB,-7.71061970345360e-001°)
3.19889510969142e+002	(-3.31982883040872e+001dB,-7.79992041154104e-001°)
3.23593656929630e+002	(-3.31991703426916e+001dB,-7.89025573509607e-001°)
3.27340694878840e+002	(-3.32000730198667e+001dB,-7.98163767426137e-001°)
3.31131121482593e+002	(-3.32009968207619e+001dB,-8.07407836883937e-001°)
3.34965439157830e+002	(-3.32019422420364e+001dB,-8.16759009993247e-001°)
3.38844156139205e+002	(-3.32029097921378e+001dB,-8.26218529160828e-001°)
3.42767786546453e+002	(-3.32038999915872e+001dB,-8.35787651258306e-001°)
3.46736850452534e+002	(-3.32049133732704e+001dB,-8.45467647791835e-001°)
3.50751873952571e+002	(-3.32059504827390e+001dB,-8.55259805075227e-001°)
3.54813389233578e+002	(-3.32070118785160e+001dB,-8.65165424403873e-001°)
3.58921934645008e+002	(-3.32080981324114e+001dB,-8.75185822231726e-001°)
3.63078054770104e+002	(-3.32092098298446e+001dB,-8.85322330349645e-001°)
3.67282300498088e+002	(-3.32103475701753e+001dB,-8.95576296066627e-001°)
3.71535229097175e+002	(-3.32115119670428e+001dB,-9.05949082392913e-001°)
3.75837404288447e+002	(-3.32127036487137e+001dB,-9.16442068225370e-001°)
3.80189396320564e+002	(-3.32139232584386e+001dB,-9.27056648535035e-001°)
3.84591782045357e+002	(-3.32151714548181e+001dB,-9.37794234557289e-001°)
3.89045144994284e+002	(-3.32164489121774e+001dB,-9.48656253984236e-001°)
3.93550075455781e+002	(-3.32177563209512e+001dB,-9.59644151158991e-001°)
3.98107170553501e+002	(-3.32190943880783e+001dB,-9.70759387273263e-001°)
4.02717034325463e+002	(-3.32204638374059e+001dB,-9.82003440566646e-001°)
4.07380277804116e+002	(-3.32218654101046e+001dB,-9.93377806528703e-001°)
4.12097519097334e+002	(-3.32232998650947e+001dB,-1.00488399810350e+000°)
4.16869383470339e+002	(-3.32247679794821e+001dB,-1.01652354589661e+000°)
4.21696503428586e+002	(-3.32262705490064e+001dB,-1.02829799838470e+000°)
4.26579518801596e+002	(-3.32278083885008e+001dB,-1.04020892212806e+000°)
4.31519076827769e+002	(-3.32293823323635e+001dB,-1.05225790198532e+000°)
4.36515832240170e+002	(-3.32309932350414e+001dB,-1.06444654133092e+000°)
4.41570447353317e+002	(-3.32326419715263e+001dB,-1.07677646227573e+000°)
4.46683592150967e+002	(-3.32343294378648e+001dB,-1.08924930588997e+000°)
4.51855944374927e+002	(-3.32360565516807e+001dB,-1.10186673242919e+000°)
4.57088189614879e+002	(-3.32378242527115e+001dB,-1.11463042156312e+000°)
4.62381021399265e+002	(-3.32396335033593e+001dB,-1.12754207260712e+000°)
4.67735141287203e+002	(-3.32414852892558e+001dB,-1.14060340475680e+000°)
4.73151258961485e+002	(-3.32433806198423e+001dB,-1.15381615732588e+000°)
4.78630092322643e+002	(-3.32453205289659e+001dB,-1.16718208998648e+000°)
4.84172367584104e+002	(-3.32473060754902e+001dB,-1.18070298301283e+000°)
4.89778819368451e+002	(-3.32493383439236e+001dB,-1.19438063752826e+000°)
4.95450190804795e+002	(-3.32514184450639e+001dB,-1.20821687575494e+000°)
5.01187233627277e+002	(-3.32535475166597e+001dB,-1.22221354126697e+000°)
5.06990708274709e+002	(-3.32557267240909e+001dB,-1.23637249924708e+000°)
5.12861383991370e+002	(-3.32579572610663e+001dB,-1.25069563674621e+000°)
5.18800038928966e+002	(-3.32602403503412e+001dB,-1.26518486294641e+000°)
5.24807460249778e+002	(-3.32625772444531e+001dB,-1.27984210942767e+000°)
5.30884444230994e+002	(-3.32649692264794e+001dB,-1.29466933043785e+000°)
5.37031796370258e+002	(-3.32674176108137e+001dB,-1.30966850316591e+000°)
5.43250331492439e+002	(-3.32699237439659e+001dB,-1.32484162801928e+000°)
5.49540873857630e+002	(-3.32724890053810e+001dB,-1.34019072890440e+000°)
5.55904257270409e+002	(-3.32751148082846e+001dB,-1.35571785351136e+000°)
5.62341325190355e+002	(-3.32778026005484e+001dB,-1.37142507360203e+000°)
5.68852930843847e+002	(-3.32805538655809e+001dB,-1.38731448530154e+000°)
5.75439937337163e+002	(-3.32833701232445e+001dB,-1.40338820939510e+000°)
5.82103217770878e+002	(-3.32862529307958e+001dB,-1.41964839162718e+000°)
5.88843655355595e+002	(-3.32892038838541e+001dB,-1.43609720300552e+000°)
5.95662143529017e+002	(-3.32922246173969e+001dB,-1.45273684010899e+000°)
6.02559586074364e+002	(-3.32953168067827e+001dB,-1.46956952539979e+000°)
6.09536897240176e+002	(-3.32984821688045e+001dB,-1.48659750753988e+000°)
6.16595001861489e+002	(-3.33017224627722e+001dB,-1.50382306171135e+000°)
6.23734835482426e+002	(-3.33050394916264e+001dB,-1.52124848994157e+000°)
6.30957344480200e+002	(-3.33084351030841e+001dB,-1.53887612143247e+000°)
6.38263486190556e+002	(-3.33119111908183e+001dB,-1.55670831289472e+000°)
6.45654229034663e+002	(-3.33154696956708e+001dB,-1.57474744888626e+000°)
6.53130552647480e+002	(-3.33191126069010e+001dB,-1.59299594215529e+000°)
6.60693448007603e+002	(-3.33228419634713e+001dB,-1.61145623398906e+000°)
6.68343917568622e+002	(-3.33266598553700e+001dB,-1.63013079456594e+000°)
6.76082975391990e+002	(-3.33305684249734e+001dB,-1.64902212331388e+000°)
6.83911647281437e+002	(-3.33345698684486e+001dB,-1.66813274927313e+000°)
6.91830970918945e+002	(-3.33386664371981e+001dB,-1.68746523146473e+000°)
6.99841996002282e+002	(-3.33428604393471e+001dB,-1.70702215926345e+000°)
7.07945784384146e+002	(-3.33471542412764e+001dB,-1.72680615277658e+000°)
7.16143410212910e+002	(-3.33515502692008e+001dB,-1.74681986322838e+000°)
7.24435960074999e+002	(-3.33560510107969e+001dB,-1.76706597334974e+000°)
7.32824533138913e+002	(-3.33606590168785e+001dB,-1.78754719777345e+000°)
7.41310241300926e+002	(-3.33653769031255e+001dB,-1.80826628343573e+000°)
7.49894209332465e+002	(-3.33702073518651e+001dB,-1.82922600998296e+000°)
7.58577575029193e+002	(-3.33751531139080e+001dB,-1.85042919018562e+000°)
7.67361489361828e+002	(-3.33802170104431e+001dB,-1.87187867035708e+000°)
7.76247116628701e+002	(-3.33854019349901e+001dB,-1.89357733077914e+000°)
7.85235634610081e+002	(-3.33907108554144e+001dB,-1.91552808613476e+000°)
7.94328234724291e+002	(-3.33961468160064e+001dB,-1.93773388594645e+000°)
8.03526122185627e+002	(-3.34017129396256e+001dB,-1.96019771502151e+000°)
8.12830516164109e+002	(-3.34074124299146e+001dB,-1.98292259390459e+000°)
8.22242649947081e+002	(-3.34132485735842e+001dB,-2.00591157933683e+000°)
8.31763771102681e+002	(-3.34192247427724e+001dB,-2.02916776472274e+000°)
8.41395141645206e+002	(-3.34253443974799e+001dB,-2.05269428060328e+000°)
8.51138038202387e+002	(-3.34316110880866e+001dB,-2.07649429513829e+000°)
8.60993752184611e+002	(-3.34380284579499e+001dB,-2.10057101459487e+000°)
8.70963589956092e+002	(-3.34446002460899e+001dB,-2.12492768384463e+000°)
8.81048873008025e+002	(-3.34513302899644e+001dB,-2.14956758686878e+000°)
8.91250938133757e+002	(-3.34582225283360e+001dB,-2.17449404727188e+000°)
9.01571137605968e+002	(-3.34652810042383e+001dB,-2.19971042880301e+000°)
9.12010839355922e+002	(-3.34725098680406e+001dB,-2.22522013588687e+000°)
9.22571427154775e+002	(-3.34799133806193e+001dB,-2.25102661416374e+000°)
9.33254300797003e+002	(-3.34874959166378e+001dB,-2.27713335103746e+000°)
9.44060876285936e+002	(-3.34952619679405e+001dB,-2.30354387623433e+000°)
9.54992586021449e+002	(-3.35032161470651e+001dB,-2.33026176237024e+000°)
9.66050878989826e+002	(-3.35113631908789e+001dB,-2.35729062552952e+000°)
9.77237220955824e+002	(-3.35197079643433e+001dB,-2.38463412585212e+000°)
9.88553094656952e+002	(-3.35282554644128e+001dB,-2.41229596813280e+000°)
1.00000000000001e+003	(-3.35370108240741e+001dB,-2.44027990243024e+000°)
1.01157945425991e+003	(-3.35459793165309e+001dB,-2.46858972468785e+000°)
1.02329299228077e+003	(-3.35551663595412e+001dB,-2.49722927736574e+000°)
1.03514216667936e+003	(-3.35645775199142e+001dB,-2.52620245008466e+000°)
1.04712854805091e+003	(-3.35742185181723e+001dB,-2.55551318028207e+000°)
1.05925372517730e+003	(-3.35840952333879e+001dB,-2.58516545388078e+000°)
1.07151930523762e+003	(-3.35942137082002e+001dB,-2.61516330597087e+000°)
1.08392691402122e+003	(-3.36045801540231e+001dB,-2.64551082150420e+000°)
1.09647819614320e+003	(-3.36152009564498e+001dB,-2.67621213600419e+000°)
1.10917481526242e+003	(-3.36260826808660e+001dB,-2.70727143628789e+000°)
1.12201845430198e+003	(-3.36372320782795e+001dB,-2.73869296120512e+000°)
1.13501081567233e+003	(-3.36486560913769e+001dB,-2.77048100239047e+000°)
1.14815362149690e+003	(-3.36603618608192e+001dB,-2.80263990503398e+000°)
1.16144861384036e+003	(-3.36723567317849e+001dB,-2.83517406866548e+000°)
1.17489755493955e+003	(-3.36846482607760e+001dB,-2.86808794795729e+000°)
1.18850222743704e+003	(-3.36972442226972e+001dB,-2.90138605354502e+000°)
1.20226443461743e+003	(-3.37101526182227e+001dB,-2.93507295286585e+000°)
1.21618600064639e+003	(-3.37233816814636e+001dB,-2.96915327101546e+000°)
1.23026877081240e+003	(-3.37369398879528e+001dB,-3.00363169162611e+000°)
1.24451461177140e+003	(-3.37508359629619e+001dB,-3.03851295776402e+000°)
1.25892541179419e+003	(-3.37650788901668e+001dB,-3.07380187284872e+000°)
1.27350308101668e+003	(-3.37796779206808e+001dB,-3.10950330159432e+000°)
1.28824955169315e+003	(-3.37946425824738e+001dB,-3.14562217097486e+000°)
1.30316677845232e+003	(-3.38099826901964e+001dB,-3.18216347121200e+000°)
1.31825673855643e+003	(-3.38257083554327e+001dB,-3.21913225679067e+000°)
1.33352143216334e+003	(-3.38418299974015e+001dB,-3.25653364749771e+000°)
1.34896288259167e+003	(-3.38583583541331e+001dB,-3.29437282949214e+000°)
1.36458313658895e+003	(-3.38753044941434e+001dB,-3.33265505640008e+000°)
1.38038426460291e+003	(-3.38926798286375e+001dB,-3.37138565044305e+000°)
1.39636836105596e+003	(-3.39104961242661e+001dB,-3.41057000359658e+000°)
1.41253754462278e+003	(-3.39287655164704e+001dB,-3.45021357878158e+000°)
1.42889395851113e+003	(-3.39475005234454e+001dB,-3.49032191109206e+000°)
1.44543977074595e+003	(-3.39667140607579e+001dB,-3.53090060905749e+000°)
1.46217717445674e+003	(-3.39864194566561e+001dB,-3.57195535594525e+000°)
1.47910838816823e+003	(-3.40066304681109e+001dB,-3.61349191110315e+000°)
1.49623565609446e+003	(-3.40273612976314e+001dB,-3.65551611134353e+000°)
1.51356124843623e+003	(-3.40486266109007e+001dB,-3.69803387237420e+000°)
1.53108746168206e+003	(-3.40704415552797e+001dB,-3.74105119027554e+000°)
1.54881661891251e+003	(-3.40928217792316e+001dB,-3.78457414302691e+000°)
1.56675107010817e+003	(-3.41157834527243e+001dB,-3.82860889208988e+000°)
1.58489319246114e+003	(-3.41393432886675e+001dB,-3.87316168404187e+000°)
1.60324539069007e+003	(-3.41635185654512e+001dB,-3.91823885227452e+000°)
1.62181009735896e+003	(-3.41883271506551e+001dB,-3.96384681875150e+000°)
1.64058977319957e+003	(-3.42137875259996e+001dB,-4.00999209583584e+000°)
1.65958690743759e+003	(-3.42399188136210e+001dB,-4.05668128818656e+000°)
1.67880401812259e+003	(-3.42667408037559e+001dB,-4.10392109473154e+000°)
1.69824365246177e+003	(-3.42942739839255e+001dB,-4.15171831072251e+000°)
1.71790838715762e+003	(-3.43225395697207e+001dB,-4.20007982987366e+000°)
1.73780082874941e+003	(-3.43515595372938e+001dB,-4.24901264659295e+000°)
1.75792361395872e+003	(-3.43813566576734e+001dB,-4.29852385831358e+000°)
1.77827941003895e+003	(-3.44119545330253e+001dB,-4.34862066792772e+000°)
1.79887091512882e+003	(-3.44433776349966e+001dB,-4.39931038633371e+000°)
1.81970085861001e+003	(-3.44756513452859e+001dB,-4.45060043510454e+000°)
1.84077200146899e+003	(-3.45088019986007e+001dB,-4.50249834928578e+000°)
1.86208713666290e+003	(-3.45428569281694e+001dB,-4.55501178033169e+000°)
1.88364908948983e+003	(-3.45778445139963e+001dB,-4.60814849919368e+000°)
1.90546071796328e+003	(-3.46137942340599e+001dB,-4.66191639956781e+000°)
1.92752491319097e+003	(-3.46507367186731e+001dB,-4.71632350131874e+000°)
1.94984459975808e+003	(-3.46887038082437e+001dB,-4.77137795409173e+000°)
1.97242273611489e+003	(-3.47277286146953e+001dB,-4.82708804112858e+000°)
1.99526231496892e+003	(-3.47678455868295e+001dB,-4.88346218330516e+000°)
2.01836636368160e+003	(-3.48090905799411e+001dB,-4.94050894340832e+000°)
2.04173794466957e+003	(-3.48515009300193e+001dB,-4.99823703067451e+000°)
2.06538015581057e+003	(-3.48951155329075e+001dB,-5.05665530561097e+000°)
2.08929613085408e+003	(-3.49399749288239e+001dB,-5.11577278512777e+000°)
2.11348903983669e+003	(-3.49861213926846e+001dB,-5.17559864800531e+000°)
2.13796208950227e+003	(-3.50335990307177e+001dB,-5.23614224073289e+000°)
2.16271852372706e+003	(-3.50824538839012e+001dB,-5.29741308374851e+000°)
2.18776162394959e+003	(-3.51327340388115e+001dB,-5.35942087812410e+000°)
2.21309470960568e+003	(-3.51844897465336e+001dB,-5.42217551273375e+000°)
2.23872113856838e+003	(-3.52377735503452e+001dB,-5.48568707195860e+000°)
2.26464430759310e+003	(-3.52926404229656e+001dB,-5.54996584397995e+000°)
2.29086765276781e+003	(-3.53491479142441e+001dB,-5.61502232972097e+000°)
