Freq.	V(vo)
Step Information: Rb_1=900 Rb_2=900  (Run: 1/25)
1.00000000000000e+001	(-4.37669932962732e+001dB,-1.12309611092746e-002°)
1.02329299228075e+001	(-4.37669944287046e+001dB,-1.14925618179961e-002°)
1.04712854805090e+001	(-4.37669956144034e+001dB,-1.17602558474449e-002°)
1.07151930523761e+001	(-4.37669968560604e+001dB,-1.20341851205729e-002°)
1.09647819614319e+001	(-4.37669981561184e+001dB,-1.23144948624175e-002°)
1.12201845430196e+001	(-4.37669995174985e+001dB,-1.26013336829020e-002°)
1.14815362149688e+001	(-4.37670009430785e+001dB,-1.28948536512706e-002°)
1.17489755493953e+001	(-4.37670024358942e+001dB,-1.31952103782048e-002°)
1.20226443461741e+001	(-4.37670039988812e+001dB,-1.35025630958337e-002°)
1.23026877081238e+001	(-4.37670056356013e+001dB,-1.38170747486191e-002°)
1.25892541179417e+001	(-4.37670073495914e+001dB,-1.41389120738135e-002°)
1.28824955169313e+001	(-4.37670091442364e+001dB,-1.44682456881703e-002°)
1.31825673855641e+001	(-4.37670110235627e+001dB,-1.48052501860199e-002°)
1.34896288259165e+001	(-4.37670129913247e+001dB,-1.51501042225859e-002°)
1.38038426460288e+001	(-4.37670150518635e+001dB,-1.55029906171491e-002°)
1.41253754462275e+001	(-4.37670172095883e+001dB,-1.58640964445810e-002°)
1.44543977074593e+001	(-4.37670194689164e+001dB,-1.62336131334172e-002°)
1.47910838816821e+001	(-4.37670218347400e+001dB,-1.66117365722304e-002°)
1.51356124843621e+001	(-4.37670243121042e+001dB,-1.69986672097236e-002°)
1.54881661891248e+001	(-4.37670269062148e+001dB,-1.73946101606980e-002°)
1.58489319246111e+001	(-4.37670296225765e+001dB,-1.77997753161522e-002°)
1.62181009735893e+001	(-4.37670324669361e+001dB,-1.82143774534426e-002°)
1.65958690743756e+001	(-4.37670354453555e+001dB,-1.86386363508090e-002°)
1.69824365246174e+001	(-4.37670385640895e+001dB,-1.90727769019091e-002°)
1.73780082874937e+001	(-4.37670418299236e+001dB,-1.95170292390103e-002°)
1.77827941003892e+001	(-4.37670452495915e+001dB,-1.99716288469339e-002°)
1.81970085860998e+001	(-4.37670488304429e+001dB,-2.04368166962079e-002°)
1.86208713666287e+001	(-4.37670525801245e+001dB,-2.09128393662104e-002°)
1.90546071796325e+001	(-4.37670565063291e+001dB,-2.13999491714996e-002°)
1.94984459975804e+001	(-4.37670606177263e+001dB,-2.18984043085638e-002°)
1.99526231496888e+001	(-4.37670649229890e+001dB,-2.24084689780017e-002°)
2.04173794466953e+001	(-4.37670694309372e+001dB,-2.29304135255803e-002°)
2.08929613085404e+001	(-4.37670741514717e+001dB,-2.34645145993213e-002°)
2.13796208950223e+001	(-4.37670790944043e+001dB,-2.40110552773502e-002°)
2.18776162394955e+001	(-4.37670842703267e+001dB,-2.45703252307085e-002°)
2.23872113856834e+001	(-4.37670896901658e+001dB,-2.51426208689567e-002°)
2.29086765276777e+001	(-4.37670953655281e+001dB,-2.57282455021038e-002°)
2.34422881531992e+001	(-4.37671013082559e+001dB,-2.63275094926507e-002°)
2.39883291901949e+001	(-4.37671075311018e+001dB,-2.69407304309331e-002°)
2.45470891568503e+001	(-4.37671140472214e+001dB,-2.75682332933055e-002°)
2.51188643150958e+001	(-4.37671208704552e+001dB,-2.82103506182188e-002°)
2.57039578276886e+001	(-4.37671280152166e+001dB,-2.88674226790916e-002°)
2.63026799189538e+001	(-4.37671354967758e+001dB,-2.95397976687992e-002°)
2.69153480392691e+001	(-4.37671433308875e+001dB,-3.02278318752644e-002°)
2.75422870333816e+001	(-4.37671515341423e+001dB,-3.09318898756975e-002°)
2.81838293126445e+001	(-4.37671601241215e+001dB,-3.16523447315144e-002°)
2.88403150312660e+001	(-4.37671691189631e+001dB,-3.23895781750933e-002°)
2.95120922666638e+001	(-4.37671785376497e+001dB,-3.31439808158528e-002°)
3.01995172040201e+001	(-4.37671884002341e+001dB,-3.39159523504247e-002°)
3.09029543251359e+001	(-4.37671987276706e+001dB,-3.47059017684476e-002°)
3.16227766016838e+001	(-4.37672095418448e+001dB,-3.55142475674513e-002°)
3.23593656929628e+001	(-4.37672208655398e+001dB,-3.63414179710291e-002°)
3.31131121482591e+001	(-4.37672327231260e+001dB,-3.71878511700355e-002°)
3.38844156139202e+001	(-4.37672451394789e+001dB,-3.80539955249140e-002°)
3.46736850452531e+001	(-4.37672581410009e+001dB,-3.89403098254729e-002°)
3.54813389233575e+001	(-4.37672717553303e+001dB,-3.98472635234847e-002°)
3.63078054770101e+001	(-4.37672860112503e+001dB,-4.07753369750902e-002°)
3.71535229097172e+001	(-4.37673009390581e+001dB,-4.17250217013727e-002°)
3.80189396320561e+001	(-4.37673165704125e+001dB,-4.26968206403334e-002°)
3.89045144994280e+001	(-4.37673329383784e+001dB,-4.36912484099825e-002°)
3.98107170553497e+001	(-4.37673500780010e+001dB,-4.47088315931708e-002°)
4.07380277804112e+001	(-4.37673680251066e+001dB,-4.57501089750195e-002°)
4.16869383470335e+001	(-4.37673868183271e+001dB,-4.68156318847411e-002°)
4.26579518801592e+001	(-4.37674064971827e+001dB,-4.79059644222719e-002°)
4.36515832240165e+001	(-4.37674271035197e+001dB,-4.90216837956198e-002°)
4.46683592150962e+001	(-4.37674486810449e+001dB,-5.01633806053021e-002°)
4.57088189614874e+001	(-4.37674712755197e+001dB,-5.13316591557191e-002°)
4.67735141287197e+001	(-4.37674949348263e+001dB,-5.25271377698218e-002°)
4.78630092322638e+001	(-4.37675197092338e+001dB,-5.37504491173201e-002°)
4.89778819368445e+001	(-4.37675456514046e+001dB,-5.50022405412302e-002°)
5.01187233627271e+001	(-4.37675728161419e+001dB,-5.62831743811576e-002°)
5.12861383991364e+001	(-4.37676012612573e+001dB,-5.75939283461185e-002°)
5.24807460249772e+001	(-4.37676310469966e+001dB,-5.89351958403911e-002°)
5.37031796370252e+001	(-4.37676622365215e+001dB,-6.03076863372682e-002°)
5.49540873857624e+001	(-4.37676948961311e+001dB,-6.17121257510888e-002°)
5.62341325190348e+001	(-4.37677290949644e+001dB,-6.31492567951625e-002°)
5.75439937337156e+001	(-4.37677649056903e+001dB,-6.46198393893332e-002°)
5.88843655355588e+001	(-4.37678024042185e+001dB,-6.61246510339740e-002°)
6.02559586074357e+001	(-4.37678416701377e+001dB,-6.76644872235975e-002°)
6.16595001861481e+001	(-4.37678827867640e+001dB,-6.92401618522373e-002°)
6.30957344480192e+001	(-4.37679258413276e+001dB,-7.08525076330191e-002°)
6.45654229034654e+001	(-4.37679709251634e+001dB,-7.25023765268280e-002°)
6.60693448007595e+001	(-4.37680181339091e+001dB,-7.41906401801973e-002°)
6.76082975391980e+001	(-4.37680675678400e+001dB,-7.59181903795674e-002°)
6.91830970918935e+001	(-4.37681193316193e+001dB,-7.76859394837837e-002°)
7.07945784384136e+001	(-4.37681735351726e+001dB,-7.94948209244555e-002°)
7.24435960074988e+001	(-4.37682302937800e+001dB,-8.13457896765361e-002°)
7.41310241300916e+001	(-4.37682897274540e+001dB,-8.32398226962764e-002°)
7.58577575029182e+001	(-4.37683519623620e+001dB,-8.51779194821339e-002°)
7.76247116628690e+001	(-4.37684171308767e+001dB,-8.71611025720340e-002°)
7.94328234724279e+001	(-4.37684853710440e+001dB,-8.91904180130923e-002°)
8.12830516164097e+001	(-4.37685568276370e+001dB,-9.12669359341784e-002°)
8.31763771102669e+001	(-4.37686316523654e+001dB,-9.33917510805864e-002°)
8.51138038202374e+001	(-4.37687100040286e+001dB,-9.55659833540272e-002°)
8.70963589956078e+001	(-4.37687920488768e+001dB,-9.77907783759760e-002°)
8.91250938133743e+001	(-4.37688779611141e+001dB,-1.00067308070255e-001°)
9.12010839355907e+001	(-4.37689679228221e+001dB,-1.02396771217266e-001°)
9.33254300796988e+001	(-4.37690621250112e+001dB,-1.04780394095491e-001°)
9.54992586021433e+001	(-4.37691607677668e+001dB,-1.07219431072616e-001°)
9.77237220955808e+001	(-4.37692640603401e+001dB,-1.09715165200963e-001°)
9.99999999999997e+001	(-4.37693722218464e+001dB,-1.12268908866555e-001°)
1.02329299228075e+002	(-4.37694854820422e+001dB,-1.14882004457131e-001°)
1.04712854805090e+002	(-4.37696040811319e+001dB,-1.17555824966052e-001°)
1.07151930523760e+002	(-4.37697282709706e+001dB,-1.20291774714079e-001°)
1.09647819614318e+002	(-4.37698583151663e+001dB,-1.23091289996208e-001°)
1.12201845430196e+002	(-4.37699944897903e+001dB,-1.25955839786363e-001°)
1.14815362149688e+002	(-4.37701370837123e+001dB,-1.28886926420778e-001°)
1.17489755493953e+002	(-4.37702863999399e+001dB,-1.31886086378956e-001°)
1.20226443461741e+002	(-4.37704427552691e+001dB,-1.34954890926947e-001°)
1.23026877081238e+002	(-4.37706064817310e+001dB,-1.38094946927914e-001°)
1.25892541179416e+002	(-4.37707779268765e+001dB,-1.41307897559163e-001°)
1.28824955169313e+002	(-4.37709574546111e+001dB,-1.44595423087124e-001°)
1.31825673855640e+002	(-4.37711454464460e+001dB,-1.47959241694932e-001°)
1.34896288259165e+002	(-4.37713423013312e+001dB,-1.51401110176493e-001°)
1.38038426460288e+002	(-4.37715484372220e+001dB,-1.54922824810079e-001°)
1.41253754462275e+002	(-4.37717642920824e+001dB,-1.58526222187890e-001°)
1.44543977074592e+002	(-4.37719903242606e+001dB,-1.62213179983559e-001°)
1.47910838816820e+002	(-4.37722270137491e+001dB,-1.65985617819258e-001°)
1.51356124843620e+002	(-4.37724748632800e+001dB,-1.69845498122509e-001°)
1.54881661891248e+002	(-4.37727343994536e+001dB,-1.73794826993661e-001°)
1.58489319246111e+002	(-4.37730061735081e+001dB,-1.77835655033865e-001°)
1.62181009735892e+002	(-4.37732907627836e+001dB,-1.81970078256966e-001°)
1.65958690743755e+002	(-4.37735887718957e+001dB,-1.86200238971647e-001°)
1.69824365246174e+002	(-4.37739008340821e+001dB,-1.90528326685025e-001°)
1.73780082874937e+002	(-4.37742276125912e+001dB,-1.94956579013204e-001°)
1.77827941003892e+002	(-4.37745698015239e+001dB,-1.99487282515736e-001°)
1.81970085860998e+002	(-4.37749281284976e+001dB,-2.04122773772009e-001°)
1.86208713666286e+002	(-4.37753033547954e+001dB,-2.08865440112458e-001°)
1.90546071796324e+002	(-4.37756962782628e+001dB,-2.13717720722396e-001°)
1.94984459975804e+002	(-4.37761077341541e+001dB,-2.18682107451307e-001°)
1.99526231496887e+002	(-4.37765385971542e+001dB,-2.23761145776358e-001°)
2.04173794466952e+002	(-4.37769897835918e+001dB,-2.28957435787895e-001°)
2.08929613085403e+002	(-4.37774622529257e+001dB,-2.34273633048301e-001°)
2.13796208950222e+002	(-4.37779570099551e+001dB,-2.39712449543024e-001°)
2.18776162394954e+002	(-4.37784751070992e+001dB,-2.45276654624519e-001°)
2.23872113856833e+002	(-4.37790176466835e+001dB,-2.50969075935616e-001°)
2.29086765276776e+002	(-4.37795857829742e+001dB,-2.56792600261874e-001°)
2.34422881531991e+002	(-4.37801807250156e+001dB,-2.62750174488229e-001°)
2.39883291901948e+002	(-4.37808037389603e+001dB,-2.68844806435553e-001°)
2.45470891568502e+002	(-4.37814561510804e+001dB,-2.75079565778371e-001°)
2.51188643150957e+002	(-4.37821393504108e+001dB,-2.81457584853724e-001°)
2.57039578276885e+002	(-4.37828547918198e+001dB,-2.87982059497969e-001°)
2.63026799189537e+002	(-4.37836039988535e+001dB,-2.94656249784680e-001°)
2.69153480392690e+002	(-4.37843885676751e+001dB,-3.01483480918381e-001°)
2.75422870333816e+002	(-4.37852101698034e+001dB,-3.08467143822938e-001°)
2.81838293126444e+002	(-4.37860705562854e+001dB,-3.15610695945182e-001°)
2.88403150312659e+002	(-4.37869715610093e+001dB,-3.22917661798759e-001°)
2.95120922666637e+002	(-4.37879151048737e+001dB,-3.30391633597385e-001°)
3.01995172040200e+002	(-4.37889032001615e+001dB,-3.38036271839053e-001°)
3.09029543251358e+002	(-4.37899379547332e+001dB,-3.45855305742944e-001°)
3.16227766016837e+002	(-4.37910215761767e+001dB,-3.53852533547479e-001°)
3.23593656929627e+002	(-4.37921563773702e+001dB,-3.62031823014201e-001°)
3.31131121482590e+002	(-4.37933447809024e+001dB,-3.70397111517389e-001°)
3.38844156139201e+002	(-4.37945893247913e+001dB,-3.78952406294276e-001°)
3.46736850452530e+002	(-4.37958926675383e+001dB,-3.87701784357530e-001°)
3.54813389233574e+002	(-4.37972575944379e+001dB,-3.96649392543904e-001°)
3.63078054770100e+002	(-4.37986870233085e+001dB,-4.05799447213015e-001°)
3.71535229097171e+002	(-4.38001840108433e+001dB,-4.15156233883731e-001°)
3.80189396320559e+002	(-4.38017517594599e+001dB,-4.24724106771932e-001°)
3.89045144994279e+002	(-4.38033936245987e+001dB,-4.34507488198172e-001°)
3.98107170553495e+002	(-4.38051131215584e+001dB,-4.44510867578193e-001°)
4.07380277804111e+002	(-4.38069139333360e+001dB,-4.54738800388507e-001°)
4.16869383470333e+002	(-4.38087999193530e+001dB,-4.65195907079719e-001°)
4.26579518801591e+002	(-4.38107751229112e+001dB,-4.75886871226105e-001°)
4.36515832240164e+002	(-4.38128437812184e+001dB,-4.86816438089211e-001°)
4.46683592150961e+002	(-4.38150103341800e+001dB,-4.97989412367223e-001°)
4.57088189614873e+002	(-4.38172794342824e+001dB,-5.09410655826546e-001°)
4.67735141287196e+002	(-4.38196559571973e+001dB,-5.21085084677657e-001°)
4.78630092322636e+002	(-4.38221450124020e+001dB,-5.33017666412457e-001°)
4.89778819368444e+002	(-4.38247519547635e+001dB,-5.45213416385629e-001°)
5.01187233627270e+002	(-4.38274823966544e+001dB,-5.57677393951192e-001°)
5.12861383991362e+002	(-4.38303422202922e+001dB,-5.70414697984337e-001°)
5.24807460249770e+002	(-4.38333375911305e+001dB,-5.83430462041510e-001°)
5.37031796370250e+002	(-4.38364749720000e+001dB,-5.96729849000451e-001°)
5.49540873857622e+002	(-4.38397611371743e+001dB,-6.10318044776695e-001°)
5.62341325190346e+002	(-4.38432031885816e+001dB,-6.24200251952048e-001°)
5.75439937337154e+002	(-4.38468085714871e+001dB,-6.38381682151221e-001°)
5.88843655355586e+002	(-4.38505850914074e+001dB,-6.52867547794102e-001°)
6.02559586074355e+002	(-4.38545409326369e+001dB,-6.67663053336699e-001°)
6.16595001861479e+002	(-4.38586846765090e+001dB,-6.82773385065242e-001°)
6.30957344480190e+002	(-4.38630253215010e+001dB,-6.98203700281639e-001°)
6.45654229034652e+002	(-4.38675723043085e+001dB,-7.13959115386624e-001°)
6.60693448007592e+002	(-4.38723355217512e+001dB,-7.30044692669260e-001°)
6.76082975391978e+002	(-4.38773253537048e+001dB,-7.46465425746712e-001°)
6.91830970918933e+002	(-4.38825526878591e+001dB,-7.63226223918310e-001°)
7.07945784384134e+002	(-4.38880289453815e+001dB,-7.80331894826041e-001°)
7.24435960074986e+002	(-4.38937661080947e+001dB,-7.97787125549280e-001°)
7.41310241300914e+002	(-4.38997767470574e+001dB,-8.15596461893442e-001°)
7.58577575029180e+002	(-4.39060740528376e+001dB,-8.33764285829897e-001°)
7.76247116628688e+002	(-4.39126718673150e+001dB,-8.52294790768512e-001°)
7.94328234724277e+002	(-4.39195847171171e+001dB,-8.71191954476776e-001°)
8.12830516164095e+002	(-4.39268278498088e+001dB,-8.90459510051402e-001°)
8.31763771102666e+002	(-4.39344172706900e+001dB,-9.10100913373293e-001°)
8.51138038202372e+002	(-4.39423697828092e+001dB,-9.30119308277377e-001°)
8.70963589956076e+002	(-4.39507030288010e+001dB,-9.50517488273733e-001°)
8.91250938133741e+002	(-4.39594355353203e+001dB,-9.71297854855383e-001°)
9.12010839355905e+002	(-4.39685867597927e+001dB,-9.92462372071385e-001°)
9.33254300796986e+002	(-4.39781771402564e+001dB,-1.01401251674792e+000°)
9.54992586021431e+002	(-4.39882281478043e+001dB,-1.03594922440308e+000°)
9.77237220955805e+002	(-4.39987623425688e+001dB,-1.05827283030425e+000°)
9.99999999999994e+002	(-4.40098034324298e+001dB,-1.08098300471363e+000°)
1.02329299228075e+003	(-4.40213763359110e+001dB,-1.10407868266575e+000°)
1.04712854805089e+003	(-4.40335072486231e+001dB,-1.12755798708825e+000°)
1.07151930523760e+003	(-4.40462237141509e+001dB,-1.15141814508049e+000°)
1.09647819614318e+003	(-4.40595546986576e+001dB,-1.17565539590397e+000°)
1.12201845430196e+003	(-4.40735306707679e+001dB,-1.20026489086238e+000°)
1.14815362149688e+003	(-4.40881836869486e+001dB,-1.22524058419573e+000°)
1.17489755493952e+003	(-4.41035474811695e+001dB,-1.25057511269243e+000°)
1.20226443461741e+003	(-4.41196575616949e+001dB,-1.27625966503315e+000°)
1.23026877081237e+003	(-4.41365513134796e+001dB,-1.30228383805194e+000°)
1.25892541179416e+003	(-4.41542681075463e+001dB,-1.32863547936300e+000°)
1.28824955169313e+003	(-4.41728494182349e+001dB,-1.35530051528156e+000°)
1.31825673855640e+003	(-4.41923389482483e+001dB,-1.38226276185077e+000°)
1.34896288259165e+003	(-4.42127827616058e+001dB,-1.40950371661135e+000°)
1.38038426460288e+003	(-4.42342294272423e+001dB,-1.43700233109707e+000°)
1.41253754462275e+003	(-4.42567301722876e+001dB,-1.46473476016980e+000°)
1.44543977074592e+003	(-4.42803390462743e+001dB,-1.49267408598249e+000°)
1.47910838816820e+003	(-4.43051130974157e+001dB,-1.52079001395554e+000°)
1.51356124843620e+003	(-4.43311125625616e+001dB,-1.54904853818714e+000°)
1.54881661891247e+003	(-4.43584010708112e+001dB,-1.57741157141886e+000°)
1.58489319246110e+003	(-4.43870458632056e+001dB,-1.60583653671973e+000°)
1.62181009735892e+003	(-4.44171180296747e+001dB,-1.63427591601924e+000°)
1.65958690743755e+003	(-4.44486927641639e+001dB,-1.66267674947067e+000°)
1.69824365246173e+003	(-4.44818496408814e+001dB,-1.69098008104944e+000°)
1.73780082874936e+003	(-4.45166729133563e+001dB,-1.71912034333227e+000°)
1.77827941003891e+003	(-4.45532518372323e+001dB,-1.74702467203827e+000°)
1.81970085860997e+003	(-4.45916810223425e+001dB,-1.77461214540096e+000°)
1.86208713666286e+003	(-4.46320608132305e+001dB,-1.80179293355030e+000°)
1.90546071796323e+003	(-4.46744977038999e+001dB,-1.82846734962487e+000°)
1.94984459975803e+003	(-4.47191047908177e+001dB,-1.85452478997826e+000°)
1.99526231496887e+003	(-4.47660022645620e+001dB,-1.87984254272074e+000°)
2.04173794466952e+003	(-4.48153179497269e+001dB,-1.90428445482767e+000°)
2.08929613085403e+003	(-4.48671878943122e+001dB,-1.92769942866058e+000°)
2.13796208950222e+003	(-4.49217570169387e+001dB,-1.94991973091424e+000°)
2.18776162394954e+003	(-4.49791798170886e+001dB,-1.97075908066580e+000°)
2.23872113856832e+003	(-4.50396211572179e+001dB,-1.99001048628705e+000°)
2.29086765276776e+003	(-4.51032571248637e+001dB,-2.00744379110381e+000°)
2.34422881531991e+003	(-4.51702759850990e+001dB,-2.02280288223482e+000°)
2.39883291901947e+003	(-4.52408792348047e+001dB,-2.03580250875987e+000°)
2.45470891568501e+003	(-4.53152827728761e+001dB,-2.04612464449363e+000°)
2.51188643150956e+003	(-4.53937181998545e+001dB,-2.05341431734753e+000°)
2.57039578276885e+003	(-4.54764342674891e+001dB,-2.05727481632469e+000°)
2.63026799189536e+003	(-4.55636984973722e+001dB,-2.05726216368863e+000°)
2.69153480392690e+003	(-4.56557989925918e+001dB,-2.05287871855603e+000°)
2.75422870333815e+003	(-4.57530464718973e+001dB,-2.04356575293672e+000°)
2.81838293126443e+003	(-4.58557765588734e+001dB,-2.02869480292466e+000°)
2.88403150312659e+003	(-4.59643523652276e+001dB,-2.00755755552472e+000°)
2.95120922666636e+003	(-4.60791674136870e+001dB,-1.97935397545394e+000°)
3.01995172040199e+003	(-4.62006489549239e+001dB,-1.94317830888705e+000°)
3.09029543251357e+003	(-4.63292617438133e+001dB,-1.89800251196282e+000°)
3.16227766016836e+003	(-4.64655123500094e+001dB,-1.84265653866672e+000°)
3.23593656929626e+003	(-4.66099540953010e+001dB,-1.77580477826494e+000°)
3.31131121482589e+003	(-4.67631927264286e+001dB,-1.69591774592944e+000°)
3.38844156139200e+003	(-4.69258929547685e+001dB,-1.60123787998064e+000°)
3.46736850452529e+003	(-4.70987860189922e+001dB,-1.48973798290377e+000°)
3.54813389233573e+003	(-4.72826784612893e+001dB,-1.35907041221798e+000°)
3.63078054770099e+003	(-4.74784623427105e+001dB,-1.20650455054617e+000°)
3.71535229097170e+003	(-4.76871271742012e+001dB,-1.02884932713485e+000°)
3.80189396320558e+003	(-4.79097738877722e+001dB,-8.22356494949616e-001°)
3.89045144994278e+003	(-4.81476312425834e+001dB,-5.82598941970213e-001°)
3.98107170553494e+003	(-4.84020751249426e+001dB,-3.04316304331335e-001°)
4.07380277804110e+003	(-4.86746512791376e+001dB,1.87826518710666e-002°)
4.16869383470332e+003	(-4.89671020685382e+001dB,3.94275392416822e-001°)
4.26579518801589e+003	(-4.92813979064657e+001dB,8.31358927673317e-001°)
4.36515832240162e+003	(-4.96197739465077e+001dB,1.34128954901062e+000°)
4.46683592150960e+003	(-4.99847724145761e+001dB,1.93796955652668e+000°)
4.57088189614871e+003	(-5.03792903905403e+001dB,2.63873945961301e+000°)
4.67735141287194e+003	(-5.08066315511155e+001dB,3.46546089989102e+000°)
4.78630092322634e+003	(-5.12705576481039e+001dB,4.44601574913841e+000°)
4.89778819368442e+003	(-5.17753298575033e+001dB,5.61640736878115e+000°)
5.01187233627268e+003	(-5.23257186984779e+001dB,7.02374023215009e+000°)
5.12861383991361e+003	(-5.29269380581279e+001dB,8.73048473728191e+000°)
5.24807460249768e+003	(-5.35844119413326e+001dB,1.08206089244053e+001°)
