Freq.	V(vo)
1.00000000000000e+001	(-4.50016649973470e+001dB,-2.43561901820373e-002°)
1.02329299228075e+001	(-4.50016664055345e+001dB,-2.49235190057760e-002°)
1.04712854805090e+001	(-4.50016678800764e+001dB,-2.55040626348990e-002°)
1.07151930523761e+001	(-4.50016694241196e+001dB,-2.60981288833528e-002°)
1.09647819614319e+001	(-4.50016710410161e+001dB,-2.67060327357680e-002°)
1.12201845430196e+001	(-4.50016727340196e+001dB,-2.73280965110019e-002°)
1.14815362149688e+001	(-4.50016745068183e+001dB,-2.79646500388262e-002°)
1.17489755493953e+001	(-4.50016763631717e+001dB,-2.86160308307762e-002°)
1.20226443461741e+001	(-4.50016783070053e+001dB,-2.92825842600444e-002°)
1.23026877081238e+001	(-4.50016803424382e+001dB,-2.99646637448088e-002°)
1.25892541179417e+001	(-4.50016824739839e+001dB,-3.06626309381340e-002°)
1.28824955169313e+001	(-4.50016847058085e+001dB,-3.13768559101891e-002°)
1.31825673855641e+001	(-4.50016870428882e+001dB,-3.21077173590461e-002°)
1.34896288259165e+001	(-4.50016894900536e+001dB,-3.28556027991133e-002°)
1.38038426460288e+001	(-4.50016920525066e+001dB,-3.36209087732345e-002°)
1.41253754462275e+001	(-4.50016947357543e+001dB,-3.44040410619583e-002°)
1.44543977074593e+001	(-4.50016975456305e+001dB,-3.52054148990408e-002°)
1.47910838816821e+001	(-4.50017004877530e+001dB,-3.60254551833981e-002°)
1.51356124843621e+001	(-4.50017035685963e+001dB,-3.68645967198649e-002°)
1.54881661891248e+001	(-4.50017067945785e+001dB,-3.77232844361760e-002°)
1.58489319246111e+001	(-4.50017101726548e+001dB,-3.86019736276704e-002°)
1.62181009735893e+001	(-4.50017137099486e+001dB,-3.95011301927568e-002°)
1.65958690743756e+001	(-4.50017174138741e+001dB,-4.04212308815049e-002°)
1.69824365246174e+001	(-4.50017212924256e+001dB,-4.13627635531684e-002°)
1.73780082874937e+001	(-4.50017253537793e+001dB,-4.23262274278411e-002°)
1.77827941003892e+001	(-4.50017296064316e+001dB,-4.33121333531767e-002°)
1.81970085860998e+001	(-4.50017340595295e+001dB,-4.43210040807666e-002°)
1.86208713666287e+001	(-4.50017387226534e+001dB,-4.53533745395041e-002°)
1.90546071796325e+001	(-4.50017436054589e+001dB,-4.64097921118840e-002°)
1.94984459975804e+001	(-4.50017487184009e+001dB,-4.74908169374597e-002°)
1.99526231496888e+001	(-4.50017540722710e+001dB,-4.85970222007611e-002°)
2.04173794466953e+001	(-4.50017596784839e+001dB,-4.97289944403723e-002°)
2.08929613085404e+001	(-4.50017655488938e+001dB,-5.08873338559055e-002°)
2.13796208950223e+001	(-4.50017716959718e+001dB,-5.20726546292812e-002°)
2.18776162394955e+001	(-4.50017781328385e+001dB,-5.32855852508315e-002°)
2.23872113856834e+001	(-4.50017848729697e+001dB,-5.45267688453304e-002°)
2.29086765276777e+001	(-4.50017919306855e+001dB,-5.57968635231815e-002°)
2.34422881531992e+001	(-4.50017993212735e+001dB,-5.70965427321544e-002°)
2.39883291901949e+001	(-4.50018070599933e+001dB,-5.84264955903363e-002°)
2.45470891568503e+001	(-4.50018151633454e+001dB,-5.97874272803720e-002°)
2.51188643150958e+001	(-4.50018236488432e+001dB,-6.11800594181979e-002°)
2.57039578276886e+001	(-4.50018325341741e+001dB,-6.26051304135193e-002°)
2.63026799189538e+001	(-4.50018418381962e+001dB,-6.40633958853087e-002°)
2.69153480392691e+001	(-4.50018515807534e+001dB,-6.55556290573983e-002°)
2.75422870333816e+001	(-4.50018617824811e+001dB,-6.70826211620679e-002°)
2.81838293126445e+001	(-4.50018724649961e+001dB,-6.86451818637472e-002°)
2.88403150312660e+001	(-4.50018836509839e+001dB,-7.02441396894695e-002°)
2.95120922666638e+001	(-4.50018953641497e+001dB,-7.18803424658519e-002°)
3.01995172040201e+001	(-4.50019076293312e+001dB,-7.35546577702572e-002°)
3.09029543251359e+001	(-4.50019204726584e+001dB,-7.52679733946333e-002°)
3.16227766016838e+001	(-4.50019339212700e+001dB,-7.70211978058643e-002°)
3.23593656929628e+001	(-4.50019480035553e+001dB,-7.88152606330167e-002°)
3.31131121482591e+001	(-4.50019627496966e+001dB,-8.06511131765516e-002°)
3.38844156139202e+001	(-4.50019781908661e+001dB,-8.25297288848484e-002°)
3.46736850452531e+001	(-4.50019943596994e+001dB,-8.44521038832225e-002°)
3.54813389233575e+001	(-4.50020112905536e+001dB,-8.64192575093703e-002°)
3.63078054770101e+001	(-4.50020290193488e+001dB,-8.84322328461480e-002°)
3.71535229097172e+001	(-4.50020475837880e+001dB,-9.04920972802622e-002°)
3.80189396320561e+001	(-4.50020670230836e+001dB,-9.25999430552781e-002°)
3.89045144994280e+001	(-4.50020873786361e+001dB,-9.47568878735057e-002°)
3.98107170553497e+001	(-4.50021086935623e+001dB,-9.69640754679606e-002°)
4.07380277804112e+001	(-4.50021310130167e+001dB,-9.92226762177689e-002°)
4.16869383470335e+001	(-4.50021543845043e+001dB,-1.01533887778052e-001°)
4.26579518801592e+001	(-4.50021788572977e+001dB,-1.03898935687413e-001°)
4.36515832240165e+001	(-4.50022044837662e+001dB,-1.06319074069771e-001°)
4.46683592150962e+001	(-4.50022313178497e+001dB,-1.08795586229872e-001°)
4.57088189614874e+001	(-4.50022594168323e+001dB,-1.11329785406573e-001°)
4.67735141287197e+001	(-4.50022888401025e+001dB,-1.13923015409558e-001°)
4.78630092322638e+001	(-4.50023196500384e+001dB,-1.16576651366027e-001°)
4.89778819368445e+001	(-4.50023519121054e+001dB,-1.19292100450048e-001°)
5.01187233627271e+001	(-4.50023856949470e+001dB,-1.22070802627919e-001°)
5.12861383991364e+001	(-4.50024210698512e+001dB,-1.24914231387594e-001°)
5.24807460249772e+001	(-4.50024581120979e+001dB,-1.27823894581284e-001°)
5.37031796370252e+001	(-4.50024969002083e+001dB,-1.30801335180049e-001°)
5.49540873857624e+001	(-4.50025375164893e+001dB,-1.33848132112159e-001°)
5.62341325190348e+001	(-4.50025800471594e+001dB,-1.36965901099388e-001°)
5.75439937337156e+001	(-4.50026245824676e+001dB,-1.40156295511220e-001°)
5.88843655355588e+001	(-4.50026712167582e+001dB,-1.43421007234997e-001°)
6.02559586074357e+001	(-4.50027200492055e+001dB,-1.46761767606387e-001°)
6.16595001861481e+001	(-4.50027711830895e+001dB,-1.50180348272745e-001°)
6.30957344480192e+001	(-4.50028247273446e+001dB,-1.53678562215303e-001°)
6.45654229034654e+001	(-4.50028807952697e+001dB,-1.57258264618336e-001°)
6.60693448007595e+001	(-4.50029395058065e+001dB,-1.60921353918564e-001°)
6.76082975391980e+001	(-4.50030009837711e+001dB,-1.64669772814512e-001°)
6.91830970918935e+001	(-4.50030653593562e+001dB,-1.68505509247394e-001°)
7.07945784384136e+001	(-4.50031327693916e+001dB,-1.72430597524257e-001°)
7.24435960074988e+001	(-4.50032033567184e+001dB,-1.76447119335426e-001°)
7.41310241300916e+001	(-4.50032772713268e+001dB,-1.80557204920673e-001°)
7.58577575029182e+001	(-4.50033546700968e+001dB,-1.84763034160122e-001°)
7.76247116628690e+001	(-4.50034357170203e+001dB,-1.89066837723093e-001°)
7.94328234724279e+001	(-4.50035205841748e+001dB,-1.93470898302033e-001°)
8.12830516164097e+001	(-4.50036094518216e+001dB,-1.97977551807441e-001°)
8.31763771102669e+001	(-4.50037025084197e+001dB,-2.02589188579676e-001°)
8.51138038202374e+001	(-4.50037999514525e+001dB,-2.07308254694530e-001°)
8.70963589956078e+001	(-4.50039019879716e+001dB,-2.12137253276928e-001°)
8.91250938133743e+001	(-4.50040088342354e+001dB,-2.17078745762538e-001°)
9.12010839355907e+001	(-4.50041207172333e+001dB,-2.22135353354512e-001°)
9.33254300796988e+001	(-4.50042378744769e+001dB,-2.27309758357720e-001°)
9.54992586021433e+001	(-4.50043605544769e+001dB,-2.32604705603060e-001°)
9.77237220955808e+001	(-4.50044890175554e+001dB,-2.38023003934285e-001°)
9.99999999999997e+001	(-4.50046235367464e+001dB,-2.43567527740496e-001°)
1.02329299228075e+002	(-4.50047643976274e+001dB,-2.49241218414151e-001°)
1.04712854805090e+002	(-4.50049118987862e+001dB,-2.55047085899783e-001°)
1.07151930523760e+002	(-4.50050663538386e+001dB,-2.60988210442599e-001°)
1.09647819614318e+002	(-4.50052280905329e+001dB,-2.67067744068265e-001°)
1.12201845430196e+002	(-4.50053974522401e+001dB,-2.73288912345473e-001°)
1.14815362149688e+002	(-4.50055747986701e+001dB,-2.79655016106510e-001°)
1.17489755493953e+002	(-4.50057605064035e+001dB,-2.86169433182012e-001°)
1.20226443461741e+002	(-4.50059549697290e+001dB,-2.92835620206609e-001°)
1.23026877081238e+002	(-4.50061586016759e+001dB,-2.99657114487441e-001°)
1.25892541179416e+002	(-4.50063718346503e+001dB,-3.06637535863328e-001°)
1.28824955169313e+002	(-4.50065951217775e+001dB,-3.13780588691830e-001°)
1.31825673855640e+002	(-4.50068289369252e+001dB,-3.21090063707064e-001°)
1.34896288259165e+002	(-4.50070737770936e+001dB,-3.28569840225706e-001°)
1.38038426460288e+002	(-4.50073301622623e+001dB,-3.36223888061443e-001°)
1.41253754462275e+002	(-4.50075986371960e+001dB,-3.44056269743073e-001°)
1.44543977074592e+002	(-4.50078797722489e+001dB,-3.52071142638363e-001°)
1.47910838816820e+002	(-4.50081741648309e+001dB,-3.60272761215730e-001°)
1.51356124843620e+002	(-4.50084824404601e+001dB,-3.68665479290615e-001°)
1.54881661891248e+002	(-4.50088052543292e+001dB,-3.77253752393329e-001°)
1.58489319246111e+002	(-4.50091432925568e+001dB,-3.86042140136091e-001°)
1.62181009735892e+002	(-4.50094972735944e+001dB,-3.95035308649462e-001°)
1.65958690743755e+002	(-4.50098679498494e+001dB,-4.04238033099338e-001°)
1.69824365246174e+002	(-4.50102561095716e+001dB,-4.13655200299155e-001°)
1.73780082874937e+002	(-4.50106625779046e+001dB,-4.23291811230755e-001°)
1.77827941003892e+002	(-4.50110882193338e+001dB,-4.33152983847733e-001°)
1.81970085860998e+002	(-4.50115339389819e+001dB,-4.43243955735391e-001°)
1.86208713666286e+002	(-4.50120006849999e+001dB,-4.53570087009149e-001°)
1.90546071796324e+002	(-4.50124894499741e+001dB,-4.64136863089080e-001°)
1.94984459975804e+002	(-4.50130012740515e+001dB,-4.74949897843993e-001°)
1.99526231496887e+002	(-4.50135372461673e+001dB,-4.86014936433163e-001°)
2.04173794466952e+002	(-4.50140985070125e+001dB,-4.97337858528936e-001°)
2.08929613085403e+002	(-4.50146862512485e+001dB,-5.08924681450911e-001°)
2.13796208950222e+002	(-4.50153017301011e+001dB,-5.20781563427695e-001°)
2.18776162394954e+002	(-4.50159462538810e+001dB,-5.32914806893271e-001°)
2.23872113856833e+002	(-4.50166211953444e+001dB,-5.45330862023933e-001°)
2.29086765276776e+002	(-4.50173279919681e+001dB,-5.58036330088432e-001°)
2.34422881531991e+002	(-4.50180681495493e+001dB,-5.71037967147225e-001°)
2.39883291901948e+002	(-4.50188432452594e+001dB,-5.84342687684928e-001°)
2.45470891568502e+002	(-4.50196549309533e+001dB,-5.97957568351333e-001°)
2.51188643150957e+002	(-4.50205049370419e+001dB,-6.11889851895016e-001°)
2.57039578276885e+002	(-4.50213950760213e+001dB,-6.26146951068520e-001°)
2.63026799189537e+002	(-4.50223272462430e+001dB,-6.40736452639809e-001°)
2.69153480392690e+002	(-4.50233034366496e+001dB,-6.55666121711995e-001°)
2.75422870333816e+002	(-4.50243257299428e+001dB,-6.70943905673824e-001°)
2.81838293126444e+002	(-4.50253963084119e+001dB,-6.86577938918776e-001°)
2.88403150312659e+002	(-4.50265174580041e+001dB,-7.02576547141086e-001°)
2.95120922666637e+002	(-4.50276915732611e+001dB,-7.18948251910869e-001°)
3.01995172040200e+002	(-4.50289211625538e+001dB,-7.35701775382563e-001°)
3.09029543251358e+002	(-4.50302088540993e+001dB,-7.52846045284922e-001°)
3.16227766016837e+002	(-4.50315574008118e+001dB,-7.70390199602519e-001°)
3.23593656929627e+002	(-4.50329696870007e+001dB,-7.88343591854799e-001°)
3.31131121482590e+002	(-4.50344487345212e+001dB,-8.06715796256879e-001°)
3.38844156139201e+002	(-4.50359977093397e+001dB,-8.25516613039333e-001°)
3.46736850452530e+002	(-4.50376199284559e+001dB,-8.44756073917611e-001°)
3.54813389233574e+002	(-4.50393188673126e+001dB,-8.64444447753951e-001°)
3.63078054770100e+002	(-4.50410981676165e+001dB,-8.84592246388286e-001°)
3.71535229097171e+002	(-4.50429616448761e+001dB,-9.05210230382483e-001°)
3.80189396320559e+002	(-4.50449132973983e+001dB,-9.26309415302570e-001°)
3.89045144994279e+002	(-4.50469573148752e+001dB,-9.47901077864889e-001°)
3.98107170553495e+002	(-4.50490980877692e+001dB,-9.69996762377415e-001°)
4.07380277804111e+002	(-4.50513402172692e+001dB,-9.92608287402203e-001°)
4.16869383470333e+002	(-4.50536885251017e+001dB,-1.01574775233780e+000°)
4.26579518801591e+002	(-4.50561480647878e+001dB,-1.03942754456154e+000°)
4.36515832240164e+002	(-4.50587241329645e+001dB,-1.06366034657862e+000°)
4.46683592150961e+002	(-4.50614222807707e+001dB,-1.08845914313553e+000°)
4.57088189614873e+002	(-4.50642483271918e+001dB,-1.11383722913432e+000°)
4.67735141287196e+002	(-4.50672083715962e+001dB,-1.13980821712642e+000°)
4.78630092322636e+002	(-4.50703088076689e+001dB,-1.16638604533351e+000°)
4.89778819368444e+002	(-4.50735563386095e+001dB,-1.19358498618134e+000°)
5.01187233627270e+002	(-4.50769579912722e+001dB,-1.22141965419282e+000°)
5.12861383991362e+002	(-4.50805211334603e+001dB,-1.24990501527567e+000°)
5.24807460249770e+002	(-4.50842534901235e+001dB,-1.27905639532045e+000°)
5.37031796370250e+002	(-4.50881631615397e+001dB,-1.30888948960709e+000°)
5.49540873857622e+002	(-4.50922586417884e+001dB,-1.33942037215779e+000°)
5.62341325190346e+002	(-4.50965488390149e+001dB,-1.37066550580874e+000°)
5.75439937337154e+002	(-4.51010430958041e+001dB,-1.40264175207361e+000°)
5.88843655355586e+002	(-4.51057512114409e+001dB,-1.43536638175064e+000°)
6.02559586074355e+002	(-4.51106834645063e+001dB,-1.46885708536699e+000°)
6.16595001861479e+002	(-4.51158506381549e+001dB,-1.50313198481930e+000°)
6.30957344480190e+002	(-4.51212640448713e+001dB,-1.53820964427123e+000°)
6.45654229034652e+002	(-4.51269355541413e+001dB,-1.57410908233308e+000°)
6.60693448007592e+002	(-4.51328776208499e+001dB,-1.61084978417281e+000°)
6.76082975391978e+002	(-4.51391033155747e+001dB,-1.64845171423552e+000°)
6.91830970918933e+002	(-4.51456263561636e+001dB,-1.68693532913187e+000°)
7.07945784384134e+002	(-4.51524611416964e+001dB,-1.72632159136919e+000°)
7.24435960074986e+002	(-4.51596227877847e+001dB,-1.76663198319021e+000°)
7.41310241300914e+002	(-4.51671271644875e+001dB,-1.80788852131876e+000°)
7.58577575029180e+002	(-4.51749909358026e+001dB,-1.85011377182978e+000°)
7.76247116628688e+002	(-4.51832316014779e+001dB,-1.89333086555960e+000°)
7.94328234724277e+002	(-4.51918675419116e+001dB,-1.93756351460105e+000°)
8.12830516164095e+002	(-4.52009180651561e+001dB,-1.98283602902562e+000°)
8.31763771102666e+002	(-4.52104034565088e+001dB,-2.02917333408650e+000°)
8.51138038202372e+002	(-4.52203450317623e+001dB,-2.07660098865230e+000°)
8.70963589956076e+002	(-4.52307651931698e+001dB,-2.12514520398934e+000°)
8.91250938133741e+002	(-4.52416874891824e+001dB,-2.17483286356792e+000°)
9.12010839355905e+002	(-4.52531366764106e+001dB,-2.22569154268386e+000°)
9.33254300796986e+002	(-4.52651387888870e+001dB,-2.27774953140108e+000°)
9.54992586021431e+002	(-4.52777212074815e+001dB,-2.33103585535222e+000°)
9.77237220955805e+002	(-4.52909127364217e+001dB,-2.38558029954035e+000°)
9.99999999999994e+002	(-4.53047436843695e+001dB,-2.44141343301923e+000°)
1.02329299228075e+003	(-4.53192459500622e+001dB,-2.49856663404807e+000°)
1.04712854805089e+003	(-4.53344531138917e+001dB,-2.55707211669244e+000°)
1.07151930523760e+003	(-4.53504005359345e+001dB,-2.61696295912331e+000°)
1.09647819614318e+003	(-4.53671254601138e+001dB,-2.67827313280813e+000°)
1.12201845430196e+003	(-4.53846671255266e+001dB,-2.74103753324116e+000°)
1.14815362149688e+003	(-4.54030668862421e+001dB,-2.80529201314364e+000°)
1.17489755493952e+003	(-4.54223683380833e+001dB,-2.87107341586759e+000°)
1.20226443461741e+003	(-4.54426174560243e+001dB,-2.93841961244115e+000°)
1.23026877081237e+003	(-4.54638627400531e+001dB,-3.00736953906508e+000°)
1.25892541179416e+003	(-4.54861553728210e+001dB,-3.07796323806578e+000°)
1.28824955169313e+003	(-4.55095493879049e+001dB,-3.15024189997653e+000°)
1.31825673855640e+003	(-4.55341018524312e+001dB,-3.22424791027999e+000°)
1.34896288259165e+003	(-4.55598730615146e+001dB,-3.30002489636123e+000°)
1.38038426460288e+003	(-4.55869267500891e+001dB,-3.37761778042061e+000°)
1.41253754462275e+003	(-4.56153303191781e+001dB,-3.45707283285615e+000°)
1.44543977074592e+003	(-4.56451550823349e+001dB,-3.53843773194207e+000°)
1.47910838816820e+003	(-4.56764765313406e+001dB,-3.62176162656294e+000°)
1.51356124843620e+003	(-4.57093746237611e+001dB,-3.70709520310541e+000°)
1.54881661891247e+003	(-4.57439340954179e+001dB,-3.79449075818095e+000°)
1.58489319246110e+003	(-4.57802447996557e+001dB,-3.88400227675216e+000°)
1.62181009735892e+003	(-4.58184020759424e+001dB,-3.97568551576685e+000°)
1.65958690743755e+003	(-4.58585071522356e+001dB,-4.06959809584064e+000°)
1.69824365246173e+003	(-4.59006675836218e+001dB,-4.16579960006457e+000°)
1.73780082874936e+003	(-4.59449977314302e+001dB,-4.26435168081350e+000°)
1.77827941003891e+003	(-4.59916192884987e+001dB,-4.36531817732926e+000°)
1.81970085860997e+003	(-4.60406618552713e+001dB,-4.46876524417251e+000°)
1.86208713666286e+003	(-4.60922635716914e+001dB,-4.57476148984259e+000°)
1.90546071796323e+003	(-4.61465718153024e+001dB,-4.68337813342290e+000°)
1.94984459975803e+003	(-4.62037439685847e+001dB,-4.79468917196120e+000°)
1.99526231496887e+003	(-4.62639482706572e+001dB,-4.90877157167053e+000°)
2.04173794466952e+003	(-4.63273647567667e+001dB,-5.02570547314750e+000°)
2.08929613085403e+003	(-4.63941863066011e+001dB,-5.14557442684532e+000°)
2.13796208950222e+003	(-4.64646198076267e+001dB,-5.26846565165879e+000°)
2.18776162394954e+003	(-4.65388874543355e+001dB,-5.39447032516605e+000°)
2.23872113856832e+003	(-4.66172282035850e+001dB,-5.52368391396119e+000°)
2.29086765276776e+003	(-4.66998994053807e+001dB,-5.65620654233769e+000°)
2.34422881531991e+003	(-4.67871786400203e+001dB,-5.79214341515579e+000°)
2.39883291901947e+003	(-4.68793657894869e+001dB,-5.93160529578781e+000°)
2.45470891568501e+003	(-4.69767853853231e+001dB,-6.07470905768037e+000°)
2.51188643150956e+003	(-4.70797892740019e+001dB,-6.22157831627430e+000°)
2.57039578276885e+003	(-4.71887596562016e+001dB,-6.37234416039907e+000°)
2.63026799189536e+003	(-4.73041125643535e+001dB,-6.52714600219724e+000°)
2.69153480392690e+003	(-4.74263018580208e+001dB,-6.68613257206856e+000°)
2.75422870333815e+003	(-4.75558238324395e+001dB,-6.84946308808631e+000°)
2.81838293126443e+003	(-4.76932225562015e+001dB,-7.01730863460627e+000°)
2.88403150312659e+003	(-4.78390960863596e+001dB,-7.18985380945747e+000°)
2.95120922666636e+003	(-4.79941037361696e+001dB,-7.36729869131278e+000°)
3.01995172040199e+003	(-4.81589746215519e+001dB,-7.54986121599571e+000°)
3.09029543251357e+003	(-4.83345177668918e+001dB,-7.73778006199876e+000°)
3.16227766016836e+003	(-4.85216341268914e+001dB,-7.93131818813344e+000°)
3.23593656929626e+003	(-4.87213309784282e+001dB,-8.13076719733875e+000°)
3.31131121482589e+003	(-4.89347392702489e+001dB,-8.33645277579460e+000°)
3.38844156139200e+003	(-4.91631346978453e+001dB,-8.54874153922274e+000°)
3.46736850452529e+003	(-4.94079635029744e+001dB,-8.76804972443730e+000°)
3.54813389233573e+003	(-4.96708743421266e+001dB,-8.99485436494806e+000°)
3.63078054770099e+003	(-4.99537580230599e+001dB,-9.22970781489998e+000°)
3.71535229097170e+003	(-5.02587975730447e+001dB,-9.47325688684906e+000°)
3.80189396320558e+003	(-5.05885320450040e+001dB,-9.72626840705668e+000°)
3.89045144994278e+003	(-5.09459388686882e+001dB,-9.98966390014063e+000°)
3.98107170553494e+003	(-5.13345416224015e+001dB,-1.02645674512316e+001°)
4.07380277804110e+003	(-5.17585532905122e+001dB,-1.05523730401963e+001°)
4.16869383470332e+003	(-5.22230700439157e+001dB,-1.08548413091397e+001°)
4.26579518801589e+003	(-5.27343385871897e+001dB,-1.11742419981498e+001°)
4.36515832240162e+003	(-5.33001333993834e+001dB,-1.15135694532226e+001°)
4.46683592150960e+003	(-5.39303030106521e+001dB,-1.18768791201338e+001°)
4.57088189614871e+003	(-5.46375852667306e+001dB,-1.22698325730829e+001°)
4.67735141287194e+003	(-5.54388680796140e+001dB,-1.27006194397477e+001°)
4.78630092322634e+003	(-5.63572239131558e+001dB,-1.31816000452040e+001°)
4.89778819368442e+003	(-5.74253681436233e+001dB,-1.37324248205982e+001°)
5.01187233627268e+003	(-5.86919329360633e+001dB,-1.43864518736424e+001°)
5.12861383991361e+003	(-6.02338452814269e+001dB,-1.52053984013841e+001°)
5.24807460249768e+003	(-6.21836671880282e+001dB,-1.63178823898692e+001°)
