Freq.	V(vo)
Step Information: Run=1  (Run: 1/20)
1.00000000000000e+001	(-4.41765883809433e+001dB,-1.53964600066427e-002°)
1.02329299228075e+001	(-4.41765896498598e+001dB,-1.57550885522608e-002°)
1.04712854805090e+001	(-4.41765909786037e+001dB,-1.61220705529305e-002°)
1.07151930523761e+001	(-4.41765923700153e+001dB,-1.64976005803247e-002°)
1.09647819614319e+001	(-4.41765938267963e+001dB,-1.68818777351882e-002°)
1.12201845430196e+001	(-4.41765953523437e+001dB,-1.72751057609858e-002°)
1.14815362149688e+001	(-4.41765969498492e+001dB,-1.76774931430908e-002°)
1.17489755493953e+001	(-4.41765986226796e+001dB,-1.80892532228428e-002°)
1.20226443461741e+001	(-4.41766003742327e+001dB,-1.85106043090051e-002°)
1.23026877081238e+001	(-4.41766022084686e+001dB,-1.89417697991390e-002°)
1.25892541179417e+001	(-4.41766041290105e+001dB,-1.93829782881476e-002°)
1.28824955169313e+001	(-4.41766061400553e+001dB,-1.98344636992937e-002°)
1.31825673855641e+001	(-4.41766082460021e+001dB,-2.02964654041850e-002°)
1.34896288259165e+001	(-4.41766104510050e+001dB,-2.07692283439858e-002°)
1.38038426460288e+001	(-4.41766127601122e+001dB,-2.12530031728081e-002°)
1.41253754462275e+001	(-4.41766151779886e+001dB,-2.17480463749771e-002°)
1.44543977074593e+001	(-4.41766177099044e+001dB,-2.22546204128991e-002°)
1.47910838816821e+001	(-4.41766203609870e+001dB,-2.27729938565289e-002°)
1.51356124843621e+001	(-4.41766231370598e+001dB,-2.33034415364401e-002°)
1.54881661891248e+001	(-4.41766260438939e+001dB,-2.38462446794121e-002°)
1.58489319246111e+001	(-4.41766290878971e+001dB,-2.44016910667825e-002°)
1.62181009735893e+001	(-4.41766322752907e+001dB,-2.49700751750180e-002°)
1.65958690743756e+001	(-4.41766356130256e+001dB,-2.55516983446954e-002°)
1.69824365246174e+001	(-4.41766391078854e+001dB,-2.61468689267196e-002°)
1.73780082874937e+001	(-4.41766427674021e+001dB,-2.67559024590739e-002°)
1.77827941003892e+001	(-4.41766465994893e+001dB,-2.73791218285479e-002°)
1.81970085860998e+001	(-4.41766506121508e+001dB,-2.80168574367088e-002°)
1.86208713666287e+001	(-4.41766548140209e+001dB,-2.86694473833230e-002°)
1.90546071796325e+001	(-4.41766592137714e+001dB,-2.93372376352267e-002°)
1.94984459975804e+001	(-4.41766638209558e+001dB,-3.00205822235944e-002°)
1.99526231496888e+001	(-4.41766686453420e+001dB,-3.07198434197962e-002°)
2.04173794466953e+001	(-4.41766736970015e+001dB,-3.14353919281611e-002°)
2.08929613085404e+001	(-4.41766789867774e+001dB,-3.21676070903403e-002°)
2.13796208950223e+001	(-4.41766845258455e+001dB,-3.29168770779454e-002°)
2.18776162394955e+001	(-4.41766903259572e+001dB,-3.36835991019501e-002°)
2.23872113856834e+001	(-4.41766963993799e+001dB,-3.44681796214626e-002°)
2.29086765276777e+001	(-4.41767027591414e+001dB,-3.52710345633365e-002°)
2.34422881531992e+001	(-4.41767094185943e+001dB,-3.60925895329192e-002°)
2.39883291901949e+001	(-4.41767163918124e+001dB,-3.69332800467651e-002°)
2.45470891568503e+001	(-4.41767236939133e+001dB,-3.77935517698158e-002°)
2.51188643150958e+001	(-4.41767313398697e+001dB,-3.86738607243634e-002°)
2.57039578276886e+001	(-4.41767393464201e+001dB,-3.95746735732031e-002°)
2.63026799189538e+001	(-4.41767477301273e+001dB,-4.04964678219891e-002°)
2.69153480392691e+001	(-4.41767565089882e+001dB,-4.14397321078493e-002°)
2.75422870333816e+001	(-4.41767657016284e+001dB,-4.24049664386526e-002°)
2.81838293126445e+001	(-4.41767753274788e+001dB,-4.33926824603317e-002°)
2.88403150312660e+001	(-4.41767854069541e+001dB,-4.44034037310389e-002°)
2.95120922666638e+001	(-4.41767959615569e+001dB,-4.54376659997702e-002°)
3.01995172040201e+001	(-4.41768070136059e+001dB,-4.64960174814943e-002°)
3.09029543251359e+001	(-4.41768185864929e+001dB,-4.75790191522483e-002°)
3.16227766016838e+001	(-4.41768307048678e+001dB,-4.86872450496858e-002°)
3.23593656929628e+001	(-4.41768433943700e+001dB,-4.98212825677111e-002°)
3.31131121482591e+001	(-4.41768566818160e+001dB,-5.09817327702699e-002°)
3.38844156139202e+001	(-4.41768705955385e+001dB,-5.21692107177074e-002°)
3.46736850452531e+001	(-4.41768851649737e+001dB,-5.33843457776667e-002°)
3.54813389233575e+001	(-4.41769004211549e+001dB,-5.46277819707527e-002°)
3.63078054770101e+001	(-4.41769163963785e+001dB,-5.59001782982954e-002°)
3.71535229097172e+001	(-4.41769331244760e+001dB,-5.72022090965823e-002°)
3.80189396320561e+001	(-4.41769506409368e+001dB,-5.85345643946481e-002°)
3.89045144994280e+001	(-4.41769689831090e+001dB,-5.98979502834425e-002°)
3.98107170553497e+001	(-4.41769881894962e+001dB,-6.12930892607471e-002°)
4.07380277804112e+001	(-4.41770083012471e+001dB,-6.27207206623624e-002°)
4.16869383470335e+001	(-4.41770293609282e+001dB,-6.41816010056975e-002°)
4.26579518801592e+001	(-4.41770514131129e+001dB,-6.56765044060227e-002°)
4.36515832240165e+001	(-4.41770745046701e+001dB,-6.72062229923960e-002°)
4.46683592150962e+001	(-4.41770986844526e+001dB,-6.87715673096239e-002°)
4.57088189614874e+001	(-4.41771240038938e+001dB,-7.03733667646439e-002°)
4.67735141287197e+001	(-4.41771505167026e+001dB,-7.20124700476232e-002°)
4.78630092322638e+001	(-4.41771782790137e+001dB,-7.36897455797019e-002°)
4.89778819368445e+001	(-4.41772073499955e+001dB,-7.54060819916322e-002°)
5.01187233627271e+001	(-4.41772377908749e+001dB,-7.71623885434895e-002°)
5.12861383991364e+001	(-4.41772696666102e+001dB,-7.89595956714152e-002°)
5.24807460249772e+001	(-4.41773030446972e+001dB,-8.07986554177559e-002°)
5.37031796370252e+001	(-4.41773379960198e+001dB,-8.26805419639062e-002°)
5.49540873857624e+001	(-4.41773745945714e+001dB,-8.46062521218894e-002°)
5.62341325190348e+001	(-4.41774129181630e+001dB,-8.65768058850533e-002°)
5.75439937337156e+001	(-4.41774530480036e+001dB,-8.85932469353013e-002°)
5.88843655355588e+001	(-4.41774950693429e+001dB,-9.06566432145579e-002°)
6.02559586074357e+001	(-4.41775390712130e+001dB,-9.27680874623883e-002°)
6.16595001861481e+001	(-4.41775851470822e+001dB,-9.49286978140495e-002°)
6.30957344480192e+001	(-4.41776333945330e+001dB,-9.71396183581447e-002°)
6.45654229034654e+001	(-4.41776839161547e+001dB,-9.94020197745178e-002°)
6.60693448007595e+001	(-4.41777368190820e+001dB,-1.01717099909159e-001°)
6.76082975391980e+001	(-4.41777922153734e+001dB,-1.04086084408773e-001°)
6.91830970918935e+001	(-4.41778502228474e+001dB,-1.06510227398288e-001°)
7.07945784384136e+001	(-4.41779109644177e+001dB,-1.08990812081030e-001°)
7.24435960074988e+001	(-4.41779745690206e+001dB,-1.11529151449754e-001°)
7.41310241300916e+001	(-4.41780411717210e+001dB,-1.14126588962240e-001°)
7.58577575029182e+001	(-4.41781109136000e+001dB,-1.16784499215076e-001°)
7.76247116628690e+001	(-4.41781839430105e+001dB,-1.19504288724867e-001°)
7.94328234724279e+001	(-4.41782604146526e+001dB,-1.22287396575919e-001°)
8.12830516164097e+001	(-4.41783404907741e+001dB,-1.25135295228463e-001°)
8.31763771102669e+001	(-4.41784243415484e+001dB,-1.28049491288769e-001°)
8.51138038202374e+001	(-4.41785121447859e+001dB,-1.31031526243360e-001°)
8.70963589956078e+001	(-4.41786040868639e+001dB,-1.34082977299938e-001°)
8.91250938133743e+001	(-4.41787003629138e+001dB,-1.37205458188815e-001°)
9.12010839355907e+001	(-4.41788011771703e+001dB,-1.40400619993159e-001°)
9.33254300796988e+001	(-4.41789067437138e+001dB,-1.43670152028148e-001°)
9.54992586021433e+001	(-4.41790172866955e+001dB,-1.47015782695464e-001°)
9.77237220955808e+001	(-4.41791330405780e+001dB,-1.50439280354033e-001°)
9.99999999999997e+001	(-4.41792542511454e+001dB,-1.53942454275193e-001°)
1.02329299228075e+002	(-4.41793811757000e+001dB,-1.57527155545550e-001°)
1.04712854805090e+002	(-4.41795140836506e+001dB,-1.61195278021608e-001°)
1.07151930523760e+002	(-4.41796532572717e+001dB,-1.64948759318921e-001°)
1.09647819614318e+002	(-4.41797989917990e+001dB,-1.68789581755959e-001°)
1.12201845430196e+002	(-4.41799515968293e+001dB,-1.72719773442561e-001°)
1.14815362149688e+002	(-4.41801113962289e+001dB,-1.76741409241754e-001°)
1.17489755493953e+002	(-4.41802787293474e+001dB,-1.80856611878807e-001°)
1.20226443461741e+002	(-4.41804539514221e+001dB,-1.85067552988571e-001°)
1.23026877081238e+002	(-4.41806374347610e+001dB,-1.89376454263448e-001°)
1.25892541179416e+002	(-4.41808295688166e+001dB,-1.93785588500230e-001°)
1.28824955169313e+002	(-4.41810307616447e+001dB,-1.98297280816685e-001°)
1.31825673855640e+002	(-4.41812414404077e+001dB,-2.02913909782685e-001°)
1.34896288259165e+002	(-4.41814620527359e+001dB,-2.07637908669151e-001°)
1.38038426460288e+002	(-4.41816930672129e+001dB,-2.12471766613740e-001°)
1.41253754462275e+002	(-4.41819349744939e+001dB,-2.17418029879061e-001°)
1.44543977074592e+002	(-4.41821882886086e+001dB,-2.22479303155032e-001°)
1.47910838816820e+002	(-4.41824535474654e+001dB,-2.27658250777609e-001°)
1.51356124843620e+002	(-4.41827313148277e+001dB,-2.32957598157034e-001°)
1.54881661891248e+002	(-4.41830221808143e+001dB,-2.38380133032236e-001°)
1.58489319246111e+002	(-4.41833267634222e+001dB,-2.43928706876672e-001°)
1.62181009735892e+002	(-4.41836457102405e+001dB,-2.49606236354535e-001°)
1.65958690743755e+002	(-4.41839796988463e+001dB,-2.55415704603493e-001°)
1.69824365246174e+002	(-4.41843294393623e+001dB,-2.61360162846579e-001°)
1.73780082874937e+002	(-4.41846956750205e+001dB,-2.67442731728298e-001°)
1.77827941003892e+002	(-4.41850791845121e+001dB,-2.73666602934676e-001°)
1.81970085860998e+002	(-4.41854807834095e+001dB,-2.80035040690171e-001°)
1.86208713666286e+002	(-4.41859013254123e+001dB,-2.86551383231871e-001°)
1.90546071796324e+002	(-4.41863417050896e+001dB,-2.93219044546399e-001°)
1.94984459975804e+002	(-4.41868028589412e+001dB,-3.00041515838455e-001°)
1.99526231496887e+002	(-4.41872857681110e+001dB,-3.07022367290645e-001°)
2.04173794466952e+002	(-4.41877914599552e+001dB,-3.14165249636338e-001°)
2.08929613085403e+002	(-4.41883210104376e+001dB,-3.21473895882381e-001°)
2.13796208950222e+002	(-4.41888755464449e+001dB,-3.28952123027874e-001°)
2.18776162394954e+002	(-4.41894562483309e+001dB,-3.36603833831263e-001°)
2.23872113856833e+002	(-4.41900643523140e+001dB,-3.44433018552241e-001°)
2.29086765276776e+002	(-4.41907011531107e+001dB,-3.52443756739134e-001°)
2.34422881531991e+002	(-4.41913680068844e+001dB,-3.60640219078118e-001°)
2.39883291901948e+002	(-4.41920663339107e+001dB,-3.69026669180451e-001°)
2.45470891568502e+002	(-4.41927976218686e+001dB,-3.77607465491942e-001°)
2.51188643150957e+002	(-4.41935634290108e+001dB,-3.86387063169754e-001°)
2.57039578276885e+002	(-4.41943653875915e+001dB,-3.95370016001428e-001°)
2.63026799189537e+002	(-4.41952052068054e+001dB,-4.04560978190244e-001°)
2.69153480392690e+002	(-4.41960846775867e+001dB,-4.13964706551485e-001°)
2.75422870333816e+002	(-4.41970056755674e+001dB,-4.23586062255701e-001°)
2.81838293126444e+002	(-4.41979701655322e+001dB,-4.33430012890412e-001°)
2.88403150312659e+002	(-4.41989802055592e+001dB,-4.43501634412429e-001°)
2.95120922666637e+002	(-4.42000379516118e+001dB,-4.53806113172687e-001°)
3.01995172040200e+002	(-4.42011456618332e+001dB,-4.64348747809746e-001°)
3.09029543251358e+002	(-4.42023057022158e+001dB,-4.75134951456960e-001°)
3.16227766016837e+002	(-4.42035205513098e+001dB,-4.86170253633459e-001°)
3.23593656929627e+002	(-4.42047928051894e+001dB,-4.97460302118829e-001°)
3.31131121482590e+002	(-4.42061251837483e+001dB,-5.09010865123916e-001°)
3.38844156139201e+002	(-4.42075205369724e+001dB,-5.20827833386097e-001°)
3.46736850452530e+002	(-4.42089818499118e+001dB,-5.32917221760678e-001°)
3.54813389233574e+002	(-4.42105122507587e+001dB,-5.45285171642798e-001°)
3.63078054770100e+002	(-4.42121150164387e+001dB,-5.57937952503870e-001°)
3.71535229097171e+002	(-4.42137935807262e+001dB,-5.70881964078753e-001°)
3.80189396320559e+002	(-4.42155515410388e+001dB,-5.84123737978481e-001°)
3.89045144994279e+002	(-4.42173926674835e+001dB,-5.97669939883846e-001°)
3.98107170553495e+002	(-4.42193209098536e+001dB,-6.11527370858969e-001°)
4.07380277804111e+002	(-4.42213404074426e+001dB,-6.25702969426662e-001°)
4.16869383470333e+002	(-4.42234554977548e+001dB,-6.40203813043760e-001°)
4.26579518801591e+002	(-4.42256707265549e+001dB,-6.55037119814178e-001°)
4.36515832240164e+002	(-4.42279908573084e+001dB,-6.70210249697446e-001°)
4.46683592150961e+002	(-4.42304208827650e+001dB,-6.85730706241463e-001°)
4.57088189614873e+002	(-4.42329660351426e+001dB,-7.01606137445071e-001°)
4.67735141287196e+002	(-4.42356317990381e+001dB,-7.17844337352520e-001°)
4.78630092322636e+002	(-4.42384239229887e+001dB,-7.34453246724416e-001°)
4.89778819368444e+002	(-4.42413484324511e+001dB,-7.51440953849075e-001°)
5.01187233627270e+002	(-4.42444116441505e+001dB,-7.68815695493092e-001°)
5.12861383991362e+002	(-4.42476201798607e+001dB,-7.86585857103708e-001°)
5.24807460249770e+002	(-4.42509809816228e+001dB,-8.04759973086113e-001°)
5.37031796370250e+002	(-4.42545013279139e+001dB,-8.23346726921309e-001°)
5.49540873857622e+002	(-4.42581888499661e+001dB,-8.42354950696766e-001°)
5.62341325190346e+002	(-4.42620515500337e+001dB,-8.61793624857098e-001°)
5.75439937337154e+002	(-4.42660978192169e+001dB,-8.81671876956169e-001°)
5.88843655355586e+002	(-4.42703364572557e+001dB,-9.01998980528905e-001°)
6.02559586074355e+002	(-4.42747766935869e+001dB,-9.22784353708831e-001°)
6.16595001861479e+002	(-4.42794282080464e+001dB,-9.44037556628826e-001°)
6.30957344480190e+002	(-4.42843011545578e+001dB,-9.65768289321354e-001°)
6.45654229034652e+002	(-4.42894061847496e+001dB,-9.87986388387678e-001°)
6.60693448007592e+002	(-4.42947544733296e+001dB,-1.01070182332650e+000°)
6.76082975391978e+002	(-4.43003577453714e+001dB,-1.03392469255435e+000°)
6.91830970918933e+002	(-4.43062283032309e+001dB,-1.05766521761291e+000°)
7.07945784384134e+002	(-4.43123790583064e+001dB,-1.08193373861731e+000°)
7.24435960074986e+002	(-4.43188235603249e+001dB,-1.10674070631439e+000°)
7.41310241300914e+002	(-4.43255760324467e+001dB,-1.13209667576484e+000°)
7.58577575029180e+002	(-4.43326514050363e+001dB,-1.15801229697998e+000°)
7.76247116628688e+002	(-4.43400653535070e+001dB,-1.18449830579527e+000°)
7.94328234724277e+002	(-4.43478343367747e+001dB,-1.21156551251559e+000°)
8.12830516164095e+002	(-4.43559756397693e+001dB,-1.23922479047911e+000°)
8.31763771102666e+002	(-4.43645074167075e+001dB,-1.26748706202422e+000°)
8.51138038202372e+002	(-4.43734487369883e+001dB,-1.29636328282838e+000°)
8.70963589956076e+002	(-4.43828196359059e+001dB,-1.32586442607180e+000°)
8.91250938133741e+002	(-4.43926411655302e+001dB,-1.35600146253057e+000°)
9.12010839355905e+002	(-4.44029354502952e+001dB,-1.38678533998920e+000°)
9.33254300796986e+002	(-4.44137257462991e+001dB,-1.41822696011168e+000°)
9.54992586021431e+002	(-4.44250365029661e+001dB,-1.45033715228637e+000°)
9.77237220955805e+002	(-4.44368934292804e+001dB,-1.48312664495766e+000°)
9.99999999999994e+002	(-4.44493235645230e+001dB,-1.51660603424282e+000°)
1.02329299228075e+003	(-4.44623553527521e+001dB,-1.55078574854077e+000°)
1.04712854805089e+003	(-4.44760187223439e+001dB,-1.58567600961953e+000°)
1.07151930523760e+003	(-4.44903451710744e+001dB,-1.62128678992933e+000°)
1.09647819614318e+003	(-4.45053678561052e+001dB,-1.65762776476612e+000°)
1.12201845430196e+003	(-4.45211216905975e+001dB,-1.69470826000486e+000°)
1.14815362149688e+003	(-4.45376434465705e+001dB,-1.73253719407837e+000°)
1.17489755493952e+003	(-4.45549718640959e+001dB,-1.77112301312916e+000°)
1.20226443461741e+003	(-4.45731477699789e+001dB,-1.81047362134679e+000°)
1.23026877081237e+003	(-4.45922142022334e+001dB,-1.85059630129068e+000°)
1.25892541179416e+003	(-4.46122165451227e+001dB,-1.89149762758757e+000°)
1.28824955169313e+003	(-4.46332026734161e+001dB,-1.93318337090723e+000°)
1.31825673855640e+003	(-4.46552231067106e+001dB,-1.97565839111228e+000°)
1.34896288259165e+003	(-4.46783311769081e+001dB,-2.01892652095809e+000°)
1.38038426460288e+003	(-4.47025832048254e+001dB,-2.06299043304160e+000°)
1.41253754462275e+003	(-4.47280386947359e+001dB,-2.10785149764583e+000°)
1.44543977074592e+003	(-4.47547605402843e+001dB,-2.15350962041011e+000°)
1.47910838816820e+003	(-4.47828152483188e+001dB,-2.19996306409093e+000°)
1.51356124843620e+003	(-4.48122731806029e+001dB,-2.24720825035484e+000°)
1.54881661891247e+003	(-4.48432088149812e+001dB,-2.29523953890377e+000°)
1.58489319246110e+003	(-4.48757010282731e+001dB,-2.34404898153691e+000°)
1.62181009735892e+003	(-4.49098334021895e+001dB,-2.39362604664226e+000°)
1.65958690743755e+003	(-4.49456945577597e+001dB,-2.44395731479133e+000°)
1.69824365246173e+003	(-4.49833785157562e+001dB,-2.49502613368147e+000°)
1.73780082874936e+003	(-4.50229850919636e+001dB,-2.54681223578650e+000°)
1.77827941003891e+003	(-4.50646203272650e+001dB,-2.59929130811197e+000°)
1.81970085860997e+003	(-4.51083969572052e+001dB,-2.65243450848091e+000°)
1.86208713666286e+003	(-4.51544349262568e+001dB,-2.70620792198045e+000°)
1.90546071796323e+003	(-4.52028619519005e+001dB,-2.76057194896428e+000°)
1.94984459975803e+003	(-4.52538141432542e+001dB,-2.81548061261171e+000°)
1.99526231496887e+003	(-4.53074366829081e+001dB,-2.87088077732686e+000°)
2.04173794466952e+003	(-4.53638845773392e+001dB,-2.92671126165100e+000°)
2.08929613085403e+003	(-4.54233234878394e+001dB,-2.98290183142625e+000°)
2.13796208950222e+003	(-4.54859306487293e+001dB,-3.03937205281698e+000°)
2.18776162394954e+003	(-4.55518958869452e+001dB,-3.09602998317182e+000°)
2.23872113856832e+003	(-4.56214227562211e+001dB,-3.15277067369200e+000°)
2.29086765276776e+003	(-4.56947298022325e+001dB,-3.20947445282482e+000°)
2.34422881531991e+003	(-4.57720519744905e+001dB,-3.26600494666637e+000°)
2.39883291901947e+003	(-4.58536422117800e+001dB,-3.32220680150467e+000°)
2.45470891568501e+003	(-4.59397732216506e+001dB,-3.37790304143137e+000°)
2.51188643150956e+003	(-4.60307394876607e+001dB,-3.43289200417003e+000°)
2.57039578276885e+003	(-4.61268595369753e+001dB,-3.48694376544343e+000°)
2.63026799189536e+003	(-4.62284785143131e+001dB,-3.53979596099161e+000°)
2.69153480392690e+003	(-4.63359711093880e+001dB,-3.59114887638765e+000°)
2.75422870333815e+003	(-4.64497449010105e+001dB,-3.64065965889350e+000°)
2.81838293126443e+003	(-4.65702441898441e+001dB,-3.68793546083938e+000°)
2.88403150312659e+003	(-4.66979544090862e+001dB,-3.73252528092244e+000°)
2.95120922666636e+003	(-4.68334072210422e+001dB,-3.77391020744287e+000°)
3.01995172040199e+003	(-4.69771864317289e+001dB,-3.81149168930305e+000°)
3.09029543251357e+003	(-4.71299348876380e+001dB,-3.84457735674656e+000°)
3.16227766016836e+003	(-4.72923625549778e+001dB,-3.87236377547009e+000°)
3.23593656929626e+003	(-4.74652560362402e+001dB,-3.89391534023367e+000°)
3.31131121482589e+003	(-4.76494898387009e+001dB,-3.90813826171307e+000°)
3.38844156139200e+003	(-4.78460398010860e+001dB,-3.91374827709909e+000°)
3.46736850452529e+003	(-4.80559991844677e+001dB,-3.90923023910045e+000°)
3.54813389233573e+003	(-4.82805980940093e+001dB,-3.89278712642830e+000°)
3.63078054770099e+003	(-4.85212270856161e+001dB,-3.86227510033146e+000°)
3.71535229097170e+003	(-4.87794660804965e+001dB,-3.81511996450312e+000°)
3.80189396320558e+003	(-4.90571200772748e+001dB,-3.74820853950648e+000°)
3.89045144994278e+003	(-4.93562636535456e+001dB,-3.65774574343506e+000°)
3.98107170553494e+003	(-4.96792969511808e+001dB,-3.53906411112332e+000°)
4.07380277804110e+003	(-5.00290168441387e+001dB,-3.38636631858467e+000°)
4.16869383470332e+003	(-5.04087084151764e+001dB,-3.19237167775634e+000°)
4.26579518801589e+003	(-5.08222639581227e+001dB,-2.94782234533864e+000°)
4.36515832240162e+003	(-5.12743397920702e+001dB,-2.64078022671328e+000°)
4.46683592150960e+003	(-5.17705657516156e+001dB,-2.25560414018337e+000°)
4.57088189614871e+003	(-5.23178291228176e+001dB,-1.77142559887463e+000°)
4.67735141287194e+003	(-5.29246651919907e+001dB,-1.15981472320464e+000°)
4.78630092322634e+003	(-5.36018021605457e+001dB,-3.81093766942679e-001°)
4.89778819368442e+003	(-5.43629305158552e+001dB,6.21694569611229e-001°)
5.01187233627268e+003	(-5.52257949429841e+001dB,1.93306306164691e+000°)
5.12861383991361e+003	(-5.62137245879870e+001dB,3.68341535946559e+000°)
5.24807460249768e+003	(-5.73576449228014e+001dB,6.08351753548197e+000°)
