#Digilent WaveForms Network Analyzer - Bode
#Device Name: Discovery2
#Serial Number: SN:210321A29C8B
#Date Time: 2017-10-24 20:07::00.730

Frequency (Hz),Channel 1 Magnitude (dB),Channel 2 Magnitude (dB),Channel 2 Phase (°)
3000.0000000000009,-8.3542658585986318e-05,-50.083802944500277,-11.114704477466546
3011.7216988401083,-0.00013839621555905202,-50.040756520071021,-11.807022641022314
3023.4891970881149,0.00034529088604629563,-50.08889777844729,-11.778916139011073
3035.3026736929751,0.00028524874318730108,-50.145680837009401,-11.684660931951612
3047.1623083028426,-0.00010758017002250418,-50.180220151173351,-11.628309866668566
3059.0682812677933,-0.0011513474471008922,-50.309408293620812,-11.982915897674026
3071.020773642575,-0.0012261316802644839,-50.380650548277934,-11.090508377922387
3083.0199671893588,-0.00055305247634097551,-50.402730453320821,-11.82418606480735
3095.0660443805018,0.00062993805416420982,-50.432991444905532,-11.688455806698968
3107.1591884013251,-0.00031974653874586615,-50.51877868923151,-11.550542469363378
3119.2995831528956,-0.00021111286162859452,-50.577108630114253,-12.27525200698377
3131.4874132548257,0.00012796387179803164,-50.684805377448342,-12.244554113624474
3143.7228640480794,0.00074048481443646783,-50.67141721908942,-12.080617193044478
3156.0061215977889,-1.8967073172698461e-05,-50.747864070821763,-12.459967200946352
3168.3373726960899,-0.00066085573128958034,-50.896875425979772,-12.031437662459695
3180.7168048649569,0.0010678936545080054,-50.903668228736279,-12.186691102885451
3193.1446063590552,0.00035017491514684776,-50.817294367832922,-12.395283295073313
3205.6209661686062,-0.00065035696911483335,-51.005356337167029,-12.509637330613643
3218.1460740222601,0.00018213063222945262,-51.106183090457201,-12.197778265779505
3230.7201203899799,0.00051453445983734656,-51.248488562602638,-12.894282519936706
3243.3432964859417,0.00026157781245604833,-51.234245773559159,-12.669135422300798
3256.0157942714382,-0.00038229554327678705,-51.258969797257528,-12.417984475092624
3268.7378064577988,-0.00031429890947233313,-51.381508643229985,-12.826277838255185
3281.5095265093232,0.00077069732087809242,-51.42108508432927,-12.241522594215269
3294.3311486462171,0.00032738448962264588,-51.496013431448802,-12.718057613394464
3307.2028678475554,0.00080059364404268685,-51.701591173921258,-12.300348361028398
3320.1248798542379,-0.0010795987718490705,-51.692605967526205,-12.402144155706964
3333.09738117197,0.00015937554426107391,-51.653475876602542,-12.481631009464621
3346.1205690742536,0.0012991937125572236,-51.834983868023549,-12.663678834297585
3359.1946416053784,0.00046688745692318042,-51.978099226960467,-13.111513546772613
3372.3197975834441,0.00016005638785135008,-51.970235080070928,-11.794311523627542
3385.4962366033787,-0.0010464963183586167,-52.058027576367977,-13.133245325074782
3398.7241590399726,0.00038314104839767908,-52.218274591399251,-13.240348617031827
3412.003766050927,-0.00010888056372765606,-52.321820316455302,-13.036490031957783
3425.3352595799138,-0.0001059812644902101,-52.224301178234491,-12.82724824866844
3438.7188423596449,-0.00076590118372917666,-52.47342423347456,-12.674722077912975
3452.1547179149593,0.00098042992620067204,-52.504793163263116,-13.492040550159485
3465.6430905659108,0.0013769097949950905,-52.576504440731753,-13.465231296200699
3479.184165430881,0.00059137734629240786,-52.892229300686182,-14.346096693305327
3492.7781484296979,0.00019559143927304568,-52.919434551835209,-13.384959097761751
3506.4252462867648,0.00010032973006437467,-52.837771804727907,-14.109619968494457
3520.1256665342048,0.00051000026881454412,-53.013007552210574,-13.134321908260119
3533.8796175150201,0.00047226048840360668,-53.143062014825482,-14.704367238601378
3547.6873083862547,-0.00083759347255463862,-53.150547744091277,-14.815724051299284
3561.5489491221797,0.00036261901343041933,-53.315014125366361,-13.57784174671062
3575.464750517483,3.2276730757640347e-05,-53.358588332364157,-13.758757980561086
3589.434924190477,0.00058138690000442768,-53.467075657479683,-14.55793489981032
3603.4596825863182,0.0010159504775322159,-53.717864685471056,-14.631814313852431
3617.5392389802332,-0.0011372767377711432,-53.918173940213563,-14.693346291403135
3631.6738074807658,0.00059071077886096676,-53.942771244797882,-14.411504978486796
3645.8636030330304,0.00065093789659311267,-54.088762877960086,-14.878076950663669
3660.1088414219835,0.00036863591503315371,-54.023284908641209,-13.595693797192963
3674.4097392757039,0.0016149329153744584,-54.330984192312371,-14.681590570044989
3688.7665140686868,-0.0002677622662573945,-54.412646538596135,-14.559936095196662
3703.1793841251483,0.00027918375718113768,-54.477993571476034,-13.982332151840041
3717.6485686223509,0.001131384846972768,-54.808236588081876,-14.6577542336465
3732.1742875939326,0.0012440092732726553,-54.891181790151016,-14.199763895051376
3746.7567619332553,0.00084899141883218552,-55.177018443317074,-14.518554445601168
3761.3962133967602,-0.00023427497700819638,-54.953623506300602,-16.31044802528373
3776.0928646073462,0.001346159156532682,-55.133267716876475,-14.799477041425988
3790.8469390577479,0.00097748877572665402,-55.267610620728355,-14.5631456291175
3805.6586611139392,0.0011533599754538814,-55.341087970896972,-15.652384095202876
3820.5282560185474,0.00096511214845779473,-55.701344648682571,-15.510544365273233
3835.4559498942699,-0.00040561138617330417,-55.922888531543144,-14.503354880288072
3850.4419697473227,0.00072040928750874607,-55.981552814021249,-15.386997936780421
3865.4865434708854,0.00048639396490279769,-56.236588019935837,-14.469044014496184
3880.5898998485695,0.00045704436266439795,-56.262865502183558,-16.039580880862061
3895.7522685578979,0.0010082115911121332,-56.542256776663287,-15.707714341155992
3910.9738801737976,0.00081492640761904485,-56.427136272844308,-16.207538115054319
3926.2549661721055,0.0010611338698864176,-56.852650788597629,-14.624436351642032
3941.5957589330865,0.0019729851169519568,-57.109301988123121,-16.921526568055974
3956.9964917449729,0.0016959536565910535,-57.221292728878623,-15.642300322751858
3972.4573988075035,0.0016362483521993132,-57.243115254485907,-15.554757763778312
3987.9787152354961,0.00065890299725039213,-57.590026729302096,-17.913247712063061
4003.5606770624117,0.0013673322033895671,-57.71661350173023,-15.340536213409433
4019.2035212439519,0.0013121708665342444,-58.005490475804955,-16.856253967365461
4034.9074856616589,0.0019818595157551984,-58.407857885153632,-17.304419911187679
4050.6728091265318,0.0017580556866668797,-58.406292203542463,-17.64218371134131
4066.4997313826611,-0.0005593575501213787,-58.504505961060644,-17.713697781940724
4082.3884931108769,0.0012462975025267155,-58.910036819657648,-17.205812852811832
4098.3393359323973,0.0012912705777316721,-59.206190361715166,-18.373692556761185
4114.3525024125202,0.0026935069155964069,-59.575789290883691,-16.159134649477082
4130.4282360642928,0.0017817303091237999,-59.815508455773063,-18.939266978012618
4146.5667813522332,0.00065633878917119217,-60.135680016465102,-17.547887784633129
4162.7683836960332,0.0016797388044121225,-60.36720003877199,-17.741680161295022
4179.0332894743024,0.0017438232326914959,-60.693085520013732,-17.955697933955982
4195.3617460283012,0.0016783813074820284,-61.030834222216008,-20.200486483434076
4211.7540016657194,0.0013959627074680992,-61.571261725591512,-18.133627724692417
4228.210305664431,0.001211783472568535,-61.480398162266745,-19.506558528377056
4244.7309082763104,0.00066058853766306168,-62.280479083175074,-20.885978333388493
4261.3160607310128,0.0022770504954014422,-62.162612894567111,-19.733118427261026
4277.9660152398137,0.0020995148112679806,-62.741579300335076,-20.831842058290988
4294.6810249994314,0.0020852904795727201,-63.129267954086941,-20.691422249177009
4311.4613441958872,0.0025503276736373276,-63.623441641508848,-19.380619459512516
4328.3072280083616,0.0015470231531884758,-64.278602368072185,-21.52468092573659
4345.2189326130865,0.0016570591412947897,-64.598718170693161,-25.078476220466619
4362.1967151872268,0.0020830507840473543,-65.59667181754223,-22.805843665023957
4379.2408339128042,0.0020992692597657904,-66.139722684356329,-20.102704305633793
4396.3515479806128,0.0016630939550699882,-66.775763802481578,-24.819959547409692
4413.5291175941666,0.0021257845705599234,-66.9848974456836,-24.227322560239259
4430.7738039736614,0.00079779014668153198,-68.253556181455593,-23.647941446820344
4448.0858693599339,0.0016384146122591144,-69.40907281639808,-31.623217925970277
4465.4655770184581,0.0020401772703603485,-71.328911301403053,-31.126650388521007
4482.9131912433495,0.0032591363427048776,-69.951999412445147,-32.110658197131059
4500.4289773613818,0.0021532496839985417,-72.149928645452604,-34.671876593920842
4518.013201736022,0.002220138279117382,-74.192543973904364,-34.346460475322367
4535.6661317714816,0.00040544904927227105,-74.239706580686232,-39.828314143676039
4553.3880359167815,0.0025484415412998628,-76.765147460894212,-59.689686586392114
4571.1791836698358,0.0028533181582126835,-79.105571284055529,-53.009012352431064
4589.0398455815503,0.0031751641843475505,-80.227621070574443,-82.013048989976369
4606.9702932599366,0.003218962690579071,-80.288752813321565,-111.29185955119078
4624.9707993742404,0.0026182908465482448,-85.279937617435948,-126.9382165785949
4643.041637659092,0.00133065912114052,-79.002359742163875,-139.07216784875433
4661.1830829186647,0.0027565763596471182,-76.782996652103776,-174.76510409936827
4679.3954110308568,0.0021716355022476318,-73.71943216870811,-177.23944569824232
4697.6788989514835,0.0033902098453273185,-74.571653999584186,-175.40597955361534
4716.0338247184955,0.0031581432585194111,-71.075583656247034,177.42348996229185
4734.4604674561988,0.0025686383643662401,-70.044396341906449,-177.10903575042681
4752.9591073795027,0.00081840006900087549,-69.224243874935027,176.47363072366966
4771.5300257981853,0.0028951589063032981,-69.329860416879768,174.65978314652929
4790.1735051211626,0.0031637158070630554,-67.372978391420034,176.71255655511345
4808.8898288607934,0.0036247294159601259,-67.479582274534295,175.88578296155401
4827.6792816371808,0.0033041659763962884,-65.710550593179903,171.23741861538136
4846.5421491825055,0.0028680092011216136,-64.812833410344325,176.05081133072213
4865.4787183453736,0.00099259604492225699,-64.260780250942545,168.42427462548181
4884.4892770951701,0.0030771679921597159,-64.135348758365097,170.84751039037008
4903.574114526451,0.0029519343378835257,-63.531509531232508,171.08170317286027
4922.7335208633249,0.0036472057937332238,-63.216705376100236,172.78604484007258
4941.9677874638792,0.0038800995135834706,-62.220476891346763,170.64337036080343
4961.2772068245995,0.0033516690268529294,-61.822639975204325,166.9613750539088
4980.6620725848279,0.0021503375315100556,-61.066722438853674,169.18468047529515
5000.1226795312214,-0.0012338283029671396,-60.852146844498762,170.35949589774827
5019.6593236022409,0.0029969644619109144,-60.482993420966949,166.46035807340627
5039.2723018926408,0.0030596019682166782,-60.078608517957612,168.30576467957297
5058.961912658001,0.0042042409563034996,-59.894203754591601,167.45776171634355
5078.7284553192494,0.0029588082425009571,-59.415353607643276,167.17199014621994
5098.5722304672281,0.0027706511022710812,-59.32593186408355,168.5502426622607
5118.4935398672505,0.0010051962937956665,-58.738704981812056,167.4441369227369
5138.4926864637046,-0.0023235488584259683,-58.476634086081553,166.50216238180661
5158.5699743846435,0.0037948929547406214,-58.006806845626919,167.32740738691669
5178.7257089464301,0.0042351813284176778,-57.776623076016108,166.95439369515475
5198.9601966583596,0.0033586198003666854,-57.349483291329683,165.08084801879272
5219.2737452273377,0.0038722275814553355,-57.147595355944745,165.19493666851275
5239.666663562547,0.0023357902769592584,-56.959386367484193,164.81906216274791
5260.1392617801584,0.00035231223656586664,-56.785737797150368,165.30034848943049
5280.6918512080265,0.0032757208534263068,-56.048138544664141,164.30907114815147
5301.3247443904511,0.0036069781465207138,-56.075640797799238,165.309533537276
5322.0382550929007,0.0041499767959561999,-55.78088615370747,165.15261820504588
5342.8326983068109,0.0037835472547775905,-55.480433186763264,164.86028015074953
5363.7083902543527,0.0047051280260674636,-55.140711688951399,163.18031755657015
5384.6656483932593,0.0034122219392955892,-54.972559389283518,162.69773553367168
5405.7047914216373,-0.00031227144387292066,-54.747966709629537,164.07047319817718
5426.8261392828272,0.003702699257603856,-54.527818016793717,164.18305053711961
5448.030013170257,0.0039998953660216521,-54.208315172263823,163.44842979276095
5469.3167355323394,0.0047481537132348338,-54.260444143636164,162.62721057435635
5490.6866300773618,0.0041731583530346837,-53.843856346394745,163.54541669230227
5512.1400217784194,0.0037439342485541755,-53.703119685577661,163.83421413672042
5533.6772368783468,0.0032721207532545428,-53.375754644921031,163.8630787822114
5555.2986028946962,0.00055975093476393024,-53.337487577810158,163.25744290889733
5577.0044486246961,-0.0049557739747479266,-53.160262583018387,162.25938724237631
5598.7951041502674,0.0035473249156606815,-52.814948269599221,163.31753727728125
5620.6709008430398,0.0048315957362212785,-52.653981920739611,162.57220048747425
5642.6321713693842,0.0051105278880475167,-52.633730676234492,162.57960196233984
5664.6792496954804,0.0051210124778391687,-52.192051551485818,163.57258734184271
5686.812471092393,0.0044563514358674627,-52.078340369404785,162.61272375519127
5709.0321721411638,0.0019456277047562209,-51.924269435670539,162.91430404104844
5731.3386907379372,-0.0030254724440524818,-51.75880360228377,162.7184894512863
5753.7323660990996,0.0045963097807027427,-51.692585807028735,163.48679509733421
5776.2135387664275,0.0042110204925353964,-51.420111035009562,161.93899764407942
5798.7825506122845,0.0052380630028921807,-51.419150168981687,161.75912517466591
5821.439744844799,0.0047125073002189759,-51.026155336312307,161.45742564099498
5844.1854660131003,0.0046928926414900934,-50.897345853572986,161.95023459620987
5867.0200600125463,0.0034804635398900945,-50.680081290562143,162.03981970534397
5889.9438740899895,0.00012097146087434744,-50.558877629805053,162.12902250983402
5912.9572568490621,-0.0058058375828852786,-50.502285931315036,160.64532903545776
5936.0605582554654,0.0045719547438393968,-50.37328040105092,161.32108662982614
5959.2541296423024,0.0056683444715242151,-50.017803478545702,160.95103847228717
5982.5383237154128,0.0059183203583782207,-50.000739124487026,161.24862482488308
6005.9134945587421,0.005915613457960653,-49.806446930511825,161.25049671369896
6029.3799976397268,0.0056208354761228324,-49.74484389247322,161.23333573942119
6052.9381898146921,0.0029548357694059212,-49.620122315038969,161.00128635110508
6076.5884293342906,-0.0013813344467381373,-49.381896177098852,160.48871496489843
6100.3310758489333,-0.0093583864239450455,-49.207847438634246,160.52656701222645
6124.1664904142826,0.005278084991203873,-49.197524777319956,161.05106170950143
6148.095035496719,0.0065014278961281801,-48.974653147118389,160.56542224780569
6172.1170749788716,0.0066531494626159834,-48.869998000515338,160.04593478754703
6196.2329741651311,0.006759072688809856,-48.738698329258227,160.51951307843217
6220.4430997872341,0.005560481280993507,-48.602178310151906,160.32861742542633
6244.7478200098103,0.0023803769680770148,-48.423927032508622,160.91210145958559
6269.1475044360004,-0.0010120921024477465,-48.367862354590805,159.65699562597337
6293.6425241130682,-0.0092087764033118389,-48.232853788385867,160.18444323017246
6318.2332515380513,0.0060476512226619906,-48.102539821352053,160.28529670131002
6342.9200606634104,0.0061462019867846267,-47.987700105544405,159.47814870761476
6367.7033269027352,0.006446708313416245,-47.869227418908139,159.91569301222674
6392.5834271364347,0.0067762667723728935,-47.716317255994234,160.17799663505627
6417.5607397174863,0.0061688379983781128,-47.632542590854293,159.73792245854304
6442.6356444771718,0.0040839759417183067,-47.443494582771457,159.63997626538148
6467.8085227308738,8.4243334395164553e-05,-47.326444291988103,159.29346147688602
6493.0797572838501,-0.0068368910669803539,-47.308897054936224,159.5060758462302
6518.449732437075,0.0063872167009186333,-47.258450391712387,159.60607616374733
6543.9188339930752,0.0066327505442674625,-47.057724283295236,158.31931743791458
6569.487449261801,0.0073961186742716751,-46.88406919660116,158.76737755329572
6595.1559670665038,0.0076109429031147842,-46.839535298552278,159.27082784293384
6620.9247777496676,0.007154254468314615,-46.75731881899604,158.28967021548047
6646.7942731789271,0.0054906402703177506,-46.615685438610242,157.94718854839033
6672.7648467530471,0.0019208813147262138,-46.499221170021173,158.63852915320115
6698.8368934078744,-0.0032985545850034268,-46.420711696056465,158.45459388878194
6725.0108096223858,-0.0048022562707137062,-46.248579204147752,158.0133526051049
6751.2869934246701,0.0070537024899925797,-46.119951185050283,158.4062598665991
6777.6658443980223,0.0079242719984836448,-46.147403869826924,158.19907845369417
6804.1477636869931,0.0076280429064338332,-45.933769659044408,158.20978347212446
6830.7331540035029,0.0081289732665787706,-45.889305122891074,158.40879030127638
6857.4224196329569,0.0068245412510398035,-45.757023606999631,157.95613039833933
6884.2159664404026,0.0049758062704839245,-45.709004387800725,157.34863335228738
6911.1142018766914,0.0012247864568578023,-45.610679408616186,157.40979879629222
6938.1175349846872,-0.0056752953889344319,-45.545074352658858,156.96723297125132
6965.2263764054733,-0.0015944724271258241,-45.414687171029001,156.88614949312807
6992.4411383846045,0.0083007849157119354,-45.246522687002262,157.10002949735491
7019.7622347783781,0.0074531075288208921,-45.240993574433439,157.12950576215124
7047.190081060121,0.0073637124845521498,-45.134084413432205,157.36872310521662
7074.7250943265135,0.0082589644963604204,-44.995225623569475,157.07464441580603
7102.3676933039278,0.0079064912597831445,-44.922857901984074,156.71891697370415
7130.1182983547988,0.006017078565907448,-44.853155764401961,156.47851824039938
7157.9773314840158,0.0017932579276715788,-44.821252952548811,156.4321744842261
7185.9452163453398,-0.0049937192220407683,-44.656303609135712,155.98415200150941
7214.0223782478415,-0.0017935366707316671,-44.567729315548668,156.26839498647331
7242.2092441623809,0.0079490408250059048,-44.534185347708544,155.72143078077013
7270.5062427280836,0.008425769376849775,-44.410318094335885,156.16109722124835
7298.9138042588756,0.0094582725414897942,-44.345892872248889,156.29228201778443
7327.4323607500173,0.0092491352214670881,-44.262751536191914,155.94546944785964
7356.0623458846721,0.0085791364879045269,-44.22267978889532,155.84129824083226
7384.8041950405095,0.0071201646567454029,-44.044828331479309,155.85013204842321
7413.6583452963177,0.0036565546824848961,-44.12030911157035,155.77231001851217
7442.6252354386534,-0.0021943965346466984,-43.93833102737895,155.1725448075818
7471.7053059685195,-0.00344001270232121,-43.908057158693495,155.56559586321262
7500.8989991080489,0.0034736861985465201,-43.83453514451255,155.33181216861226
7530.2067588072514,0.0090828421624755181,-43.816339657263306,154.94585621128124
7559.6290307507425,0.0082235473729959652,-43.657230531227206,155.30515911435444
7589.1662623645407,0.0087164899156979489,-43.63707744404374,154.96017835679271
7618.8189028228517,0.0095362593133331841,-43.545015513696484,154.89412201890201
7648.5874030549212,0.0092197124641173554,-43.442026901962016,154.83853875301014
7678.472215751869,0.0078296143040098454,-43.431116138326217,154.71318990598922
7708.4737953735957,0.0023847646009671174,-43.402701539395743,154.70511649656106
7738.5925981556684,-0.0045035555180068347,-43.236945924324473,154.61293568895468
7768.8290821162909,-0.00074482899786638078,-43.244743426107739,154.06203146358607
