Freq.	V(n002)	V(n004)/V(n002)
Step Information: Step=1  (Run: 1/100)
2.70000000000000e+004	(-2.27826875501119e+000dB,-1.24920541289994e+002°)	(-8.24125953800349e+000dB,-1.06558039310749e+002°)
2.70622414281033e+004	(-2.19309631050536e+000dB,-1.25309052476624e+002°)	(-8.18813647379711e+000dB,-1.06660211915386e+002°)
2.71246263375167e+004	(-2.10752039814970e+000dB,-1.25705111121160e+002°)	(-8.13475672097345e+000dB,-1.06763550953013e+002°)
2.71871550589987e+004	(-2.02154880428100e+000dB,-1.26108903327593e+002°)	(-8.08111769902151e+000dB,-1.06868076461037e+002°)
2.72498279240705e+004	(-1.93519014740662e+000dB,-1.26520619587682e+002°)	(-8.02721679763673e+000dB,-1.06973808924866e+002°)
2.73126452650173e+004	(-1.84845393038312e+000dB,-1.26940454794670e+002°)	(-7.97305137650114e+000dB,-1.07080769290020e+002°)
2.73756074148903e+004	(-1.76135059525794e+000dB,-1.27368608244928e+002°)	(-7.91861876507372e+000dB,-1.07188978974613e+002°)
2.74387147075088e+004	(-1.67389158085046e+000dB,-1.27805283626002e+002°)	(-7.86391626239188e+000dB,-1.07298459882233e+002°)
2.75019674774611e+004	(-1.58608938314146e+000dB,-1.28250688989435e+002°)	(-7.80894113688522e+000dB,-1.07409234415216e+002°)
2.75653660601073e+004	(-1.49795761853105e+000dB,-1.28705036706545e+002°)	(-7.75369062620276e+000dB,-1.07521325488340e+002°)
2.76289107915803e+004	(-1.40951109001387e+000dB,-1.29168543405234e+002°)	(-7.69816193705459e+000dB,-1.07634756542952e+002°)
2.76926020087880e+004	(-1.32076585630772e+000dB,-1.29641429885736e+002°)	(-7.64235224506972e+000dB,-1.07749551561539e+002°)
2.77564400494148e+004	(-1.23173930395463e+000dB,-1.30123921013022e+002°)	(-7.58625869467091e+000dB,-1.07865735082756e+002°)
2.78204252519236e+004	(-1.14245022239549e+000dB,-1.30616245583462e+002°)	(-7.52987839896855e+000dB,-1.07983332216938e+002°)
2.78845579555577e+004	(-1.05291888199587e+000dB,-1.31118636163125e+002°)	(-7.47320843967481e+000dB,-1.08102368662098e+002°)
2.79488385003423e+004	(-9.63167114975473e-001dB,-1.31631328894940e+002°)	(-7.41624586703975e+000dB,-1.08222870720442e+002°)
2.80132672270863e+004	(-8.73218399162906e-001dB,-1.32154563271763e+002°)	(-7.35898769981144e+000dB,-1.08344865315404e+002°)
2.80778444773846e+004	(-7.83097944463020e-001dB,-1.32688581872216e+002°)	(-7.30143092522178e+000dB,-1.08468380009238e+002°)
2.81425705936192e+004	(-6.92832781884509e-001dB,-1.33233630055969e+002°)	(-7.24357249900005e+000dB,-1.08593443021164e+002°)
2.82074459189616e+004	(-6.02451854930137e-001dB,-1.33789955615000e+002°)	(-7.18540934541665e+000dB,-1.08720083246103e+002°)
2.82724707973743e+004	(-5.11986113102000e-001dB,-1.34357808377160e+002°)	(-7.12693835735894e+000dB,-1.08848330274019e+002°)
2.83376455736127e+004	(-4.21468607216621e-001dB,-1.34937439758263e+002°)	(-7.06815639644202e+000dB,-1.08978214409881e+002°)
2.84029705932270e+004	(-3.30934586161658e-001dB,-1.35529102258775e+002°)	(-7.00906029315692e+000dB,-1.09109766694279e+002°)
2.84684462025640e+004	(-2.40421594655769e-001dB,-1.36133048901052e+002°)	(-6.94964684705899e+000dB,-1.09243018924702e+002°)
2.85340727487687e+004	(-1.49969571495316e-001dB,-1.36749532603031e+002°)	(-6.88991282699961e+000dB,-1.09378003677513e+002°)
2.85998505797868e+004	(-5.96209476871668e-002dB,-1.37378805484235e+002°)	(-6.82985497140429e+000dB,-1.09514754330638e+002°)
2.86657800443655e+004	(3.05792562259634e-002dB,-1.38021118099934e+002°)	(-6.76946998860069e+000dB,-1.09653305086997e+002°)
2.87318614920565e+004	(1.20583334440582e-001dB,-1.38676718599423e+002°)	(-6.70875455720003e+000dB,-1.09793690998701e+002°)
2.87980952732169e+004	(2.10340802668423e-001dB,-1.39345851804455e+002°)	(-6.64770532653597e+000dB,-1.09935947992036e+002°)
2.88644817390117e+004	(2.99798308427260e-001dB,-1.40028758204131e+002°)	(-6.58631891716482e+000dB,-1.10080112893277e+002°)
2.89310212414153e+004	(3.88899545981123e-001dB,-1.40725672862799e+002°)	(-6.52459192143179e+000dB,-1.10226223455335e+002°)
2.89977141332136e+004	(4.77585177189191e-001dB,-1.41436824237967e+002°)	(-6.46252090410760e+000dB,-1.10374318385292e+002°)
2.90645607680055e+004	(5.65792759652691e-001dB,-1.42162432905709e+002°)	(-6.40010240310076e+000dB,-1.10524437372831e+002°)
2.91315615002053e+004	(6.53456683679744e-001dB,-1.42902710191737e+002°)	(-6.33733293025061e+000dB,-1.10676621119605e+002°)
2.91987166850443e+004	(7.40508119720732e-001dB,-1.43657856707059e+002°)	(-6.27420897220677e+000dB,-1.10830911369575e+002°)
2.92660266785724e+004	(8.26874978055165e-001dB,-1.44428060788131e+002°)	(-6.21072699140133e+000dB,-1.10987350940341e+002°)
2.93334918376607e+004	(9.12481882635504e-001dB,-1.45213496842488e+002°)	(-6.14688342711968e+000dB,-1.11145983755506e+002°)
2.94011125200026e+004	(9.97250161107110e-001dB,-1.46014323602172e+002°)	(-6.08267469667736e+000dB,-1.11306854878106e+002°)
2.94688890841164e+004	(1.08109785312525e+000dB,-1.46830682288711e+002°)	(-6.01809719670973e+000dB,-1.11470010545135e+002°)
2.95368218893465e+004	(1.16393973917242e+000dB,-1.47662694695093e+002°)	(-5.95314730458256e+000dB,-1.11635498203211e+002°)
2.96049112958659e+004	(1.24568739213864e+000dB,-1.48510461192036e+002°)	(-5.88782137993167e+000dB,-1.11803366545407e+002°)
2.96731576646780e+004	(1.32624925395753e+000dB,-1.49374058667870e+002°)	(-5.82211576634031e+000dB,-1.11973665549288e+002°)
2.97415613576181e+004	(1.40553073958469e+000dB,-1.50253538413592e+002°)	(-5.75602679316385e+000dB,-1.12146446516200e+002°)
2.98101227373559e+004	(1.48343437055754e+000dB,-1.51148923966979e+002°)	(-5.68955077751156e+000dB,-1.12321762111833e+002°)
2.98788421673969e+004	(1.55985994027910e+000dB,-1.52060208932175e+002°)	(-5.62268402639626e+000dB,-1.12499666408114e+002°)
2.99477200120848e+004	(1.63470471301575e+000dB,-1.52987354793706e+002°)	(-5.55542283906302e+000dB,-1.12680214926453e+002°)
3.00167566366029e+004	(1.70786365838680e+000dB,-1.53930288746525e+002°)	(-5.48776350950902e+000dB,-1.12863464682398e+002°)
3.00859524069766e+004	(1.77922972284224e+000dB,-1.54888901566270e+002°)	(-5.41970232920727e+000dB,-1.13049474231725e+002°)
3.01553076900751e+004	(1.84869413927499e+000dB,-1.55863045546459e+002°)	(-5.35123559004811e+000dB,-1.13238303718009e+002°)
3.02248228536130e+004	(1.91614677548700e+000dB,-1.56852532531675e+002°)	(-5.28235958751263e+000dB,-1.13430014921721e+002°)
3.02944982661529e+004	(1.98147652172888e+000dB,-1.57857132077909e+002°)	(-5.21307062409376e+000dB,-1.13624671310887e+002°)
3.03643342971069e+004	(2.04457171695648e+000dB,-1.58876569772986e+002°)	(-5.14336501298143e+000dB,-1.13822338093344e+002°)
3.04343313167387e+004	(2.10532061280329e+000dB,-1.59910525751306e+002°)	(-5.07323908202908e+000dB,-1.14023082270642e+002°)
3.05044896961655e+004	(2.16361187355815e+000dB,-1.60958633437885e+002°)	(-5.00268917802047e+000dB,-1.14226972693631e+002°)
3.05748098073600e+004	(2.21933510967648e+000dB,-1.62020478556781e+002°)	(-4.93171167125650e+000dB,-1.14434080119763e+002°)
3.06452920231524e+004	(2.27238144155139e+000dB,-1.63095598438370e+002°)	(-4.86030296048280e+000dB,-1.14644477272151e+002°)
3.07159367172325e+004	(2.32264408944777e+000dB,-1.64183481658433e+002°)	(-4.78845947818113e+000dB,-1.14858238900428e+002°)
3.07867442641515e+004	(2.37001898467786e+000dB,-1.65283568039679e+002°)	(-4.71617769624776e+000dB,-1.15075441843425e+002°)
3.08577150393237e+004	(2.41440539629250e+000dB,-1.66395249043016e+002°)	(-4.64345413208470e+000dB,-1.15296165093710e+002°)
3.09288494190294e+004	(2.45570656680823e+000dB,-1.67517868571603e+002°)	(-4.57028535513026e+000dB,-1.15520489864020e+002°)
3.10001477804157e+004	(2.49383034980965e+000dB,-1.68650724205568e+002°)	(-4.49666799385809e+000dB,-1.15748499655605e+002°)
3.10716105014997e+004	(2.52868984168973e+000dB,-1.69793068879168e+002°)	(-4.42259874327441e+000dB,-1.15980280328500e+002°)
3.11432379611694e+004	(2.56020399934526e+000dB,-1.70944113005335e+002°)	(-4.34807437294642e+000dB,-1.16215920173765e+002°)
3.12150305391866e+004	(2.58829823535417e+000dB,-1.72103027045052e+002°)	(-4.27309173559565e+000dB,-1.16455509987679e+002°)
3.12869886161883e+004	(2.61290498205006e+000dB,-1.73268944510990e+002°)	(-4.19764777629291e+000dB,-1.16699143147916e+002°)
3.13591125736891e+004	(2.63396421599165e+000dB,-1.74440965386618e+002°)	(-4.12173954229321e+000dB,-1.16946915691693e+002°)
3.14314027940832e+004	(2.65142393461532e+000dB,-1.75618159933674e+002°)	(-4.04536419355185e+000dB,-1.17198926395881e+002°)
3.15038596606459e+004	(2.66524057735867e+000dB,-1.76799572852790e+002°)	(-3.96851901396479e+000dB,-1.17455276859069e+002°)
3.15764835575364e+004	(2.67537938424958e+000dB,-1.77984227754460e+002°)	(-3.89120142337934e+000dB,-1.17716071585550e+002°)
3.16492748697994e+004	(2.68181468585759e+000dB,-1.79171131890632e+002°)	(-3.81340899042392e+000dB,-1.17981418071195e+002°)
3.17222339833672e+004	(2.68453011958132e+000dB,1.79640718908734e+002°)	(-3.73513944620820e+000dB,-1.18251426891156e+002°)
3.17953612850617e+004	(2.68351876846977e+000dB,1.78452335154542e+002°)	(-3.65639069894823e+000dB,-1.18526211789351e+002°)
3.18686571625966e+004	(2.67878322011435e+000dB,1.77264728536649e+002°)	(-3.57716084957385e+000dB,-1.18805889769628e+002°)
3.19421220045793e+004	(2.67033554456079e+000dB,1.76078906746914e+002°)	(-3.49744820837950e+000dB,-1.19090581188521e+002°)
3.20157562005132e+004	(2.65819719163523e+000dB,1.74895868353234e+002°)	(-3.41725131278200e+000dB,-1.19380409849483e+002°)
3.20895601407994e+004	(2.64239880951150e+000dB,1.73716597789461e+002°)	(-3.33656894625329e+000dB,-1.19675503098442e+002°)
3.21635342167390e+004	(2.62297998772393e+000dB,1.72542060523299e+002°)	(-3.25540015849901e+000dB,-1.19975991920520e+002°)
3.22376788205352e+004	(2.59998892911115e+000dB,1.71373198460162e+002°)	(-3.17374428695765e+000dB,-1.20282011037717e+002°)
3.23119943452954e+004	(2.57348205632403e+000dB,1.70210925635553e+002°)	(-3.09160097969888e+000dB,-1.20593699007336e+002°)
3.23864811850331e+004	(2.54352355951564e+000dB,1.69056124242010e+002°)	(-3.00897021980338e+000dB,-1.20911198320884e+002°)
3.24611397346700e+004	(2.51018489262854e+000dB,1.67909641029385e+002°)	(-2.92585235131060e+000dB,-1.21234655503147e+002°)
3.25359703900384e+004	(2.47354422629030e+000dB,1.66772284109270e+002°)	(-2.84224810682412e+000dB,-1.21564221211104e+002°)
3.26109735478829e+004	(2.43368586571270e+000dB,1.65644820186170e+002°)	(-2.75815863686933e+000dB,-1.21900050332283e+002°)
3.26861496058629e+004	(2.39069964216713e+000dB,1.64527972229722e+002°)	(-2.67358554110089e+000dB,-1.22242302082119e+002°)
3.27614989625542e+004	(2.34468028658334e+000dB,1.63422417594093e+002°)	(-2.58853090146202e+000dB,-1.22591140099819e+002°)
3.28370220174518e+004	(2.29572679360717e+000dB,1.62328786582977e+002°)	(-2.50299731740083e+000dB,-1.22946732542166e+002°)
3.29127191709712e+004	(2.24394178407535e+000dB,1.61247661451425e+002°)	(-2.41698794325290e+000dB,-1.23309252174640e+002°)
3.29885908244514e+004	(2.18943087334489e+000dB,1.60179575829304e+002°)	(-2.33050652790190e+000dB,-1.23678876459137e+002°)
3.30646373801562e+004	(2.13230205227767e+000dB,1.59125014545587e+002°)	(-2.24355745683359e+000dB,-1.24055787637518e+002°)
3.31408592412768e+004	(2.07266508695719e+000dB,1.58084413827975e+002°)	(-2.15614579670043e+000dB,-1.24440172810085e+002°)
3.32172568119341e+004	(2.01063094242906e+000dB,1.57058161848645e+002°)	(-2.06827734251633e+000dB,-1.24832224008031e+002°)
3.32938304971804e+004	(1.94631123493866e+000dB,1.56046599584090e+002°)	(-1.97995866760206e+000dB,-1.25232138258757e+002°)
3.33705807030016e+004	(1.87981771631325e+000dB,1.55050021955168e+002°)	(-1.89119717640229e+000dB,-1.25640117642878e+002°)
3.34475078363198e+004	(1.81126179332083e+000dB,1.54068679212474e+002°)	(-1.80200116029486e+000dB,-1.26056369341581e+002°)
3.35246123049949e+004	(1.74075408405752e+000dB,1.53102778531905e+002°)	(-1.71237985651079e+000dB,-1.26481105672874e+002°)
3.36018945178272e+004	(1.66840401268017e+000dB,1.52152485785770e+002°)	(-1.62234351028095e+000dB,-1.26914544115125e+002°)
3.36793548845593e+004	(1.59431944312558e+000dB,1.51217927455872e+002°)	(-1.53190344031990e+000dB,-1.27356907316125e+002°)
3.37569938158783e+004	(1.51860635185069e+000dB,1.50299192656543e+002°)	(-1.44107210775168e+000dB,-1.27808423085748e+002°)
3.38348117234181e+004	(1.44136853909186e+000dB,1.49396335237580e+002°)	(-1.34986318857273e+000dB,-1.28269324370086e+002°)
3.39128090197614e+004	(1.36270737768297e+000dB,1.48509375939271e+002°)	(-1.25829164973650e+000dB,-1.28739849204781e+002°)
3.39909861184423e+004	(1.28272159808573e+000dB,1.47638304574161e+002°)	(-1.16637382892993e+000dB,-1.29220240645029e+002°)
3.40693434339479e+004	(1.20150710797458e+000dB,1.46783082212777e+002°)	(-1.07412751809443e+000dB,-1.29710746669560e+002°)
3.41478813817209e+004	(1.11915684447484e+000dB,1.45943643353158e+002°)	(-9.81572050723536e-001dB,-1.30211620055658e+002°)
3.42266003781616e+004	(1.03576065697398e+000dB,1.45119898056615e+002°)	(-8.88728392943183e-001dB,-1.30723118222047e+002°)
3.43055008406304e+004	(9.51405218305080e-001dB,1.44311734034720e+002°)	(-7.95619238351961e-001dB,-1.31245503036252e+002°)
3.43845831874497e+004	(8.66173962031853e-001dB,1.43519018674899e+002°)	(-7.02269106562084e-001dB,-1.31779040582779e+002°)
3.44638478379061e+004	(7.80147043541102e-001dB,1.42741600994342e+002°)	(-6.08704445342337e-001dB,-1.32324000888231e+002°)
3.45432952122530e+004	(6.93401322662694e-001dB,1.41979313513999e+002°)	(-5.14953736215795e-001dB,-1.32880657599208e+002°)
3.46229257317124e+004	(6.06010365583875e-001dB,1.41231974046438e+002°)	(-4.21047603311542e-001dB,-1.33449287608616e+002°)
3.47027398184774e+004	(5.18044463897626e-001dB,1.40499387393024e+002°)	(-3.27018925207374e-001dB,-1.34030170625760e+002°)
3.47827378957144e+004	(4.29570668718096e-001dB,1.39781346947505e+002°)	(-2.32902949430016e-001dB,-1.34623588685377e+002°)
3.48629203875652e+004	(3.40652837905409e-001dB,1.39077636204418e+002°)	(-1.38737409200799e-001dB,-1.35229825590561e+002°)
3.49432877191494e+004	(2.51351694561784e-001dB,1.38388030171937e+002°)	(-4.45626419256518e-002dB,-1.35849166284370e+002°)
3.50238403165666e+004	(1.61724895088324e-001dB,1.37712296689826e+002°)	(4.95782911701680e-002dB,-1.36481896144740e+002°)
3.51045786068986e+004	(7.18271052232109e-002dB,1.37050197653985e+002°)	(1.43639484970598e-001dB,-1.37128300197255e+002°)
3.51855030182119e+004	(-1.82899173870472e-002dB,1.36401490149822e+002°)	(2.37572070788882e-001dB,-1.37788662240291e+002°)
3.52666139795595e+004	(-1.08577235399744e-001dB,1.35765927497232e+002°)	(3.31324098037291e-001dB,-1.38463263877078e+002°)
3.53479119209838e+004	(-1.98988639961842e-001dB,1.35143260210443e+002°)	(4.24840418345607e-001dB,-1.39152383449346e+002°)
3.54293972735183e+004	(-2.89480555936279e-001dB,1.34533236876320e+002°)	(5.18062573378597e-001dB,-1.39856294867439e+002°)
3.55110704691902e+004	(-3.80011945118961e-001dB,1.33935604954967e+002°)	(6.10928687763330e-001dB,-1.40575266332147e+002°)
3.55929319410228e+004	(-4.70544208286848e-001dB,1.33350111506639e+002°)	(7.03373368706292e-001dB,-1.41309558943943e+002°)
3.56749821230373e+004	(-5.61041086813331e-001dB,1.32776503849067e+002°)	(7.95327614055435e-001dB,-1.42059425195980e+002°)
3.57572214502557e+004	(-6.51468564492561e-001dB,1.32214530149339e+002°)	(8.86718730742850e-001dB,-1.42825107348000e+002°)
3.58396503587027e+004	(-7.41794770125263e-001dB,1.31663939954446e+002°)	(9.77470265725008e-001dB,-1.43606835679299e+002°)
3.59222692854082e+004	(-8.31989881338351e-001dB,1.31124484664559e+002°)	(1.06750195171764e+000dB,-1.44404826620157e+002°)
3.60050786684095e+004	(-9.22026030036949e-001dB,1.30595917953011e+002°)	(1.15672967019542e+000dB,-1.45219280762532e+002°)
3.60880789467537e+004	(-1.01187720982157e+000dB,1.30077996136801e+002°)	(1.24506543428889e+000dB,-1.46050380752600e+002°)
3.61712705605000e+004	(-1.10151918564286e+000dB,1.29570478501350e+002°)	(1.33241739435549e+000dB,-1.46898289069613e+002°)
3.62546539507221e+004	(-1.19092940591414e+000dB,1.29073127583040e+002°)	(1.41868986912145e+000dB,-1.47763145697859e+002°)
3.63382295595104e+004	(-1.28008691725408e+000dB,1.28585709412896e+002°)	(1.50378340537899e+000dB,-1.48645065700957e+002°)
3.64219978299744e+004	(-1.36897228199058e+000dB,1.28107993724638e+002°)	(1.58759486927101e+000dB,-1.49544136710532e+002°)
3.65059592062452e+004	(-1.45756749852065e+000dB,1.27639754130090e+002°)	(1.67001757219089e+000dB,-1.50460416344325e+002°)
3.65901141334777e+004	(-1.54585592458920e+000dB,1.27180768264805e+002°)	(1.75094143426402e+000dB,-1.51393929572041e+002°)
3.66744630578529e+004	(-1.63382220352256e+000dB,1.26730817906556e+002°)	(1.83025318824376e+000dB,-1.52344666050664e+002°)
3.67590064265804e+004	(-1.72145219342903e+000dB,1.26289689069180e+002°)	(1.90783662644399e+000dB,-1.53312577454514e+002°)
3.68437446879007e+004	(-1.80873289935896e+000dB,1.25857172074085e+002°)	(1.98357289302926e+000dB,-1.54297574828944e+002°)
3.69286782910877e+004	(-1.89565240840021e+000dB,1.25433061601580e+002°)	(2.05734082358819e+000dB,-1.55299526000130e+002°)
3.70138076864508e+004	(-1.98219982767095e+000dB,1.25017156724011e+002°)	(2.12901733341488e+000dB,-1.56318253076863e+002°)
3.70991333253376e+004	(-2.06836522516028e+000dB,1.24609260922562e+002°)	(2.19847785531823e+000dB,-1.57353530083436e+002°)
3.71846556601363e+004	(-2.15413957335801e+000dB,1.24209182089419e+002°)	(2.26559682706365e+000dB,-1.58405080765484e+002°)
3.72703751442776e+004	(-2.23951469560756e+000dB,1.23816732516883e+002°)	(2.33024822773335e+000dB,-1.59472576612954e+002°)
3.73562922322378e+004	(-2.32448321511031e+000dB,1.23431728874875e+002°)	(2.39230616137289e+000dB,-1.60555635145900e+002°)
3.74424073795407e+004	(-2.40903850650461e+000dB,1.23053992178187e+002°)	(2.45164548528822e+000dB,-1.61653818509559e+002°)
3.75287210427602e+004	(-2.49317464994051e+000dB,1.22683347744705e+002°)	(2.50814247928397e+000dB,-1.62766632424929e+002°)
3.76152336795229e+004	(-2.57688638756760e+000dB,1.22319625145748e+002°)	(2.56167555101405e+000dB,-1.63893525539667e+002°)
3.77019457485100e+004	(-2.66016908235243e+000dB,1.21962658149578e+002°)	(2.61212597147609e+000dB,-1.65033889221535e+002°)
3.77888577094604e+004	(-2.74301867914041e+000dB,1.21612284659033e+002°)	(2.65937863355794e+000dB,-1.66187057832698e+002°)
3.78759700231726e+004	(-2.82543166787640e+000dB,1.21268346644196e+002°)	(2.70332282546950e+000dB,-1.67352309517887e+002°)
3.79632831515074e+004	(-2.90740504889784e+000dB,1.20930690070901e+002°)	(2.74385300991230e+000dB,-1.68528867532791e+002°)
3.80507975573903e+004	(-2.98893630021351e+000dB,1.20599164825844e+002°)	(2.78086959898875e+000dB,-1.69715902131124e+002°)
3.81385137048141e+004	(-3.07002334668171e+000dB,1.20273624638986e+002°)	(2.81427971417934e+000dB,-1.70912533019684e+002°)
3.82264320588409e+004	(-3.15066453100069e+000dB,1.19953927003878e+002°)	(2.84399792025322e+000dB,-1.72117832380620e+002°)
3.83145530856052e+004	(-3.23085858642514e+000dB,1.19639933096504e+002°)	(2.86994692176385e+000dB,-1.73330828449267e+002°)
3.84028772523158e+004	(-3.31060461112233e+000dB,1.19331507693140e+002°)	(2.89205821084302e+000dB,-1.74550509624578e+002°)
3.84914050272588e+004	(-3.38990204408194e+000dB,1.19028519087725e+002°)	(2.91027265535934e+000dB,-1.75775829077752e+002°)
3.85801368797995e+004	(-3.46875064249476e+000dB,1.18730839009145e+002°)	(2.92454101716519e+000dB,-1.77005709813450e+002°)
3.86690732803853e+004	(-3.54715046051579e+000dB,1.18438342538821e+002°)	(2.93482439110730e+000dB,-1.78239050127468e+002°)
3.87582147005484e+004	(-3.62510182932899e+000dB,1.18150908028897e+002°)	(2.94109455671134e+000dB,-1.79474729395151e+002°)
3.88475616129075e+004	(-3.70260533843268e+000dB,1.17868417021332e+002°)	(2.94333423593467e+000dB,1.79288385883251e+002°)
3.89371144911711e+004	(-3.77966181806628e+000dB,1.17590754168096e+002°)	(2.94153725207687e+000dB,1.78051435860618e+002°)
3.90268738101397e+004	(-3.85627232270224e+000dB,1.17317807152671e+002°)	(2.93570858679184e+000dB,1.76815561029139e+002°)
3.91168400457082e+004	(-3.93243811552964e+000dB,1.17049466613001e+002°)	(2.92586433409963e+000dB,1.75581895901805e+002°)
