#Digilent WaveForms Network Analyzer - Bode
#Device Name: Discovery2
#Serial Number: SN:210321A35FCC
#Date Time: 2018-10-27 22:09:25.102
#Start: 150267 Hz
#Stop: 155000 Hz
#Steps: 100
#Wavegen: Wavegen1
#Amplification: 1 X
#Settle: 10 ms
#MinPeriods: 16
#Channel: Channel 1
#Range: 5.42537 V
#Offset: 0.000183761 V
#Relative: no
#Channel: Channel 2
#Range: 5.47028 V
#Offset: -7.92091e-07 V
#Relative: yes

Frequency (Hz),Channel 1 Magnitude (dB),Channel 2 Magnitude (dB),Channel 2 Phase (°)
150266.69800000003,0.022156204119841292,-3.0288005815335977,-44.907205955443601
150313.77894427854,0.022914058906687542,-3.0289044922907764,-44.925465142284821
150360.87463976507,0.024967283999834732,-3.0321866829243755,-44.927574722857962
150407.98509108133,0.023932464364214812,-3.03175080219631,-44.940311414429615
150455.1103028506,0.023857217046760644,-3.0359565198828058,-44.940384490598319
150502.25027969756,0.026241845692229419,-3.0365975872544055,-44.950542019223484
150549.40502624834,0.023364479708510476,-3.0351204776764757,-44.965005777460917
150596.5745471305,0.025147055656765782,-3.039977083831932,-44.974793690119668
150643.75884697313,0.026132089172528093,-3.041206445796822,-44.983508757307334
150690.95793040664,0.025879946866661455,-3.0424987260790797,-45.011583903817012
150738.17180206304,0.024112179099176175,-3.0419829218938048,-45.004681908615893
150785.40046657567,0.026838079586576427,-3.0423431675605106,-45.012249458244071
150832.64392857935,0.027000206986608544,-3.0455181130891424,-45.033590983993747
150879.9021927104,0.025138214245203142,-3.0469770214950391,-45.031819726996957
150927.17526360654,0.0281207908445987,-3.0484365267410118,-45.041405504281535
150974.46314590701,0.026950469512852029,-3.050783512133254,-45.045775481327212
151021.76584425243,0.025787147182322192,-3.0496279188617992,-45.052722773046071
151069.08336328485,0.024609403824963794,-3.052802255741534,-45.063415658265299
151116.41570764792,0.026652776988463078,-3.0535203892874074,-45.074225116453249
151163.76288198659,0.026026119664739951,-3.054958965975596,-45.092561693455089
151211.12489094737,0.025539154569899372,-3.0564786816240019,-45.111781297208324
151258.50173917811,0.02711816397001697,-3.0578888826608086,-45.112585754857037
151305.89343132827,0.026256159906917795,-3.059519104701065,-45.119048363738244
151353.29997204867,0.025869343506692909,-3.0618201272903867,-45.126911473964661
151400.72136599157,0.025678842237321784,-3.0618999251939587,-45.128560930100193
151448.15761781071,0.025503170794495402,-3.0643242060124942,-45.158554207509312
151495.60873216134,0.026083825926095559,-3.0639137843530224,-45.156862294534335
151543.07471370013,0.024530667581598102,-3.0669685748458422,-45.174065780946194
151590.55556708516,0.025477000819874935,-3.0676958919085298,-45.165904694593337
151638.05129697607,0.025497986011394386,-3.0698430226095392,-45.173900650351015
151685.56190803388,0.026649590421629916,-3.0720558654102925,-45.193437437823199
151733.0874049211,0.023863740404524256,-3.0711838360962367,-45.200651051302174
151780.62779230168,0.024765617330891051,-3.0737358540788602,-45.207849822741096
151828.18307484104,0.02365693473749066,-3.0752309497279477,-45.206854361184938
151875.75325720612,0.025144311843478265,-3.078020910200967,-45.220733805037327
151923.33834406524,0.025083662553566324,-3.077402411206855,-45.227613755570999
151970.93834008821,0.025183777288914591,-3.0821238239921875,-45.243338766070451
152018.55324994633,0.025707230503812545,-3.0810226767226707,-45.257866127342496
152066.18307831232,0.024775154664616411,-3.0832527696966174,-45.267171286988926
152113.82782986038,0.025656081945200818,-3.0835044317646494,-45.274965128335907
152161.48750926621,0.026893426067818575,-3.0872266947918838,-45.278714938943267
152209.1621212069,0.024925195542981143,-3.0874536501643144,-45.290511496936965
152256.85167036112,0.024035264914836929,-3.087737384345508,-45.307180043993931
152304.55616140887,0.023768947063756551,-3.0875319914009456,-45.305364667677509
152352.27559903174,0.027289278226632022,-3.0925117216069387,-45.31356548094427
152400.00998791266,0.023175886912161353,-3.0940907226335952,-45.332043525909377
152447.75933273614,0.024933176502236379,-3.0935344195245,-45.339601715019135
152495.52363818811,0.023675207696961076,-3.0965084455472724,-45.355540292543211
152543.30290895599,0.025780600072870453,-3.0973815605979267,-45.350793558428848
152591.09714972859,0.024771459923166532,-3.0991436340241858,-45.360016252152619
152638.90636519634,0.025105218691585315,-3.0982858508387934,-45.375192683693626
152686.73056005099,0.024854568853923672,-3.1016188951101435,-45.390995586087243
152734.56973898583,0.026618802338071856,-3.1032913130558626,-45.393291154462148
152782.42390669559,0.025256385446346206,-3.1040730400178154,-45.40229981538306
152830.29306787654,0.025127655742844923,-3.105971654250625,-45.417044265778046
152878.17722722635,0.025234226943142389,-3.1073724169150383,-45.433159560353687
152926.07638944415,0.024464239689569938,-3.1113109009813789,-45.432035729800091
152973.99055923065,0.02319773846394594,-3.1084466458390891,-45.446436159297477
153021.91974128789,0.025666979590689094,-3.1129832712307932,-45.443282907580397
153069.86394031951,0.025552614898130734,-3.1150748988730506,-45.471121610487607
153117.82316103051,0.026658119976861214,-3.1157620135858348,-45.469689544975694
153165.79740812746,0.024166748586443361,-3.1164879130097454,-45.474592012030122
153213.78668631834,0.025629308887261046,-3.1188799713094473,-45.486055302683326
153261.79100031266,0.025821674286232214,-3.1198039552780226,-45.498487033776541
153309.81035482135,0.026746563872341342,-3.1213477431492387,-45.512368827989448
153357.84475455686,0.025597622554932989,-3.122990799311574,-45.516494358764731
153405.8942042331,0.027905975365333104,-3.1260121611180098,-45.517220716293693
153453.95870856545,0.025410189338757914,-3.1272446221562338,-45.544271508808151
153502.03827227076,0.02361725971438728,-3.127189978303937,-45.549646987953146
153550.1329000674,0.024525352649715313,-3.130002295824978,-45.55474253539947
153598.24259667515,0.025487693581619661,-3.1305735050384924,-45.561713751525268
153646.36736681534,0.024866495941746513,-3.1323196186306728,-45.578303953982527
153694.50721521073,0.02193236030148853,-3.1324411164280641,-45.587243850112444
153742.66214658559,0.02412598444954437,-3.1336130958806536,-45.594748867353864
153790.83216566563,0.025310551981239018,-3.1370375112797966,-45.602091076439933
153839.01727717809,0.026674121211645752,-3.1383137714101377,-45.612584817270204
153887.2174858517,0.024762527637213864,-3.1385168280635494,-45.6159474735515
153935.43279641657,0.026468246110902122,-3.1422837480691621,-45.618797044579992
153983.66321360442,0.024971851544395605,-3.1417235971835176,-45.653091964492965
154031.90874214837,0.02655467161783142,-3.1455059150845783,-45.652532679887386
154080.16938678303,0.024797720247447086,-3.1457205889815731,-45.664558988457657
154128.44515224456,0.025705416427904457,-3.1463505295798639,-45.672888198209307
154176.73604327053,0.025827981861947617,-3.1486550398909925,-45.667558187078583
154225.04206460001,0.023599805200999847,-3.1490081547151236,-45.681826616109319
154273.36322097358,0.023521148533503206,-3.1508582423627853,-45.691773598344142
154321.6995171333,0.022764085863699282,-3.1519269640813108,-45.6988999811661
154370.05095782268,0.024727240154226938,-3.1552158229135143,-45.718651347674594
154418.41754778672,0.025643952473404112,-3.154624076620836,-45.710484631845425
154466.79929177198,0.024267291075428327,-3.1576296076882797,-45.730924061539426
154515.19619452642,0.024160277509133462,-3.1587095601387194,-45.721559160704871
154563.60826079958,0.022681820777079274,-3.1585304876671287,-45.737616059962832
154612.03549534234,0.024052783359527992,-3.1620759655389961,-45.773538932358974
154660.47790290724,0.024278219100919842,-3.1626930005516334,-45.781542148037062
154708.93548824821,0.023213057119925957,-3.1644768153206422,-45.767609214435211
154757.40825612066,0.02050613767415619,-3.165036467264323,-45.783474805603234
154805.89621128151,0.021919324943710732,-3.1667538015213523,-45.805655913091726
154854.39935848923,0.020701521055058063,-3.1686243145832291,-45.791947410429799
154902.91770250371,0.019951267878094526,-3.170067163940153,-45.831884684452277
154951.45124808632,0.018654831749945783,-3.1722958339861211,-45.82989152232966
155000,0.019906092776508337,-3.1741101995034176,-45.839010712214886
