#Digilent WaveForms Network Analyzer - Bode
#Device Name: Discovery2
#Serial Number: SN:210321A35FCC
#Date Time: 2018-10-28 00:06:16.006
#Start: 145000 Hz
#Stop: 155000 Hz
#Steps: 2000
#Wavegen: Wavegen1
#Amplification: 1 X
#Settle: 10 ms
#MinPeriods: 16
#Channel: Channel 1
#Range: 5.42537 V
#Offset: 0.000183761 V
#Relative: no
#Channel: Channel 2
#Range: 5.47028 V
#Offset: -7.92091e-07 V
#Relative: yes

Frequency (Hz),Channel 1 Magnitude (dB),Channel 2 Magnitude (dB),Channel 2 Phase (°)
145000,-0.018007385144411123,-2.8032965268333392,-43.307612577486751
145004.83762411974,-0.019754461874256952,-2.8025032806522825,-43.310948329222583
145009.67540963672,-0.018134668878620554,-2.8061769158553007,-43.310296411237161
145014.51335655642,-0.018796728294849227,-2.8042531434730149,-43.301897514254733
145019.35146488415,-0.019904973066259407,-2.803998354896664,-43.323811268314685
145024.18973462534,-0.016691308560327522,-2.806142966408923,-43.311561609788086
145029.02816578536,-0.0190446777685001,-2.8062704185843161,-43.306133053594721
145033.86675836958,-0.020190130971515945,-2.8040973480024944,-43.328766987985659
145038.70551238343,-0.019277681636862696,-2.8049929415145414,-43.316539015848988
145043.54442783224,-0.018996508422626891,-2.8052128566255035,-43.332472316195052
145048.38350472145,-0.017760320017106104,-2.8075069010804921,-43.328003009556518
145053.22274305639,-0.019535629903124831,-2.8058237105818806,-43.337286796243021
145058.06214284248,-0.017598284923861441,-2.8072961391568665,-43.326611925809942
145062.90170408512,-0.017180540273489291,-2.8060866409653511,-43.32695423551543
145067.74142678967,-0.018309749457172137,-2.8075023679094251,-43.332508590026102
145072.58131096151,-0.01859431535692915,-2.8064404968641332,-43.327263144578112
145077.42135660606,-0.019759296283203245,-2.8048521713937467,-43.320154627614251
145082.26156372868,-0.018877233775949704,-2.8071736818308608,-43.342945908872935
145087.1019323348,-0.018209241551701609,-2.8076610820437233,-43.325646071626934
145091.94246242975,-0.019920735267933254,-2.8055044032201919,-43.331231362323742
145096.78315401892,-0.019780142962344014,-2.8067392178396089,-43.336537559536964
145101.62400710775,-0.019690099873328842,-2.8085836206466412,-43.336487533609102
145106.46502170159,-0.020542113487467907,-2.8064787728145868,-43.329389756007686
145111.30619780582,-0.020595075486510381,-2.8064149552078614,-43.342270109589592
145116.14753542587,-0.018408198612934627,-2.8078119801763624,-43.336933446432184
145120.98903456709,-0.019650193963396283,-2.8101715329165788,-43.34270362937815
145125.83069523491,-0.018827951834963608,-2.8084382680923614,-43.333643407682899
145130.67251743466,-0.021262100717861401,-2.8074511749901303,-43.337797324344663
145135.51450117177,-0.019240451074012472,-2.8083022646217755,-43.34060501392586
145140.35664645163,-0.017539675598657743,-2.810642251131755,-43.346195769216024
145145.19895327961,-0.018813794095777474,-2.8081025960010964,-43.34398893636876
145150.0414216611,-0.02014024315514195,-2.8075900115177861,-43.351006525766536
145154.88405160149,-0.018527475931947934,-2.8098780623946533,-43.343895537424729
145159.72684310621,-0.020460289384112307,-2.8095146788080156,-43.347831921103079
145164.56979618061,-0.018238501540196597,-2.8097052572712338,-43.355483574321894
145169.41291083008,-0.021940020538915823,-2.8101323152738136,-43.356986656610616
145174.25618706003,-0.017121130329411881,-2.8102810002583278,-43.351022624718311
145179.09962487585,-0.019155105385000832,-2.8109639750436899,-43.355880767444887
145183.94322428291,-0.018954372851044027,-2.8111388219596449,-43.355378557164983
145188.7869852866,-0.019096517060916668,-2.8097322113808736,-43.343228391345065
145193.63090789234,-0.017804585247916841,-2.8103959305528106,-43.363950310791679
145198.4749921055,-0.02013388146294039,-2.8116015027613011,-43.367391634859231
145203.31923793152,-0.020122188640193887,-2.8100343491290731,-43.351464240611222
145208.16364537569,-0.020476550910441232,-2.811048266217421,-43.346495439984317
145213.00821444349,-0.019534670983950342,-2.811589492328987,-43.359896397007859
145217.85294514027,-0.019165692203052677,-2.8099249407048053,-43.357179700270251
145222.69783747147,-0.019158263897352017,-2.8115953392120794,-43.365798426342167
145227.5428914424,-0.019683254168860582,-2.8107826345299665,-43.362795475067244
145232.38810705853,-0.019622506558907134,-2.8120901111540353,-43.371300382496202
145237.23348432523,-0.018488314047375422,-2.8145954470379579,-43.358217102292492
145242.07902324788,-0.0195354119298492,-2.8128909644531341,-43.35752237542637
145246.92472383188,-0.019853901169286967,-2.8118859063661796,-43.361947184432431
145251.77058608262,-0.019072112800236823,-2.8118169147099681,-43.375641416844587
145256.61661000553,-0.020586697058781044,-2.8109487088680747,-43.370664965473907
145261.46279560594,-0.017360523182128329,-2.815387235261313,-43.366346540685072
145266.30914288931,-0.018504836101401405,-2.812711807547938,-43.363596309580274
145271.15565186096,-0.019877473967190151,-2.8123253030724289,-43.383979180163237
145276.00232252633,-0.021450840154682238,-2.8123896139423805,-43.37673947483556
145280.84915489084,-0.019197848142733821,-2.8128941729836869,-43.365034386540856
145285.69614895983,-0.018507063005019048,-2.813947326109111,-43.368467771648127
145290.54330473873,-0.020026167073750642,-2.8113192831644889,-43.36423762187119
145295.3906222329,-0.021239546481236632,-2.8122940762423965,-43.389852634013295
145300.23810144779,-0.019510627754731693,-2.8133049613898544,-43.372645643098878
145305.08574238876,-0.018651661610630477,-2.8133694239825981,-43.37021102279482
145309.93354506121,-0.017568586461461137,-2.8164423981132911,-43.381204692879749
145314.78150947051,-0.020375167286505763,-2.8153010671955232,-43.382450337176465
145319.62963562211,-0.020252312659006642,-2.8137790764152704,-43.371605137910727
145324.47792352139,-0.020199366223928282,-2.8129641831889209,-43.387867168960867
145329.32637317374,-0.019862898596090098,-2.8138458346723021,-43.386235538208844
145334.17498458453,-0.017666947537758351,-2.8153228243903023,-43.378977729391735
145339.02375775916,-0.017796891770873929,-2.8152452877562966,-43.383022644017473
145343.87269270307,-0.018957254660254583,-2.8155148094583864,-43.38993727382843
145348.72178942163,-0.021145396760532231,-2.8128483742172343,-43.377417042379079
145353.57104792024,-0.020997613864207704,-2.8164230503705716,-43.373868683334379
145358.42046820431,-0.01888201159796574,-2.8145872654667627,-43.387772479456842
145363.27005027918,-0.022808484099426613,-2.813346951576583,-43.390725268829783
145368.11979415035,-0.018643894877783448,-2.815600913526624,-43.392647139740333
145372.96969982312,-0.019162094635003162,-2.8144197579663457,-43.384030613712852
145377.81976730295,-0.019778901137613752,-2.8165060771577526,-43.394184575032483
145382.66999659521,-0.01879539009710968,-2.8171135110516827,-43.392066191448663
145387.52038770533,-0.019382317067809407,-2.8157804946038989,-43.38990202906416
145392.37094063865,-0.018219325951624208,-2.816927909296409,-43.404853764628839
145397.22165540062,-0.019816415503669232,-2.8158619950720771,-43.396092431019198
145402.07253199661,-0.020286943010195953,-2.8163689717131914,-43.396196013323021
145406.92357043203,-0.0203548484484554,-2.8158052666594124,-43.401583870957495
145411.77477071231,-0.019805959300160731,-2.8178011328537051,-43.399176540819923
145416.62613284279,-0.021970432953922928,-2.8155375836359182,-43.39397695950646
145421.47765682891,-0.019692017640452704,-2.8176082948029482,-43.398073396697185
145426.32934267606,-0.020104851691965096,-2.8151425157094168,-43.389478501085975
145431.18119038965,-0.018975509107005767,-2.8159051510738125,-43.406097140912422
145436.03319997506,-0.019197305269995239,-2.8170599192727348,-43.395278299878612
145440.8853714377,-0.017787477703573362,-2.8187496308121949,-43.40054579572751
145445.73770478301,-0.017900767431932276,-2.8176834907095207,-43.408523930435209
145450.5902000163,-0.019522959062988319,-2.8177007150578599,-43.399006227162751
145455.44285714306,-0.01890365626894798,-2.8180369413375379,-43.406227333598061
145460.29567616864,-0.019792240634092913,-2.818505585493396,-43.408758463102899
145465.14865709847,-0.020318747798379333,-2.8171412166264718,-43.419884494779467
145470.00179993792,-0.020863527088210539,-2.8197858063721593,-43.408736904648819
145474.85510469243,-0.019932707352172389,-2.818260053220258,-43.411825591785373
145479.70857136737,-0.019449377294594082,-2.818305640100875,-43.42051213362064
145484.56219996815,-0.019308762059459326,-2.8201492344660419,-43.400182381723049
145489.41599050019,-0.018747594388916218,-2.8190254331888607,-43.412860082426292
145494.26994296885,-0.017654026018445328,-2.8177043008984288,-43.421529210310354
145499.12405737961,-0.019755585471428701,-2.8200440263870008,-43.423990400434377
145503.97833373779,-0.0187582704120073,-2.820580964940711,-43.422560426635151
145508.83277204883,-0.017519221038153,-2.8190936025556095,-43.413143244882633
145513.68737231815,-0.016233866245332025,-2.820808508899046,-43.427426076410214
145518.54213455113,-0.018872088577206958,-2.8191283138476377,-43.413367807916671
145523.39705875315,-0.017133145132944359,-2.819867482298632,-43.418912766821336
145528.25214492966,-0.018773079806251345,-2.8191796842555621,-43.425978183224025
145533.10739308604,-0.018548293490790103,-2.8206301285005835,-43.42368381041733
145537.96280322774,-0.019009607122608317,-2.8196082013610457,-43.414263567798585
145542.81837536008,-0.020509897004425424,-2.8198299838132153,-43.419971300635623
145547.67410948852,-0.0197597728052607,-2.8215119823963519,-43.431790436599854
145552.53000561846,-0.02024770435465997,-2.8205210675976895,-43.421616336466883
145557.38606375529,-0.019213359448465469,-2.8211941347896525,-43.424132707283356
145562.24228390443,-0.017748218939666209,-2.8232753457606456,-43.420929711230073
145567.09866607128,-0.019458707710334339,-2.8203107595152073,-43.417420981237122
145571.95521026122,-0.01732555717498023,-2.822730889343152,-43.420183774264189
145576.81191647972,-0.017317418247095671,-2.8216204857959752,-43.423247159773233
145581.66878473212,-0.021081271154397743,-2.8212274771073491,-43.430253453146655
145586.52581502387,-0.020451430220596804,-2.8205951158660336,-43.435488893474542
145591.38300736033,-0.02052832536076539,-2.8200888811362281,-43.432073652507214
145596.24036174692,-0.018638797956770287,-2.8217898020661281,-43.435315549376796
145601.09787818912,-0.018892539704905124,-2.8214802156375045,-43.416335612136336
145605.95555669221,-0.018876494723117827,-2.8207813594441515,-43.434196183555741
145610.81339726172,-0.020436250972634656,-2.8227269691201649,-43.424262097014854
145615.67139990296,-0.02159642154672381,-2.8193022756763075,-43.43693293633649
145620.52956462139,-0.01919864046362094,-2.8218134764854517,-43.442312588934698
145625.3878914224,-0.02128288423276857,-2.8214001250438474,-43.430126149382261
145630.24638031141,-0.018462408899671146,-2.8237970438493654,-43.432966374658079
145635.10503129385,-0.020030075708599191,-2.8229918699251488,-43.443127481310555
145639.96384437507,-0.022289301546573295,-2.8222295124668313,-43.435448981632447
145644.8228195605,-0.019941544155536943,-2.8226178393457619,-43.430566102320185
145649.68195685555,-0.020739164952085554,-2.82412043163573,-43.440633449332452
145654.54125626563,-0.019225901175587513,-2.8251429340014007,-43.441991531060708
145659.40071779618,-0.021013111510657243,-2.822507188914738,-43.426713620253224
145664.26034145255,-0.020127326829478528,-2.824061573585483,-43.447523823672071
145669.1201272402,-0.018783883196785103,-2.8240206235349463,-43.455164539121078
145673.98007516452,-0.020294765775421445,-2.8232810351128554,-43.435004427984587
145678.84018523089,-0.019541068925693472,-2.8219401398816761,-43.441090048072027
145683.70045744479,-0.019319090258713662,-2.8239527991850184,-43.446600521604907
145688.56089181156,-0.017910956769215849,-2.8244138086382908,-43.45064075318453
145693.42148833664,-0.021762901098961607,-2.82301189691835,-43.456632597178896
145698.28224702543,-0.019319049650207934,-2.8236268106693374,-43.456553269761514
145703.14316788336,-0.02018293779112193,-2.8238375874651958,-43.446090143349124
145708.00425091584,-0.019584594411827111,-2.8240029408571923,-43.45712634583731
145712.86549612824,-0.020212878568960209,-2.8251709064199049,-43.458633193236537
145717.72690352603,-0.020562768414384012,-2.8253096013674344,-43.463971230714549
145722.58847311456,-0.019851903469138288,-2.8243852342119986,-43.44949843049951
145727.45020489927,-0.019678249694805951,-2.8231309101486435,-43.447023534168125
145732.3120988856,-0.018594416115642755,-2.8244586368549109,-43.45126423679028
145737.17415507892,-0.019710867938288829,-2.8270188142653163,-43.447653441590901
145742.03637348465,-0.019822631856653242,-2.8240174465632406,-43.457648335211246
145746.8987541082,-0.020969698062288517,-2.8254226190470759,-43.464917895584136
145751.76129695502,-0.020756819740065248,-2.824267509702802,-43.459636040851137
145756.62400203047,-0.020501290206528702,-2.8263794666241431,-43.4540845369024
145761.48686934001,-0.01977779692033324,-2.8244482336442904,-43.465721618790582
145766.34989888899,-0.018946013023514643,-2.8253091082965898,-43.457598496822982
145771.2130906829,-0.020640474849057708,-2.8269520322535815,-43.454042934236853
145776.07644472708,-0.019689196075289326,-2.8276156918348718,-43.453399504479606
145780.93996102698,-0.018840390940904249,-2.8259982800928345,-43.450870275079048
145785.803639588,-0.020197863809781072,-2.8268124292976622,-43.461032307018328
145790.66748041558,-0.019359133879690245,-2.8259747820430556,-43.476339689970054
145795.53148351514,-0.020532186826111468,-2.8258499553402801,-43.473202155785486
145800.39564889204,-0.019792963853063981,-2.8261757539177772,-43.460418607876576
145805.25997655172,-0.021228755706461797,-2.8244044178581538,-43.455051794104946
145810.12446649963,-0.020961977352357209,-2.8260722251196109,-43.473794833111654
145814.98911874113,-0.019200035533473311,-2.8253892747241416,-43.469134965557657
145819.85393328164,-0.020543923087431862,-2.8271204201612559,-43.475844085940373
145824.71891012663,-0.01963506661605411,-2.8271397128518867,-43.475985697646649
145829.58404928146,-0.021035877451432882,-2.8265136505678106,-43.474159368570831
145834.44935075156,-0.019177303399700626,-2.8259790985060942,-43.474533899165948
145839.31481454236,-0.021308339926948985,-2.8272545683292503,-43.490428724196917
145844.18044065926,-0.018374382570390164,-2.8296150729000908,-43.472946944428685
145849.04622910765,-0.020525677824006362,-2.8279245651562332,-43.464318312409787
145853.912179893,-0.018626587385286605,-2.8291410256861385,-43.476363149012784
145858.7782930207,-0.02201812774186325,-2.8257593952316853,-43.476229249173116
145863.64456849618,-0.021662942010055773,-2.8281116470867387,-43.472316750603184
145868.51100632481,-0.021137391981241784,-2.8283850578453884,-43.485472745213769
145873.37760651208,-0.021390806434070552,-2.828513844066221,-43.480673671326457
145878.24436906335,-0.020160769886817215,-2.8291758088352599,-43.485192455671481
145883.11129398402,-0.018831505841761811,-2.8274319279921789,-43.4903441128452
145887.97838127959,-0.020214366127211801,-2.8290998219183967,-43.4849375945372
145892.84563095542,-0.020748366351416671,-2.827303409645002,-43.48650393889401
145897.71304301691,-0.018337633408175902,-2.8299095594150732,-43.492124433711396
145902.58061746953,-0.021600984689713051,-2.8300399871964084,-43.486627304189042
145907.44835431865,-0.020620581790327924,-2.8291104266659746,-43.493046272779821
145912.3162535697,-0.020495096301597335,-2.8292450019948934,-43.490461650126768
145917.18431522814,-0.017676603337356742,-2.8298376984494893,-43.489195270738129
145922.05253929936,-0.020125574798605939,-2.8295366615089512,-43.48780580327761
145926.92092578876,-0.020196913389048599,-2.8290485090064892,-43.493243508464346
145931.78947470174,-0.018750275605532073,-2.8303763940411617,-43.489207793441125
145936.65818604379,-0.020522232229875655,-2.8297241402384552,-43.489847151571936
145941.52705982028,-0.018683147783523497,-2.8306886013955856,-43.49093231088176
145946.39609603665,-0.021964371995000183,-2.8311417047596881,-43.500175936471379
145951.2652946983,-0.01912019378070505,-2.8295496786073153,-43.48705805040359
145956.13465581066,-0.01736591962061167,-2.8291822381492664,-43.495508855243699
145961.00417937915,-0.02086275307745112,-2.8314485780090024,-43.48935138541168
145965.8738654092,-0.021858027804623186,-2.8295101048833042,-43.490973249114802
145970.74371390621,-0.019182878783297889,-2.8322544915107883,-43.502034072941967
145975.61372487561,-0.021497315254482827,-2.8302298899033849,-43.490926200007877
145980.48389832283,-0.021754376112499557,-2.8301208548197261,-43.500437290405721
145985.35423425326,-0.021602478736663398,-2.8322546726045648,-43.506009465916875
145990.22473267236,-0.020265405889543852,-2.8326623562299238,-43.502797277539628
145995.09539358554,-0.021393385705881177,-2.8300268451305497,-43.50341274796439
145999.9662169982,-0.020825911550421516,-2.8313399368326602,-43.507595046573641
146004.83720291578,-0.022120315472689195,-2.8312346504092298,-43.498727422932575
146009.7083513437,-0.020736787339577893,-2.8297297767054221,-43.496662692433404
146014.57966228737,-0.021476614966936366,-2.8317390915240255,-43.50025736347331
146019.45113575223,-0.019601635682255078,-2.8322784859877688,-43.513940088046212
146024.3227717437,-0.019665540841670721,-2.8299502148073379,-43.510987505099386
146029.19457026717,-0.019722491640005967,-2.8307823382854345,-43.505449370747456
146034.06653132811,-0.019155691577869418,-2.832996776095722,-43.509372622381065
146038.93865493193,-0.019278845671347931,-2.833101688629637,-43.503032099804386
146043.81094108403,-0.020763161776366855,-2.8335053560894439,-43.507419975497641
146048.68338978983,-0.020860047155426109,-2.8329861073718781,-43.502763177019688
146053.55600105479,-0.020415430512997886,-2.833042742413816,-43.514496118561595
146058.42877488435,-0.021177669834693991,-2.8314894029705728,-43.50864377375305
146063.30171128383,-0.021800215039363486,-2.8312640056435843,-43.511312991105015
146068.17481025876,-0.01947426669396304,-2.831790786707713,-43.519065111659756
146073.04807181453,-0.020188072441897426,-2.8310905081349738,-43.529919006795197
146077.92149595654,-0.018379025928960967,-2.8348747027785448,-43.500721878220183
146082.79508269025,-0.021017006403892376,-2.8324073843317352,-43.514522523692634
146087.66883202104,-0.022665957002178889,-2.8323870946126286,-43.524690392199204
146092.5427439544,-0.020337738968158967,-2.833318690484314,-43.511552641581261
146097.41681849569,-0.017574418526173807,-2.8336719238721564,-43.510484302263087
146102.29105565036,-0.020862352488327206,-2.8327253243021158,-43.525666079839567
146107.16545542388,-0.020919076102557662,-2.8340977089247805,-43.525880620472577
146112.04001782159,-0.02151287013128881,-2.8340332713996985,-43.523532568571454
146116.91474284898,-0.020642622752361874,-2.8342645550276524,-43.523600268278749
146121.78963051146,-0.022163495901515978,-2.832666806999983,-43.527274552209661
146126.66468081443,-0.020225347513856108,-2.8337590369648122,-43.521647550584873
146131.53989376337,-0.020065184770664324,-2.8341468501545815,-43.524483660092926
146136.41526936364,-0.020183919002165727,-2.8366140588516426,-43.52472654455903
146141.29080762074,-0.020468546782326145,-2.8345720901832778,-43.526617896025641
146146.16650854002,-0.019791522990987048,-2.834597232655065,-43.521958924701337
146151.04237212695,-0.02219731252350924,-2.8364566309293595,-43.528063872509534
146155.91839838694,-0.020923914353665089,-2.8359076354578932,-43.533243668436938
146160.79458732545,-0.020238515619599724,-2.8352447949583315,-43.52063434243113
146165.67093894788,-0.020327040309550088,-2.8356836358952311,-43.52361564929511
146170.54745325967,-0.020575940303148868,-2.8358054858372039,-43.524197065280674
