#Digilent WaveForms Network Analyzer - Bode
#Device Name: Discovery2
#Serial Number: SN:210321A35FCC
#Date Time: 2018-10-28 00:42:55.356
#Start: 400000 Hz
#Stop: 500000 Hz
#Steps: 1000
#Wavegen: Wavegen1
#Amplification: 1 X
#Settle: 10 ms
#MinPeriods: 16
#Channel: Channel 1
#Range: 5.42537 V
#Offset: 0.000183761 V
#Relative: no
#Channel: Channel 2
#Range: 5.47028 V
#Offset: -7.92091e-07 V
#Relative: yes

Frequency (Hz),Channel 1 Magnitude (dB),Channel 2 Magnitude (dB),Channel 2 Phase (°)
400000,-0.18158341361844074,-2.3142994558842496,-39.386117950048629
400089.35674659204,-0.18245426740152915,-2.3178371869245913,-39.423770281364
400178.7334547544,-0.18121038393026656,-2.3187259079571763,-39.42945583227457
400268.1301289465,-0.17964093781688384,-2.3181157225178168,-39.424108162614175
400357.54677362851,-0.18230432963030505,-2.3192326627288202,-39.442915139291927
400446.98339326162,-0.18204782706417338,-2.3198033400665636,-39.43827616929795
400536.43999230809,-0.18024255968734165,-2.3214553574042487,-39.458097674770755
400625.9165752313,-0.18152023003164872,-2.3210284128596701,-39.447216454809379
400715.4131464953,-0.18313467474862205,-2.3213772439933344,-39.449994411198617
400804.92971056543,-0.18351430477510994,-2.3229485852181817,-39.460601300211202
400894.46627190785,-0.18154784318700967,-2.3238204033866854,-39.470804813934649
400984.02283498977,-0.18237611175100932,-2.3214246298137904,-39.452265952278822
401073.59940427961,-0.18303369054361979,-2.3236641939040363,-39.476044485983351
401163.19598424638,-0.18230672186999769,-2.3261027448967813,-39.477474499182406
401252.81257936038,-0.18236310864469973,-2.3236907232833617,-39.476237347679877
401342.44919409283,-0.18177790752102774,-2.3267884834116828,-39.478905626766647
401432.10583291599,-0.18342700965755737,-2.3263379290214572,-39.489240894239096
401521.782500303,-0.18311714907756987,-2.3271015991711814,-39.499770569339688
401611.47920072812,-0.18379183692132675,-2.3282832047879038,-39.507162570997949
401701.19593866658,-0.18541052690356241,-2.3286687138277462,-39.510558555487556
401790.93271859462,-0.18251873559010356,-2.3307341257172185,-39.503976674024557
401880.68954498932,-0.18219961073330415,-2.3294871368675869,-39.512468319681446
401970.46642232907,-0.18210161224086258,-2.3315231978341986,-39.522921824595571
402060.26335509302,-0.18413312993614095,-2.331768385856607,-39.536809057049346
402150.0803477614,-0.18320152872337681,-2.3319750094072638,-39.535935361527379
402239.91740481532,-0.18536535914516314,-2.332010997654991,-39.542318048919839
402329.77453073714,-0.18428161290165185,-2.3342873295765778,-39.54803994784627
402419.65173001011,-0.18391376386689867,-2.3367340453355299,-39.560005443506654
402509.54900711827,-0.1836204445227595,-2.3343954455186164,-39.561748800168658
402599.46636654704,-0.18382117950025639,-2.3366507706566413,-39.577180341333033
402689.40381278249,-0.18564809638563537,-2.3356848388445668,-39.576716369466965
402779.36135031196,-0.18541036809912465,-2.3370710700524362,-39.583012432726989
402869.33898362366,-0.18467426328181422,-2.3390550773164138,-39.594859162083424
402959.33671720681,-0.18496359764242193,-2.3401205035821264,-39.594899493618911
403049.3545555516,-0.18347937408475418,-2.3413110454457278,-39.613465042436651
403139.39250314934,-0.18439082708715371,-2.3416207471804835,-39.600143632104945
403229.4505644922,-0.1849560161506518,-2.343120403733062,-39.629142402102914
403319.52874407358,-0.1846962565219992,-2.3422031615964616,-39.625532926056536
403409.62704638753,-0.18419355007246452,-2.3429282616426201,-39.612407476391354
403499.74547592941,-0.18438878763934627,-2.3435726638784624,-39.623366371236337
403589.88403719553,-0.18496755538852935,-2.3436319073075742,-39.620971869389663
403680.04273468303,-0.18415432359430045,-2.3484253575764487,-39.64324190252637
403770.2215728903,-0.18412892020608296,-2.349904402247573,-39.659394555745507
403860.4205563165,-0.18514969401477385,-2.3490783411318921,-39.667169007077575
403950.63968946197,-0.18571496623195521,-2.3485458654060958,-39.658975809270629
404040.87897682801,-0.18440898121984822,-2.3485496544332269,-39.655998805417013
404131.13842291688,-0.18407599191302898,-2.3494099991649184,-39.673969759792726
404221.41803223186,-0.18497005038173053,-2.3509789807995287,-39.678297488064274
404311.7178092773,-0.1858858859310496,-2.3502851385582026,-39.679596121532413
404402.03775855841,-0.18542801224817396,-2.3519022098466831,-39.689511480896044
404492.37788458163,-0.18649652151342264,-2.3534626704832089,-39.698285540917567
404582.73819185427,-0.18474784439103467,-2.3539492947002456,-39.699795640600087
404673.11868488451,-0.18721819619425933,-2.3547085818838744,-39.711209556764111
404763.51936818182,-0.18464153496589392,-2.3569073271732681,-39.732415392836131
404853.94024625653,-0.18607017656536984,-2.3560036080777973,-39.732449247068935
404944.38132361992,-0.18542522618809609,-2.3579528121181448,-39.735976833666399
405034.84260478441,-0.18445451327172652,-2.3590761718352353,-39.733415866016884
405125.32409426331,-0.18607234017206623,-2.3602834412555311,-39.75579676221912
405215.82579657104,-0.18557682295620115,-2.3607188436688258,-39.757918746756623
405306.34771622304,-0.18491603395531517,-2.3604632385473465,-39.755392489233131
405396.88985773554,-0.18564074617119949,-2.3611041612973747,-39.756684530543311
405487.45222562604,-0.18708927459871161,-2.3633784974757504,-39.759133164499531
405578.03482441296,-0.18546221436884666,-2.3640176068132011,-39.781361118126483
405668.63765861571,-0.18638256904130029,-2.3642489722203166,-39.790365142384239
405759.26073275466,-0.18737599479144568,-2.365142254256511,-39.801629956656143
405849.9040513513,-0.18646929243235094,-2.3646635555375237,-39.79516971885495
405940.56761892803,-0.18675970106587297,-2.3674903644022747,-39.801297207768044
406031.25144000846,-0.18554365667109901,-2.3689387189300497,-39.81484110241999
406121.95551911683,-0.18756841313357139,-2.3690111824374864,-39.815507863121454
406212.67986077874,-0.18594731540787496,-2.3681366805046711,-39.814952582508077
406303.42446952075,-0.18697776034924846,-2.3722420801430273,-39.834775569836452
406394.1893498702,-0.18676127469572149,-2.3713739835793333,-39.837568745221375
406484.97450635571,-0.18897618179205991,-2.37021360415185,-39.839780631638064
406575.77994350676,-0.18837973214231959,-2.370795051118419,-39.842516023371175
406666.60566585389,-0.18499796995721057,-2.373313050041105,-39.849289136916994
406757.45167792868,-0.18901119602135907,-2.3736139268899419,-39.856312942737418
406848.3179842637,-0.18779059123939931,-2.3757829083573654,-39.870969865587796
406939.20458939247,-0.18872576566008462,-2.3753673384548111,-39.87954205725849
407030.11149784958,-0.18762159956645011,-2.3776666876447097,-39.889904273621767
407121.03871417063,-0.18764451895358689,-2.3795685251735508,-39.886759853106078
407211.98624289228,-0.1907034192499017,-2.3774370628741299,-39.886231973162012
407302.95408855216,-0.19070153860470296,-2.3789092937414114,-39.902602632236736
407393.94225568883,-0.19132216924545847,-2.3795816963058809,-39.900480919491528
407484.95074884192,-0.19071494288355637,-2.3803772678749797,-39.906579790556748
407575.97957255226,-0.19338376634644067,-2.3810288463656173,-39.910381060916237
407667.02873136138,-0.19334111550952998,-2.3814504337165276,-39.92108326148724
407758.09822981205,-0.19209085785842697,-2.3835675590473984,-39.931904968636957
407849.18807244796,-0.1931473110688087,-2.3836804286115654,-39.927293616319943
407940.29826381383,-0.19534931323930765,-2.3835659609569415,-39.929100533987423
408031.42880845541,-0.19421116244484388,-2.3854526553549857,-39.937628443934145
408122.57971091947,-0.19455368929020395,-2.3868648448926364,-39.956480684820136
408213.75097575376,-0.19641027022238813,-2.3869468063493704,-39.968135071177116
408304.94260750699,-0.19586940789853619,-2.389364324370356,-39.958082000956367
408396.15461072908,-0.19780731352571673,-2.3893055641037471,-39.968191580392983
408487.38698997081,-0.19937066345062593,-2.3900991490770189,-39.987500771262482
408578.63974978408,-0.20162221975694242,-2.3893487555210977,-39.981696286441831
408669.91289472173,-0.20075832284554584,-2.3913027162098546,-39.989322199873186
408761.20642933744,-0.20257728155704077,-2.3920125860195491,-39.985071292029403
408852.52035818633,-0.20422888154458865,-2.3928553057724806,-40.011001017921956
408943.85468582425,-0.20353240916480014,-2.3942248855174482,-40.017146654836367
409035.20941680798,-0.202938972728822,-2.3953571471826014,-40.012307971218689
409126.58455569565,-0.20187467875511256,-2.3953391261672916,-40.008672266281991
409217.9801070462,-0.20036613004212941,-2.3972877648607001,-40.03889294404803
409309.3960754195,-0.20020317015350761,-2.3970164577249156,-40.027632129762871
409400.83246537659,-0.19952672203218436,-2.3992615084146491,-40.056003234113945
409492.28928147949,-0.19683083431592541,-2.401213450201015,-40.059615336946621
409583.76652829128,-0.19761804941073655,-2.4007812198614791,-40.058624606900551
409675.2642103759,-0.19760506644760925,-2.4017763273548529,-40.070655683693644
409766.78233229858,-0.19524216148953449,-2.4037432002982735,-40.080711314170458
409858.32089862536,-0.19506512689784739,-2.403768905511515,-40.07387126464954
409949.87991392321,-0.19496462374397344,-2.4032731490665507,-40.084060886670592
410041.45938276051,-0.19545079136864729,-2.4050659859838905,-40.089606382112947
410133.05930970615,-0.1955084887570234,-2.4071372556558388,-40.105630722555617
410224.67969933053,-0.19187821912104691,-2.4097649221894768,-40.112906404134797
410316.32055620477,-0.19229357154383817,-2.4081095934305266,-40.10563039471959
410407.981884901,-0.19313932493481895,-2.4087044477346935,-40.111051517539281
410499.66368999257,-0.19211172818704589,-2.4090028911778085,-40.115476677308664
410591.3659760537,-0.19254959071991953,-2.4107009194233893,-40.139883393737421
410683.0887476597,-0.18933769653743268,-2.4113940212633516,-40.13596638733307
410774.8320093868,-0.19309234744737433,-2.4096953922760127,-40.13415811728062
410866.59576581244,-0.19197593997961648,-2.4101779128681899,-40.1253483239133
410958.38002151478,-0.19260445952962657,-2.4111828180604231,-40.146268141459743
411050.18478107342,-0.19107965255397205,-2.4127308706733905,-40.144068015977496
411142.01004906866,-0.19201476094957276,-2.4126743943214417,-40.151092433743898
411233.8558300818,-0.19144178347194446,-2.4142869603070127,-40.148063556419118
411325.72212869552,-0.18974150397148781,-2.4142004145902858,-40.164999807679408
411417.60894949309,-0.18961757896639272,-2.4166515049769921,-40.165216809766733
411509.51629705908,-0.19033835783368216,-2.4148868641343553,-40.17414916815207
411601.44417597895,-0.19308024040551008,-2.4164921383757694,-40.188205029957231
411693.39259083924,-0.18999454431752394,-2.4185965711444899,-40.185159777291062
411785.36154622765,-0.19117788570807609,-2.4181050454161981,-40.189620742015855
411877.35104673263,-0.19083697905623098,-2.4191300161641509,-40.19679147114163
411969.36109694385,-0.1919717195621814,-2.4198584812259099,-40.204242578319032
412061.39170145185,-0.18963245847936849,-2.423296440035708,-40.221219322271274
412153.44286484842,-0.18988971411180877,-2.4237316304826435,-40.232901483310755
412245.51459172607,-0.19087548924042907,-2.4232596308526468,-40.232052782120945
412337.60688667878,-0.19011176613219088,-2.4245156652085993,-40.229461700490106
412429.71975430107,-0.19132792456517328,-2.4234704918594763,-40.242042608481341
412521.85319918883,-0.18980282629830619,-2.4279613899166179,-40.250178163278207
412614.00722593884,-0.18819884750401533,-2.4281652310140895,-40.264835605821816
412706.18183914881,-0.19075663868800741,-2.4278121397647832,-40.269463670900258
412798.37704341771,-0.19060952599950354,-2.4285267780977935,-40.282356876442535
412890.59284334537,-0.19086171159775026,-2.4291123871391336,-40.277907753098077
412982.82924353267,-0.19083954628561922,-2.4301753669779793,-40.287194160061595
413075.08624858159,-0.19286731350478256,-2.4309287605666801,-40.294137439944748
413167.36386309506,-0.19065597239999832,-2.4329657937634654,-40.286919910418781
413259.66209167708,-0.19227331043303131,-2.4318827848271511,-40.310311262203001
413351.98093893268,-0.19161922303764684,-2.4356005831559595,-40.314326082451515
413444.32040946785,-0.19057960936294982,-2.4370330934048812,-40.320585948269581
413536.6805078896,-0.19123675727128434,-2.4392677270769032,-40.351642997796866
413629.06123880629,-0.19178731975811619,-2.4389554462736021,-40.347355332846874
413721.4626068268,-0.19309349531961978,-2.4397690914420918,-40.347390670283545
413813.88461656135,-0.1921870228497968,-2.4400242377041459,-40.371719151184394
413906.32727262122,-0.19391884310535026,-2.4418459248944706,-40.3699809411833
413998.79057961854,-0.19052329213768943,-2.4448396836963253,-40.372174208691703
414091.27454216656,-0.19301478711894626,-2.446907349833118,-40.396674886717051
414183.77916487964,-0.1920746941002768,-2.4446556687810945,-40.386995778433999
414276.30445237306,-0.19113605855626065,-2.4454778109807833,-40.403483897394608
414368.8504092631,-0.19263886496021454,-2.446666673219525,-40.391947719110291
414461.4170401672,-0.19261841177463107,-2.4461404467521941,-40.42036888304176
414554.00434970378,-0.19108547607641652,-2.4490455855140887,-40.422103827569529
414646.61234249221,-0.19392919823668231,-2.4508435156103681,-40.439504636936533
414739.24102315301,-0.19262053710911581,-2.4507020984403196,-40.448114428791897
414831.89039630769,-0.19205887994146742,-2.4531240984039191,-40.44051639459164
414924.56046657875,-0.19180042175374543,-2.4553578981715543,-40.458306602174375
415017.25123858982,-0.19352449273034322,-2.4562831633426634,-40.467982277315627
415109.96271696535,-0.19337992737287124,-2.4556796425749621,-40.472269494268957
415202.69490633119,-0.19233607481670062,-2.4553586905418583,-40.472169942218194
415295.44781131385,-0.19339015458600642,-2.4563865740227993,-40.481687242589544
415388.22143654106,-0.19397047220044084,-2.4583739421665158,-40.492538580233557
415481.01578664157,-0.19286499085480996,-2.4574627307027521,-40.49404081546038
415573.8308662452,-0.1933040610701976,-2.4602511496042365,-40.513950090744984
415666.66667998262,-0.19292216212098773,-2.4594141924469177,-40.502423456024403
415759.52323248581,-0.19495889578705,-2.4619315942922255,-40.526097897367322
415852.40052838763,-0.19482508404575194,-2.4626774910914326,-40.531380253481196
415945.29857232183,-0.19254591371802704,-2.4639688633113312,-40.528762767894492
416038.21736892348,-0.19265561029063796,-2.4655982347903245,-40.528081919359643
416131.15692282852,-0.19518889157009539,-2.4654131132603676,-40.539923407895117
416224.11723867402,-0.19278391827239225,-2.4660237283151161,-40.539469109126479
416317.09832109796,-0.19478470337728176,-2.4658848108150986,-40.546854598576601
416410.10017473949,-0.19184129769436314,-2.4665819888564195,-40.556574040433603
416503.12280423869,-0.19369300188833885,-2.4694669045967412,-40.574007691405484
416596.1662142367,-0.1933142341099596,-2.4708083422142151,-40.576173385033094
416689.23040937568,-0.19563263817980733,-2.4705891184069126,-40.590560735649134
416782.31539429893,-0.19442015556595937,-2.4723224111377,-40.588865579115051
416875.42117365071,-0.19551965989723485,-2.4722530377301895,-40.60051280185715
416968.54775207635,-0.19452912929937446,-2.4725695565355186,-40.602700204327576
417061.69513422222,-0.19520206732527118,-2.4730304962065279,-40.61177605081572
417154.86332473555,-0.19287162500024785,-2.4742301421738571,-40.613674626902579
417248.05232826492,-0.19413034703426149,-2.4757282854433673,-40.611601437134496
417341.26214945968,-0.19468958638731443,-2.4783774960966891,-40.635416832099367
417434.49279297033,-0.19402432550234727,-2.4796322675353486,-40.638821984563606
417527.74426344852,-0.19223876961978539,-2.4813209692789622,-40.642666638387709
417621.01656554674,-0.19328610214849193,-2.4804342685551699,-40.656408210705152
417714.30970391858,-0.19309082740559896,-2.4804441865028655,-40.662186150635662
417807.62368321873,-0.19580388680168551,-2.4788297936229613,-40.650247427590266
417900.95850810292,-0.19420066679317816,-2.481527350257231,-40.662784446351353
417994.31418322783,-0.19629007477833987,-2.4814761149264744,-40.667331092263765
418087.69071325124,-0.19357462388558566,-2.4835300160227773,-40.677366175241666
418181.08810283203,-0.19581885191106213,-2.4840427020768652,-40.68324638192091
418274.50635663001,-0.19399968658712802,-2.4853244916616783,-40.689691824360153
418367.94547930598,-0.19500692447046222,-2.4861443041602609,-40.685301428501269
418461.40547552204,-0.19595264080515931,-2.4850058646108977,-40.693850497533347
418554.88634994102,-0.195913373491193,-2.4867917336376935,-40.707353749286412
418648.3881072271,-0.19476635926531133,-2.4877404182041158,-40.700129379700456
418741.91075204528,-0.19594901379020532,-2.4881671679678634,-40.711711104218153
418835.45428906154,-0.19436903035792896,-2.489051464511697,-40.726917415345838
418929.0187229432,-0.19614867918062454,-2.4890470174134394,-40.734520949867125
419022.60405835835,-0.19565366747968119,-2.4902381486810943,-40.728230620778398
419116.21029997623,-0.19714594365698868,-2.4903901547416538,-40.73320461343237
419209.83745246718,-0.1970745848256247,-2.4914328172080848,-40.754681038343392
419303.48552050249,-0.19694864750511312,-2.4921363909000318,-40.731567946034119
419397.15450875455,-0.1970624240748507,-2.4933310546282139,-40.743632587445489
419490.84442189662,-0.19785088739216611,-2.4948823927431518,-40.773548986487825
419584.55526460329,-0.19874399788795283,-2.4955178788875676,-40.772944771845431
419678.28704155009,-0.19899360173512873,-2.4944271262490307,-40.777269496465095
419772.03975741344,-0.20025288201301183,-2.4971902332690208,-40.770055580211782
419865.81341687095,-0.19950372953876144,-2.4966215895575927,-40.787140924191114
419959.6080246013,-0.20078442147939832,-2.4983128916908557,-40.778568328785639
420053.42358528415,-0.20164930256989666,-2.4988749427520927,-40.790856502787264
420147.26010360022,-0.20253902905939147,-2.5011032096282309,-40.814522666382459
420241.11758423119,-0.20285100118544352,-2.4992840734099815,-40.80648109492688
420334.99603185995,-0.20392048855270717,-2.5014304850693381,-40.804273103682227
420428.89545117039,-0.20442819712176424,-2.5019372455428002,-40.815764221996638
420522.81584684743,-0.2057092143940632,-2.5024313579032493,-40.817134491773402
420616.75722357689,-0.20507344102274896,-2.5029441440165137,-40.818677491684888
420710.71958604583,-0.20768174670346273,-2.5055732264182025,-40.820023236935356
420804.7029389423,-0.20883515681881648,-2.5055178576063888,-40.833253818435089
420898.70728695538,-0.20864680593461968,-2.5093002982302455,-40.85863351403475
420992.73263477528,-0.20882896720133495,-2.5069499703926139,-40.840570677581539
421086.77898709307,-0.21226786324618818,-2.5070527153021422,-40.853795611018619
421180.84634860104,-0.21069453442489278,-2.5090079940339254,-40.862632820927757
421274.93472399254,-0.20967526629749167,-2.5099963317545408,-40.863982914391912
421369.04411796172,-0.20947179057545834,-2.509362092277299,-40.864873581128748
421463.17453520413,-0.20989772051285996,-2.5111190371507206,-40.882161362158911
421557.32598041615,-0.20987472509454663,-2.5094876361927554,-40.894750594161081
421651.4984582953,-0.20909975044671147,-2.513075746807711,-40.896599752968555
421745.69197354,-0.20761309248444404,-2.5134300276800743,-40.891375466180392
421839.90653084987,-0.20528869724877372,-2.5148387018753473,-40.912965210759694
421934.14213492553,-0.2050207372566229,-2.5154798727495487,-40.89915755173493
422028.39879046869,-0.20483683227290009,-2.5146200197307822,-40.91268305560186
422122.67650218209,-0.20400382569217304,-2.5174471179644393,-40.924394930774696
422216.97527476947,-0.20371809520248918,-2.5186294501173712,-40.928553475830952
422311.29511293565,-0.20296314019711578,-2.5193585453551828,-40.937493623151788
422405.63602138654,-0.20223031196998992,-2.521404046937711,-40.943752623812848
