#Digilent WaveForms Network Analyzer - Bode
#Device Name: Discovery2
#Serial Number: SN:210321A35FCC
#Date Time: 2018-10-28 00:41:24.349
#Start: 400000 Hz
#Stop: 500000 Hz
#Steps: 100
#Wavegen: Wavegen1
#Amplification: 1 X
#Settle: 10 ms
#MinPeriods: 16
#Channel: Channel 1
#Range: 5.42537 V
#Offset: 0.000183761 V
#Relative: no
#Channel: Channel 2
#Range: 5.47028 V
#Offset: -7.92091e-07 V
#Relative: yes

Frequency (Hz),Channel 1 Magnitude (dB),Channel 2 Magnitude (dB),Channel 2 Phase (°)
400000,-0.50530042221826899,-2.3160615945490872,-39.461868151106934
400902.60695105721,-0.50538012893409079,-2.3246181061078381,-39.529443141464867
401807.25065038475,-0.5086501038943495,-2.3311835379362429,-39.583520028164727
402713.93569394032,-0.51194792494535002,-2.340758646043585,-39.648385673866301
403622.66668805282,-0.51143683459772737,-2.3486298962118788,-39.720511404084164
404533.44824944506,-0.5135703364114973,-2.3558254504396006,-39.771114594058645
405446.28500525776,-0.51350634573523612,-2.3657982950527718,-39.845621058730693
406361.18159307301,-0.51751206350397549,-2.3746549351051378,-39.907139161743601
407278.14266093739,-0.51921658030322382,-2.3823709989050217,-39.965173386383022
408197.17286738602,-0.52859556342987879,-2.3870857455637657,-40.020558223491207
409118.27688146604,-0.53654862351440236,-2.3981073287392771,-40.102910698339919
410041.45938276051,-0.53146370435477086,-2.4029297999789572,-40.153810381945178
410966.72506141179,-0.5255867719631695,-2.4133396409073691,-40.206771967574895
411894.07861814596,-0.52474137631291651,-2.4234713894304019,-40.277449391623861
412823.52476429613,-0.5262612697096164,-2.4304731940620656,-40.331272948711103
413755.06822182663,-0.52923666518123103,-2.4372832924581651,-40.411646853865477
414688.71372335707,-0.53160881260346504,-2.4468874346152401,-40.460834576593655
415624.46601218631,-0.53193615949552486,-2.4580889276321614,-40.536914297664225
416562.32984231651,-0.53292350512981745,-2.4620504052264467,-40.59133187478983
417502.30997847713,-0.53284362307692612,-2.4717407290629447,-40.660213509773499
418444.41119614971,-0.53553987948040316,-2.4815002547520395,-40.720120111707232
419388.63828159153,-0.53980123152457904,-2.4880438710274184,-40.782697197342458
420334.99603185995,-0.54554558067613246,-2.4992654061370265,-40.848478814185569
421283.48925483745,-0.55409737609393173,-2.5069886155864123,-40.91426580975741
422234.12276925507,-0.54780404883435452,-2.515339409388428,-40.973321922670507
423186.90140471782,-0.54441557316816303,-2.5234920281233508,-41.043109904381993
424141.83000172849,-0.54483648631971271,-2.5325030654015568,-41.095641228586501
425098.9134117128,-0.54575876696734127,-2.5397741951255117,-41.156527356659744
426058.15649704356,-0.54674298717472247,-2.5486619770110397,-41.228134793474027
427019.56413106568,-0.55198617216390833,-2.5561555562901876,-41.286486538497741
427983.14119812101,-0.55160962102048372,-2.5673373257904664,-41.357201298712937
428948.89259357291,-0.55400031815922357,-2.5739748990089728,-41.41314527735004
429916.82322383107,-0.55327144286881447,-2.5830812660101525,-41.459275115327756
430886.93800637673,-0.55687156065663268,-2.5912239704417903,-41.531315244685629
431859.24186978757,-0.56108341652148264,-2.6000594262724377,-41.598131137638333
432833.73975376255,-0.56838452363955028,-2.6096573608271489,-41.652031000150998
433810.43660914712,-0.57090476261826484,-2.6183876025338622,-41.714939733736074
434789.33739795868,-0.5663062842550165,-2.62702261080956,-41.780103227576603
435770.44709341106,-0.56553545923606596,-2.6358305868849574,-41.860245831116117
436753.7706799407,-0.5653675237046536,-2.6458403376301654,-41.911465968095399
437739.31315323111,-0.56717204903866614,-2.6528193961998783,-41.968927950461733
438727.07952023891,-0.56717530316120046,-2.6623318064399952,-42.03938607306393
439717.07479921903,-0.5688068950384233,-2.6714565861979733,-42.098993146665862
440709.30401974986,-0.57092488027446964,-2.6807094511601699,-42.162990182758591
441703.77222275943,-0.57165950924882247,-2.6877423255740016,-42.229254760828738
442700.48446055054,-0.57344360414352891,-2.696464905766172,-42.289945219414236
443699.4457968268,-0.57787356665309331,-2.7078933528289779,-42.346969275047655
444700.66130671796,-0.58614891425814486,-2.71523690632818,-42.410247124974418
445704.136076806,-0.59187174869060555,-2.724508628830709,-42.465080967223805
446709.87520515069,-0.58552570190610664,-2.7318710796486827,-42.535301217351218
447717.88380131597,-0.58365339075172618,-2.7427442270357756,-42.609072962329883
448728.1669863952,-0.58286202349955751,-2.7517038829584943,-42.663439634639758
449740.72989303793,-0.58558499227467598,-2.7606995633764706,-42.733090930146325
450755.57766547549,-0.5871770312318827,-2.7703910296147987,-42.792243373718776
451772.71545954718,-0.59116209139924569,-2.7814905863858024,-42.86898895506917
452792.1484427267,-0.59043091305849982,-2.7886489310102998,-42.91715111291613
453813.88179414807,-0.5893487581797594,-2.7983055019344301,-42.969915253533401
454837.92070463224,-0.590383198442059,-2.8069074864584143,-43.034209796340335
455864.27037671331,-0.5963119666810891,-2.8153931983930507,-43.108746698415601
456892.93602466496,-0.60201755023781378,-2.8241146263235137,-43.171810070228375
457923.92287452699,-0.61143717104317219,-2.833697829060978,-43.229052997227626
458957.23616413184,-0.60243565279764255,-2.8425408094210525,-43.28258447497015
459992.88114313129,-0.60203338317213118,-2.8521607807331062,-43.350081499618668
461030.86307302286,-0.60152470953878789,-2.8605929625623627,-43.405631329217528
462071.18722717697,-0.60394417541502454,-2.8706678397496947,-43.471908310161666
463113.85889086331,-0.60236499089125228,-2.8797721975124464,-43.531984402349849
464158.88336127787,-0.60782562838307175,-2.8885549450571428,-43.597975932310959
465206.26594757003,-0.60799930318262851,-2.8996261628522153,-43.659275185492611
466256.01197086921,-0.60917626765798416,-2.9086892833282629,-43.733699784025973
467308.12676431204,-0.61219962028968511,-2.9194104059388879,-43.799841049216866
468362.61567306961,-0.61538535093989188,-2.9281898494501624,-43.869980896290272
469419.48405437422,-0.62382605146837677,-2.9368390882127504,-43.921420321729869
470478.73727754719,-0.62646070959075817,-2.946915867014698,-43.985883710042913
471540.3807240256,-0.62059425699092008,-2.955572679277239,-44.051738527404552
472604.41978738981,-0.61871890413312203,-2.9650670127486434,-44.116509876946083
473670.85987339099,-0.62101948475794655,-2.9733410306825085,-44.176138087097719
474739.70639997843,-0.62153740254503886,-2.9823125569608875,-44.216037766130967
475810.96479732718,-0.62484648582183566,-2.9925695270499446,-44.300486263981554
476884.64050786552,-0.62567848752398458,-3.0048509784979189,-44.356791676332321
477960.73898630257,-0.6273634708858975,-3.0115843578732604,-44.415983868551393
479039.26569965633,-0.6267041111442091,-3.0234235609782694,-44.481652063635195
480120.22612728103,-0.63232226502151612,-3.0330095680242946,-44.55131237721767
481203.62576089514,-0.63753911830988419,-3.0444127885443906,-44.612253247886393
482289.4701046095,-0.6490914306308373,-3.0519393926546274,-44.673464116250059
483377.76467495487,-0.64099201376169967,-3.0634345342349456,-44.737870700538011
484468.51500091015,-0.63776642585736809,-3.0722377953371627,-44.799216209650858
485561.72662393068,-0.63646799955927102,-3.0827392572720855,-44.864762485062265
486657.40509797592,-0.6401641682849214,-3.0914829594316346,-44.917851797747545
487755.55598953826,-0.64270191454088565,-3.100590144173609,-44.991857181435876
488856.1848776706,-0.64384723023526802,-3.1110647145710035,-45.062418047397898
489959.29735401546,-0.64515875455071092,-3.1205443697408746,-45.130945493084411
491064.89902283257,-0.64480156716119952,-3.1321923435960182,-45.188228588373327
492172.99550102814,-0.64845980443942575,-3.1400925786979013,-45.241894955838063
493283.59241818293,-0.65484555757401097,-3.1508161667666466,-45.30949360710693
494396.69541658077,-0.66588402504777977,-3.1625007321743932,-45.368093215675991
495512.31015123759,-0.65948707403792906,-3.1714796379364216,-45.434796772222171
496630.44228992995,-0.65490239757683311,-3.1814513419553494,-45.495741477978029
497751.09751322377,-0.6561287431998607,-3.1896389466878206,-45.554302728601932
498874.28151450329,-0.65565726618225084,-3.2004552095977727,-45.621930393532523
500000,-0.65808944512611345,-3.2101117382414652,-45.67934699207774
