#Digilent WaveForms Network Analyzer - Bode
#Device Name: Discovery2
#Serial Number: SN:210321A35FCC
#Date Time: 2018-10-27 23:40:22.254
#Start: 145000 Hz
#Stop: 155000 Hz
#Steps: 500
#Wavegen: Wavegen1
#Amplification: 1 X
#Settle: 10 ms
#MinPeriods: 16
#Channel: Channel 1
#Range: 5.42537 V
#Offset: 0.000183761 V
#Relative: no
#Channel: Channel 2
#Range: 5.47028 V
#Offset: -7.92091e-07 V
#Relative: yes

Frequency (Hz),Channel 1 Magnitude (dB),Channel 2 Magnitude (dB),Channel 2 Phase (°)
145000,-0.09902808759155457,-2.8480286075486139,-43.633472237440841
145019.38055219589,-0.10100190156306003,-2.8510524844050265,-43.622734933108603
145038.76369477663,-0.099184116519764137,-2.8501193939163674,-43.629571437374118
145058.14942808842,-0.10173996386994136,-2.8488287012927582,-43.617130757655858
145077.5377524776,-0.099855341567151742,-2.8491872860947161,-43.647472297033147
145096.92866829043,-0.1000753829454533,-2.8521722007095733,-43.640213843164325
145116.3221758733,-0.10010565462215057,-2.8489340674262231,-43.654743933512577
145135.71827557267,-0.10313776069887647,-2.8516385747040869,-43.657393283964652
145155.11696773491,-0.10013104330899343,-2.8538299637326774,-43.651193823687187
145174.51825270656,-0.098858072165568633,-2.8525197364294499,-43.643386387393136
145193.92213083422,-0.10077986359764365,-2.8548118839746635,-43.657868960203366
145213.32860246443,-0.099720107999551597,-2.8553940204671662,-43.668935772188661
145232.73766794387,-0.10038348915755786,-2.8554142059562997,-43.675936514230955
145252.1493276192,-0.10153380003893564,-2.8554573079722219,-43.665554082656335
145271.5635818372,-0.10167882896958026,-2.8537902186159014,-43.678909452636006
145290.98043094459,-0.10032580527907903,-2.855550538593179,-43.691650438616087
145310.39987528828,-0.10097380172792865,-2.8548346129409747,-43.678735647993292
145329.82191521509,-0.1010209623275628,-2.8579004408136348,-43.694445484798791
145349.24655107196,-0.10217741438293901,-2.8569157614324681,-43.694814897996849
145368.67378320586,-0.10148785455137138,-2.8583742625049968,-43.684283638912916
145388.1036119638,-0.10047301020518638,-2.8569694730920721,-43.693077782618175
145407.53603769283,-0.10025440088569107,-2.8602295985770985,-43.703915021929383
145426.97106074009,-0.098557662292428405,-2.8610037440222085,-43.709478412047076
145446.40868145271,-0.10161074700366801,-2.8597319259531915,-43.707263133397646
145465.84890017792,-0.1002618702451403,-2.8621844221329003,-43.723132136335622
145485.29171726294,-0.10115477692946517,-2.8629787540451215,-43.708917247416139
145504.73713305508,-0.10070988236039355,-2.8624298415885754,-43.71075955321497
145524.18514790168,-0.10021580584532612,-2.8616817369896168,-43.712700194801869
145543.63576215011,-0.10149243135777594,-2.8636084972707958,-43.722727904060392
145563.08897614779,-0.10043786582574074,-2.8622432266087339,-43.732452475325729
145582.54479024225,-0.099822259660980031,-2.8655224329419076,-43.731824516604661
145602.00320478098,-0.10099103929721262,-2.8650206716720255,-43.734319275444385
145621.46422011158,-0.10288448786083877,-2.8644062743382648,-43.745712162841102
145640.92783658163,-0.10167260423784863,-2.8644456117534975,-43.737188973550872
145660.3940545388,-0.10258103432128982,-2.8655369729450069,-43.755701617509779
145679.86287433087,-0.10183667739590117,-2.8661980608051669,-43.743672849410615
145699.33429630552,-0.10255690404320983,-2.8674819301810368,-43.75834615192521
145718.80832081058,-0.10168717459194813,-2.8693001121044599,-43.768338387290783
145738.2849481939,-0.10235118913820054,-2.8689583897356217,-43.766699468878073
145757.76417880342,-0.1009599510805597,-2.8693355383358998,-43.769741181988934
145777.24601298702,-0.10076332272793759,-2.8697042155556396,-43.785338692721965
145796.73045109271,-0.10225578715486754,-2.8714782797801686,-43.780034749582597
145816.21749346855,-0.10215913544537457,-2.8706993665564502,-43.776981015821519
145835.70714046262,-0.10037141711325484,-2.8744811662668468,-43.781660608098306
145855.199392423,-0.10308623838800281,-2.8730781743999998,-43.789401455073687
145874.69424969793,-0.10179396509747694,-2.8736446229795924,-43.79760710499616
145894.19171263563,-0.10263261931512646,-2.8742280438078311,-43.805357797798223
145913.69178158432,-0.10074633203888492,-2.8754454457751573,-43.803898425032344
145933.19445689238,-0.10314008390607927,-2.8737996541081272,-43.798669778541779
145952.69973890812,-0.10183527830710107,-2.8749100854896743,-43.805189994680404
145972.20762797998,-0.10148791843403575,-2.8746498449135949,-43.820657243086217
145991.71812445641,-0.10119379613850392,-2.8761411449055609,-43.820263637561943
146011.23122868591,-0.10181901826182652,-2.8774108257674218,-43.826302094192002
146030.74694101702,-0.10138686579226301,-2.8792888001664183,-43.815631721637246
146050.26526179837,-0.1013906055453021,-2.8790486553251817,-43.827910197336564
146069.78619137857,-0.10123874146021192,-2.8806109780517386,-43.839595160266285
146089.30973010632,-0.10123032422130657,-2.8803117839554071,-43.83283031303187
146108.83587833034,-0.10140435512873262,-2.8817100269642126,-43.856080220767126
146128.36463639943,-0.10167438736575421,-2.8805301938815808,-43.86056217454329
146147.89600466244,-0.10173921473393673,-2.8815060107182635,-43.849981536033432
146167.4299834682,-0.10256909168863274,-2.8821299994529515,-43.851123759140584
146186.96657316567,-0.10205280156037928,-2.8831770296116637,-43.850540836118668
146206.5057741038,-0.10066751406479889,-2.8839661249746213,-43.868464518478504
146226.04758663161,-0.10140119343164819,-2.8845542816607637,-43.855199904277683
146245.59201109817,-0.10141105163391485,-2.8848418087585999,-43.86691873790538
146265.13904785257,-0.10152642227617234,-2.8849883500856461,-43.877190445008054
146284.68869724395,-0.10241828775034106,-2.8854441860146682,-43.866544706525396
146304.24095962159,-0.10102189042398302,-2.8889400856817744,-43.888269755191857
146323.79583533466,-0.10118725329453127,-2.8866231689690274,-43.88980787004914
146343.35332473251,-0.10240699172703535,-2.8888004184011482,-43.891697504681005
146362.91342816444,-0.1040621550764726,-2.8883498142408852,-43.885503207472652
146382.47614597986,-0.10111701329745984,-2.8881917781867124,-43.887073016679743
146402.0414785282,-0.10100732430462689,-2.8909795412959394,-43.897611045700664
146421.60942615895,-0.10251624270018506,-2.8914008507026763,-43.907922144104049
146441.17998922162,-0.10323339674039833,-2.8912347467021298,-43.895385927724973
146460.75316806583,-0.099380534789324265,-2.8935314256490092,-43.907319811065264
146480.32896304113,-0.099940462525883164,-2.8938627025052188,-43.920209681186236
146499.90737449724,-0.10399242276821924,-2.8922340020040789,-43.918597982969949
146519.4884027839,-0.10435543841225538,-2.8936630105662848,-43.909052158358122
146539.07204825082,-0.10199077687192856,-2.8935489196785493,-43.929103939617832
146558.65831124783,-0.10330625534445907,-2.8940484603436465,-43.929267846791674
146578.24719212481,-0.10389341603427785,-2.895370869322464,-43.932346991230247
146597.83869123159,-0.10324967233832433,-2.8952169362918716,-43.935760021304411
146617.43280891821,-0.102743510671682,-2.896383073675338,-43.949457821267174
146637.02954553463,-0.10157169759471146,-2.8973063052050669,-43.943185459540089
146656.62890143087,-0.10288068317678994,-2.8974595148436895,-43.95567623429676
146676.23087695707,-0.10222854231164871,-2.8967776464204209,-43.957419021373425
146695.83547246331,-0.10222259211702731,-2.8985915272098977,-43.965282659620613
146715.44268829981,-0.1041536617202404,-2.9007909411711905,-43.960412623335799
146735.0525248168,-0.10419338947203113,-2.9026488848562648,-43.981991950365888
146754.66498236454,-0.10043272283461163,-2.9003019966053283,-43.96311423347283
146774.28006129336,-0.10157456008415991,-2.9007933955749343,-43.97064579402138
146793.89776195365,-0.10271401414926619,-2.9006143075830275,-43.97248922171751
146813.51808469577,-0.10323886097716792,-2.9017309542697243,-43.99339085895965
146833.14102987028,-0.10200825842637426,-2.9027668025357061,-43.990353148338464
146852.76659782763,-0.10301110034642177,-2.9041966161120838,-43.993575294623042
146872.39478891838,-0.10182434002204127,-2.9064814297932378,-43.992146889155656
146892.02560349312,-0.10121167201841635,-2.9045169796208565,-43.997146408549028
146911.65904190255,-0.10259987716670899,-2.905342304116334,-44.007889575408853
146931.29510449735,-0.10276640093813945,-2.9046927092603219,-44.010647200956676
146950.93379162825,-0.10242030870735663,-2.9072497033758893,-44.012050355646807
146970.57510364606,-0.10254449439639075,-2.9067617157326637,-44.01585333933906
146990.21904090163,-0.10309138520070973,-2.9073850396615391,-44.018685388096145
147009.86560374577,-0.10215864634594091,-2.90739361503414,-44.03102122375838
147029.51479252955,-0.10256904142040799,-2.9088669649267689,-44.026511937643932
147049.16660760381,-0.10125390070751505,-2.90950263908615,-44.03822866962156
147068.82104931967,-0.10255707116271034,-2.9121835605810693,-44.034779485748629
147088.47811802817,-0.10157751048409408,-2.9118870097923883,-44.035308693542376
147108.13781408046,-0.10288876623895507,-2.9108792072425977,-44.043124870387487
147127.80013782764,-0.10114719451807083,-2.9123512116633683,-44.038437742961165
147147.46508962102,-0.10140403906462286,-2.9135931991905553,-44.047209710547236
147167.13266981178,-0.10213977956741024,-2.9152605181372442,-44.057450825595879
147186.80287875124,-0.10187285259544308,-2.9138078842166375,-44.059230693272525
147206.47571679082,-0.10293923158075544,-2.9160160811761342,-44.0605492060917
147226.15118428186,-0.10284926071110376,-2.9161106468210423,-44.076540454159641
147245.82928157583,-0.10082781087291559,-2.9174418358297021,-44.078433057930781
147265.51000902423,-0.1021629293497508,-2.9187432173596726,-44.068098581160392
147285.19336697858,-0.10253831548020424,-2.915932612420828,-44.085248087242036
147304.8793557905,-0.10213741297919735,-2.9163074074623947,-44.079467423779036
147324.56797581163,-0.10367593430149016,-2.9186731750796975,-44.084908315068446
147344.25922739363,-0.10205162412838127,-2.918147075790904,-44.090920450695215
147363.95311088825,-0.10275464861039994,-2.9215015939956892,-44.095110819662011
147383.64962664727,-0.10249641491978585,-2.9185384642742558,-44.103923623301739
147403.34877502252,-0.10211131225261852,-2.9212015568095917,-44.103727145898702
147423.05055636584,-0.10364862594263975,-2.9208672937811992,-44.095021574057562
147442.75497102915,-0.10311170723227626,-2.9207393541941089,-44.102611242247235
147462.46201936447,-0.10132219292630035,-2.9224619901056572,-44.109405940349234
147482.17170172377,-0.10081710561296704,-2.9248561146764489,-44.111869551229006
147501.88401845912,-0.10368840789300728,-2.9248232928310491,-44.13033357514982
147521.59896992266,-0.10217600000458042,-2.9261629791641259,-44.12622738302052
147541.31655646651,-0.10205593808498704,-2.9241259052511626,-44.132550083869397
147561.03677844285,-0.10255681090290632,-2.9261564669239504,-44.133067453550865
147580.75963620396,-0.10105528052177151,-2.9250570811775751,-44.120386007262923
147600.48513010217,-0.10185066675410791,-2.9276409664102392,-44.146089951769405
147620.21326048975,-0.10226538389954526,-2.927361036270915,-44.146350689313678
147639.94402771915,-0.10221186364478789,-2.9283652722682643,-44.151112606855449
147659.67743214278,-0.10233588339789068,-2.9283383847233808,-44.145591760113248
147679.41347411313,-0.10320877570739206,-2.9295885246571634,-44.157539925839558
147699.15215398272,-0.10340883591513535,-2.9278988183524808,-44.160654687727515
147718.89347210416,-0.10159167892599605,-2.9302208364900424,-44.161712287374513
147738.63742883006,-0.10086546603386068,-2.930237190013083,-44.164117056064583
147758.38402451307,-0.10293404209273177,-2.9302227107856185,-44.182714698647004
147778.13325950594,-0.10288604597592794,-2.9324267910112161,-44.176470822872389
147797.88513416142,-0.10412456778789352,-2.9312954214721514,-44.172740471745882
147817.63964883235,-0.10242395594387313,-2.932821048295096,-44.174395829183709
147837.39680387155,-0.1024875058578332,-2.9339666242811724,-44.181217824882452
147857.15659963197,-0.10294498740777663,-2.9335150301253043,-44.191553628853654
147876.91903646654,-0.10275542707138902,-2.9341034576915268,-44.1942028097952
147896.68411472827,-0.10345890708671715,-2.9354505625756957,-44.194942239177095
147916.45183477024,-0.10427739921544353,-2.9352705463406563,-44.20383220913655
147936.22219694551,-0.10313640189980468,-2.9373666718209153,-44.209732513735091
147955.99520160721,-0.10279144043169498,-2.9365707914888217,-44.207612721559371
147975.77084910861,-0.10438672952374697,-2.9366469324243267,-44.198300264871449
147995.54913980284,-0.10474741236920471,-2.9368075125187638,-44.222072340494208
148015.33007404328,-0.10236084019804555,-2.9385593753866521,-44.214191998674465
148035.11365218321,-0.10223225231106857,-2.9400518596142842,-44.219356757286427
148054.89987457602,-0.10305102570374639,-2.938028330015289,-44.232054130000733
148074.68874157517,-0.10402227717244249,-2.9404963264652322,-44.225311840024368
148094.4802535341,-0.10191257236648377,-2.9408749259503968,-44.219085920431681
148114.27441080633,-0.1035742628791239,-2.9404235349603818,-44.247257610873277
148134.07121374545,-0.10264860042309976,-2.9413670139058312,-44.259155228610496
148153.8706627051,-0.10287524883811543,-2.9436474905871974,-44.259982272571662
148173.67275803888,-0.10323896012805504,-2.9433488324956238,-44.248912821413683
148193.47750010056,-0.10455189035713706,-2.9437839083857371,-44.258760848130095
148213.28488924386,-0.1050558570706791,-2.9416796642603886,-44.262306999416865
148233.0949258226,-0.10382733001066112,-2.9439712481642841,-44.275075194684348
148252.90761019065,-0.10371071628536607,-2.9470316708658748,-44.260824052281322
148272.72294270192,-0.10323855805202381,-2.9461882069804277,-44.267315944077936
148292.5409237103,-0.10342206222417225,-2.9465431782798479,-44.268500445831478
148312.36155356985,-0.10443707657539923,-2.9457980638768575,-44.271372740262052
148332.18483263455,-0.10525047947471169,-2.9462266691925878,-44.290367364632345
148352.01076125854,-0.10660524772516349,-2.9464300298507946,-44.279301478303921
148371.83933979593,-0.10658945825233439,-2.950025857013761,-44.293858309370151
148391.67056860091,-0.10660702538381396,-2.9492372481920808,-44.289706987039949
148411.50444802773,-0.10370278049567515,-2.9504758625352001,-44.293453330114886
148431.34097843067,-0.10649149426997531,-2.9509322839530316,-44.297180656008408
148451.18016016402,-0.10553643643059467,-2.9499195255767829,-44.302792160236713
148471.0219935822,-0.10591211564280553,-2.9505270663600491,-44.310378263164694
148490.86647903957,-0.10710074041706096,-2.9524463417627804,-44.320615797150936
148510.71361689066,-0.10706523665985937,-2.9528704837819379,-44.296489238911605
148530.56340748997,-0.10724957212346493,-2.9534490285999837,-44.318647888785335
148550.41585119205,-0.10447971045523502,-2.9537974280830643,-44.315632262612525
148570.27094835154,-0.10765770547552203,-2.9533252625449622,-44.32898748565222
148590.12869932308,-0.10799814440545473,-2.9554537674551611,-44.3323423842279
148609.98910446133,-0.10671813693460445,-2.9558129870839016,-44.321851432387902
148629.85216412111,-0.10844073939088476,-2.9553870923484404,-44.334602092452485
148649.71787865719,-0.10853391449434888,-2.956446118083905,-44.346731111659636
148669.58624842446,-0.10896427028310694,-2.9565542474488637,-44.34796924857676
148689.45727377775,-0.10813021913333436,-2.9579587538053271,-44.351577364017999
148709.33095507204,-0.10818726968689511,-2.9579485643913648,-44.342605562047396
148729.20729266229,-0.10933813807521142,-2.9586213318817784,-44.352281240328395
148749.08628690359,-0.10850031860980697,-2.9586297580166123,-44.36453705058166
148768.96793815101,-0.10960249095358815,-2.9589954212044898,-44.360502005391638
148788.85224675963,-0.10887051260912553,-2.960374940954011,-44.363779496324973
148808.73921308469,-0.11008738306181544,-2.9615014325806599,-44.372076923722958
148828.6288374814,-0.10842515335393897,-2.9626835129471858,-44.380718383770613
148848.521120305,-0.11048026668882877,-2.961676247628342,-44.370336331357976
148868.41606191089,-0.11025255966512354,-2.9642917463410399,-44.38412208268582
148888.31366265437,-0.11047768878063438,-2.9648184780009439,-44.385760938503033
148908.21392289089,-0.10981675249626832,-2.9659657428650563,-44.38236668133878
148928.11684297593,-0.11153336268047306,-2.9638573614486159,-44.393587370044493
148948.02242326495,-0.11283241710525194,-2.9648683111608989,-44.394575310609298
148967.93066411355,-0.11190587996208484,-2.9669488092791458,-44.398830584088174
148987.84156587734,-0.11276814675472036,-2.9666919565083067,-44.408383199522746
149007.75512891196,-0.11228348578027762,-2.9675554739701786,-44.404802136209348
149027.6713535731,-0.11418471938611865,-2.9672939003664212,-44.412232851082592
149047.59024021652,-0.11456860034950068,-2.9682871051137694,-44.416559896380591
149067.51178919806,-0.11254757568861927,-2.9684932745868213,-44.412462617811585
149087.43600087351,-0.11472632571290402,-2.9695559887574436,-44.426579681596436
149107.3628755988,-0.11618188467710218,-2.9692344231626295,-44.437332522316353
149127.29241372983,-0.11642998684567286,-2.9684144880509775,-44.42213985231588
149147.22461562263,-0.11526095153476323,-2.9718057776384379,-44.43807751655725
149167.15948163319,-0.11499542780665185,-2.9718429350452298,-44.443651755431119
149187.09701211765,-0.11605175545859715,-2.9731953346259004,-44.452087346480539
149207.03720743209,-0.11686653216644352,-2.9737186634660411,-44.458429248838399
149226.98006793272,-0.11936538454891568,-2.971423328108282,-44.462138017321195
149246.92559397576,-0.1164204904394095,-2.9731540141006434,-44.446108922242431
149266.87378591747,-0.117867683316931,-2.9755265986891488,-44.456455672791044
149286.82464411418,-0.11875025950460061,-2.9741584530534624,-44.458197954105387
149306.77816892226,-0.11929302531001917,-2.9755635479811793,-44.461144347813359
149326.73436069814,-0.11920171862523279,-2.9768849648326956,-44.471069202163264
149346.69321979827,-0.12016141037390005,-2.9766353026667476,-44.467316823740703
149366.65474657915,-0.11999738485355921,-2.9762547868604958,-44.482009302070352
149386.61894139738,-0.1215450847172337,-2.9764371226568875,-44.482606448591142
149406.58580460949,-0.12252795970043415,-2.9789292411284589,-44.487600622417588
149426.55533657223,-0.1217523079521676,-2.979835429126938,-44.482159439238927
149446.52753764222,-0.12196491813232811,-2.9789716545956333,-44.49782772551989
149466.50240817628,-0.12305122703590467,-2.9802132077814698,-44.4868473163896
149486.47994853117,-0.12294000096857731,-2.9814870199768233,-44.504116970760052
149506.46015906372,-0.12394270275833047,-2.9833521561577516,-44.500920231989397
149526.44304013083,-0.12465071291811473,-2.9826233760046978,-44.507747181587547
149546.42859208951,-0.12444141702009903,-2.9833109817778074,-44.514949859809647
149566.41681529663,-0.12288681565165285,-2.9831267752417694,-44.509895999043408
149586.40771010931,-0.12323970977633752,-2.9832740930192401,-44.529264232784136
149606.40127688463,-0.12432308324990707,-2.9839610090094326,-44.518079770145299
149626.39751597971,-0.12268074160505832,-2.9851460790630071,-44.530172676124153
149646.39642775169,-0.12250587219557313,-2.9850634246766083,-44.522076714167497
149666.39801255785,-0.12168994828726117,-2.9848560090441807,-44.53322739363955
149686.40227075544,-0.12155112959345968,-2.9874128003821503,-44.529536292305679
149706.40920270182,-0.12106978094557393,-2.9860064996389744,-44.539479475004299
149726.4188087543,-0.12028440916151266,-2.9885739630229944,-44.542435204041617
149746.43108927034,-0.11968456146007034,-2.988944550977406,-44.562362489627354
149766.44604460741,-0.11822464990270287,-2.9891746241929118,-44.541958458533855
149786.46367512297,-0.12023897680860651,-2.990275330126881,-44.555579677401163
149806.48398117465,-0.12112810559269425,-2.9886437530149186,-44.550981658385481
