#Digilent WaveForms Network Analyzer - Bode
#Device Name: Discovery2
#Serial Number: SN:210321A35FCC
#Date Time: 2018-10-28 00:19:02.117
#Start: 370000 Hz
#Stop: 400000 Hz
#Steps: 1000
#Wavegen: Wavegen1
#Amplification: 1 X
#Settle: 10 ms
#MinPeriods: 16
#Channel: Channel 1
#Range: 5.42537 V
#Offset: 0.000183761 V
#Relative: no
#Channel: Channel 2
#Range: 5.47028 V
#Offset: -7.92091e-07 V
#Relative: yes

Frequency (Hz),Channel 1 Magnitude (dB),Channel 2 Magnitude (dB),Channel 2 Phase (°)
370000,-0.00659730664918853,-2.7908720879589604,-42.94880249248142
370028.87577170064,-0.0058921676976359735,-2.7920612551777229,-42.960475594847892
370057.75379694242,-0.0042897695055259602,-2.7927850201821891,-42.969027329373048
370086.63407590106,-0.0067003336317172004,-2.7921661371893824,-42.965761565432175
370115.5166087526,-0.0053180008957014269,-2.793335415324858,-42.967099120327774
370144.40139567276,-0.0052211776119353345,-2.7931935133623731,-42.970176250178767
370173.28843683761,-0.0058193595375702189,-2.7932592837433483,-42.968517489465199
370202.17773242301,-0.0073089224572998887,-2.7923887126049523,-42.978771765238371
370231.06928260491,-0.011283523027389964,-2.791523096067468,-42.96698107133151
370259.96308755927,-0.0059686123650657666,-2.7932121580158613,-42.970496744002332
370288.859147462,-0.0087534226929603335,-2.7936341552814374,-42.974271568500683
370317.75746248919,-0.0092958135610991133,-2.7932656015795629,-42.982937522000881
370346.65803281672,-0.0071612636106107245,-2.7937965220258452,-42.983031715523083
370375.56085862074,-0.0066387226210022528,-2.7945623322430841,-42.976039125379138
370404.46594007715,-0.0080008434658084843,-2.7946554125877574,-42.990321256652422
370433.37327736203,-0.0063008536895160158,-2.7941116915495194,-42.980124630965292
370462.2828706514,-0.0073186815807523148,-2.7974355162986972,-42.979267687777636
370491.19472012133,-0.0075824345794432858,-2.795488952867915,-42.976193850552193
370520.10882594797,-0.0070676635649468775,-2.7969944394554287,-42.988685141908832
370549.02518830739,-0.0087525873487832289,-2.7972951564850215,-42.983366727660496
370577.94380737562,-0.010329036510213644,-2.7963047399048637,-43.000239396017051
370606.86468332884,-0.0082647218605773603,-2.7985758116851129,-43.003440710744655
370635.78781634319,-0.0080093375459706333,-2.7970469734135288,-43.001081456024863
370664.71320659475,-0.0073480149023450007,-2.7992559119912674,-42.998933020691737
370693.64085425978,-0.0087834415055724115,-2.7981020886443222,-43.009989135682602
370722.5707595144,-0.0081100943400857425,-2.7977394520912675,-43.011510939416056
370751.50292253477,-0.0088818803625387854,-2.7976470921420682,-43.010886120900068
370780.43734349718,-0.0077885842869428474,-2.7995368479094358,-43.008935894153979
370809.37402257771,-0.0089943444511109156,-2.7975726466507855,-42.999558926998773
370838.31295995275,-0.0091064246385103229,-2.7983860793470896,-43.002759902795859
370867.25415579841,-0.0090530674961897348,-2.7995384237727583,-43.014287961913851
370896.19761029107,-0.010096415718004882,-2.7999991861712621,-43.015708121432112
370925.14332360687,-0.0077459292711981676,-2.8010546897675725,-43.025190903553181
370954.09129592218,-0.0095106376112202816,-2.7998165884029325,-43.008234871864289
370983.04152741324,-0.0089028396948728807,-2.8014128329169004,-43.011215812553701
371011.99401825637,-0.0094983638774250624,-2.7999999946778749,-43.01284312240314
371040.94876862795,-0.011346719229388798,-2.8019186228795157,-43.03095670331011
371069.90577870433,-0.0096062645815620899,-2.8008687110968644,-43.023058192105879
371098.86504866177,-0.01117339841071156,-2.800411181928089,-43.012371281617881
371127.82657867676,-0.010767654146089118,-2.8012013793315265,-43.019111474478962
371156.79036892555,-0.01071502003232375,-2.8018239203672142,-43.02656903178729
371185.75641958462,-0.010469984441642993,-2.8014013250992424,-43.020377359688766
371214.72473083035,-0.010931338916735428,-2.8015141911238088,-43.033921501471667
371243.69530283916,-0.012502854292426027,-2.8025613056640371,-43.038331135078323
371272.66813578748,-0.01204076269471291,-2.8036360246838692,-43.028996765424473
371301.64322985179,-0.01190026184114144,-2.8041109830914257,-43.031318892074694
371330.62058520853,-0.013156551059839296,-2.8032830348197217,-43.033171994881599
371359.60020203423,-0.012939459640007788,-2.8037193901237063,-43.04423089519706
371388.58208050526,-0.011770168370884723,-2.8038317800188994,-43.041429207825729
371417.56622079824,-0.011643999596656355,-2.8052344514589,-43.051688948905827
371446.55262308969,-0.012513245266536851,-2.8056717943898235,-43.047279992156632
371475.541287556,-0.012444077718570479,-2.8031853395004402,-43.046734652141254
371504.53221437387,-0.014077757629944138,-2.8039374268576682,-43.054361064662558
371533.5254037198,-0.013640990114799138,-2.8040229583823262,-43.051736163187336
371562.52085577039,-0.014996288157088993,-2.8057391850150926,-43.053797935481278
371591.51857070217,-0.012929946128379204,-2.8065116012232534,-43.063934696557482
371620.51854869176,-0.016153777261382826,-2.8063776193795729,-43.044852810903649
371649.52078991587,-0.016495337546973889,-2.8057308482367214,-43.066934304503313
371678.52529455099,-0.01614274525459487,-2.8071612654369478,-43.061413582510625
371707.53206277383,-0.015620702971795963,-2.8067355617974861,-43.063217369636902
371736.54109476105,-0.016041264104268087,-2.8071046044329306,-43.057052513320556
371765.55239068932,-0.017721322457317668,-2.8079317889344453,-43.073160381381058
371794.5659507353,-0.014859664099148129,-2.8095867248606488,-43.078584677281327
371823.58177507576,-0.018936703449215012,-2.8079504378375253,-43.077787939180951
371852.59986388724,-0.01841973520758455,-2.8103018037426759,-43.083255775751255
371881.6202173467,-0.01758484474291485,-2.8091411776985842,-43.086452587705821
371910.64283563063,-0.015617438178941328,-2.8106230629775117,-43.08956755842523
371939.66771891603,-0.017965285098922479,-2.8076053144047108,-43.077860342749538
371968.6948673795,-0.019021345961854091,-2.8107782105303669,-43.080410453727779
371997.72428119782,-0.016606824181785964,-2.8109737295014439,-43.083634129451667
372026.75596054789,-0.018886866126393675,-2.8098803330529556,-43.087509373868457
372055.78990560648,-0.019735618795171599,-2.809416864763806,-43.09769367985642
372084.82611655031,-0.019567951316086241,-2.811603399535457,-43.092798765535576
372113.86459355633,-0.020539933027089483,-2.8120078486565436,-43.096292333831585
372142.90533680143,-0.018434627878548313,-2.8123173388817762,-43.092971383515618
372171.94834646233,-0.020880097142159229,-2.8126499930629367,-43.100137413042091
372200.99362271599,-0.020730065086768012,-2.8123975998978534,-43.109669948895338
372230.0411657393,-0.022000935846096921,-2.813523821633781,-43.101359697550237
372259.09097570908,-0.019178100681826706,-2.8143056881213653,-43.114876268402128
372288.14305280242,-0.020772039653812392,-2.8155545803480275,-43.109721761533009
372317.19739719608,-0.021345820614100449,-2.8152497181348224,-43.109497463024198
372346.25400906714,-0.021923641166313665,-2.815405687152992,-43.114583070307106
372375.31288859242,-0.020394260127837256,-2.8152520350377062,-43.113047693468502
372404.37403594906,-0.020590855192202842,-2.8146852726916154,-43.117872024857036
372433.43745131395,-0.021706770299175095,-2.8164968933995183,-43.126933307753603
372462.50313486409,-0.021519510485845942,-2.8167260260126916,-43.119234016728441
372491.5710867765,-0.020477648165366531,-2.816153028293797,-43.13309856434617
372520.64130722819,-0.019074120632896815,-2.8151144756602706,-43.13159185509619
372549.71379639622,-0.01882180345164073,-2.8161902688701828,-43.131668313555679
372578.78855445771,-0.017272086213704366,-2.8161555966050269,-43.136092492854353
372607.86558158963,-0.020837076080784389,-2.8165667797608469,-43.135696024126162
372636.94487796916,-0.018619248549510185,-2.8173200417895101,-43.145515404041532
372666.0264437733,-0.016484339757975201,-2.8192644055286791,-43.145719257326618
372695.11027917924,-0.016452809530874173,-2.8200935960261058,-43.140855278198501
372724.1963843641,-0.016894725938550167,-2.8187903438280317,-43.154189846810254
372753.28475950495,-0.018490771592517528,-2.8187476382809113,-43.148233889513833
372782.37540477898,-0.017246390479686662,-2.8186051018178668,-43.147969878970187
372811.46832036338,-0.015983215726737169,-2.8207817583920436,-43.158657131953788
372840.56350643531,-0.01535081155869847,-2.8199192000566011,-43.156092785366454
372869.66096317198,-0.014793428587826578,-2.8213606628414207,-43.162350984566018
372898.76069075061,-0.016147351326124951,-2.8211691906615881,-43.144373748876504
372927.86268934835,-0.01694765808858336,-2.8206625204552003,-43.155487849898691
372956.96695914253,-0.016529323086244323,-2.8212528846951046,-43.174230869854824
372986.07350031036,-0.01464173881736237,-2.8209126237526876,-43.170075749512108
373015.18231302907,-0.014776053723345558,-2.8216849829463935,-43.157325184109062
373044.29339747602,-0.014156499332894411,-2.8223904972583518,-43.148328483957968
373073.40675382846,-0.014463725292531295,-2.8222388965173351,-43.163622975008209
373102.52238226362,-0.015408098980347939,-2.8240918747754975,-43.184912309991027
373131.64028295892,-0.011157509657305645,-2.822975546885635,-43.171551000911201
373160.76045609167,-0.014000615002296473,-2.821820224775184,-43.18484148712389
373189.88290183921,-0.014103496974814321,-2.8247992952460721,-43.169249909178347
373219.00762037886,-0.013575788605422216,-2.8245183398598654,-43.180385484901336
373248.13461188803,-0.014257625832149543,-2.8265832274360152,-43.176960826525516
373277.2638765442,-0.013457504271218636,-2.8235758106576059,-43.174990262922165
373306.39541452465,-0.012687670975865702,-2.8253443196494539,-43.188361310465879
373335.52922600677,-0.012848484147660042,-2.8243797039795693,-43.190838489860838
373364.66531116812,-0.01365337475750293,-2.8254766211536748,-43.181675786411368
373393.80367018603,-0.012208487037339193,-2.8247581720012378,-43.19271633773306
373422.94430323795,-0.011923695595611274,-2.8265450707114508,-43.19004556856396
373452.08721050154,-0.013079759942468704,-2.8245021753112045,-43.199186862692514
373481.23239215405,-0.011186149219833658,-2.8290937305408361,-43.204652021040928
373510.37984837306,-0.009399808804197959,-2.8266310635339646,-43.189091914639334
373539.52957933617,-0.0090355865464201001,-2.8272544793142682,-43.198261744444338
373568.68158522079,-0.0096712288363327535,-2.829427547048347,-43.204751077931363
373597.83586620452,-0.013108577340255891,-2.8277527803948348,-43.20252043197938
373626.99242246494,-0.011737623853107688,-2.8274474202102953,-43.209797096872315
373656.15125417954,-0.0094413857033923496,-2.8287159513902376,-43.208334186747813
373685.31236152595,-0.0097863283314586352,-2.8290454550800219,-43.215499111806579
373714.47574468178,-0.0095639523401869053,-2.8305085228926448,-43.217994284107768
373743.64140382461,-0.009947674854699648,-2.8304316491343067,-43.227022249891448
373772.80933913204,-0.0090670655697407537,-2.8311407717671262,-43.228027681684999
373801.97955078183,-0.0088178186677805755,-2.8295370472527797,-43.22711889464901
373831.15203895146,-0.009433991359913926,-2.8312852902488621,-43.218514530427342
373860.32680381869,-0.0096389927198706916,-2.8302839744244723,-43.213277029222709
373889.50384556124,-0.0082821408452137691,-2.8306756102556663,-43.229671192711685
373918.68316435668,-0.0095686215458088177,-2.8334032919387275,-43.231047763640149
373947.86476038286,-0.010030205176826967,-2.8322787301474888,-43.247218650835357
373977.04863381741,-0.0094868587825088987,-2.8318358044315888,-43.229399080741587
374006.2347848381,-0.0097637563468091701,-2.8325034180097237,-43.247379757550085
374035.42321362259,-0.0094577687637936447,-2.8337075436367707,-43.241754962305556
374064.61392034881,-0.010081135204670874,-2.8331928140021749,-43.243968366993698
374093.80690519442,-0.0093133462686601984,-2.8334587361810799,-43.23913689804354
374123.00216833723,-0.0089829650590238092,-2.8325763223206728,-43.231347666719287
374152.19970995502,-0.0075010797449288243,-2.8328994040549178,-43.252850219553139
374181.39953022567,-0.0063090950563488412,-2.8348485347586139,-43.250195811779534
374210.60162932693,-0.0084258397988601023,-2.8345566024921691,-43.253488459007521
374239.80600743671,-0.0098097856993637871,-2.8324518107916314,-43.245240490111428
374269.01266473293,-0.007716982574490259,-2.835433291599494,-43.255645712345817
374298.22160139336,-0.0082002384208905519,-2.8353710794623681,-43.24840377270732
374327.43281759584,-0.0088583394825073377,-2.8365381962080822,-43.257125391277697
374356.64631351846,-0.007454237357267351,-2.8345437045391524,-43.254292615283489
374385.86208933889,-0.0071384145262787498,-2.8334529213106903,-43.252732544027964
374415.08014523529,-0.0068937473619863979,-2.8358766761727972,-43.250539457990484
374444.30048138543,-0.0085426449470497809,-2.8357909707349709,-43.251046306095013
374473.52309796744,-0.0060209337705105798,-2.8356296073708109,-43.244086827048612
374502.74799515912,-0.008768366047063653,-2.834788387948552,-43.243269644126983
374531.97517313861,-0.00651809836874713,-2.8359090289466975,-43.25286115668721
374561.20463208371,-0.0062338472670637321,-2.8368026057317879,-43.266037813627491
374590.43637217267,-0.0070112128930024647,-2.8368504361651019,-43.264247052115969
374619.67039358331,-0.0069898078720133251,-2.8371146731744763,-43.251740759179704
374648.90669649374,-0.0085619330166827202,-2.8366737359797716,-43.27171534368162
374678.14528108208,-0.00567997685517757,-2.8383321294094754,-43.273933663509318
374707.38614752633,-0.0069874075793282921,-2.838608262770105,-43.270645705637321
374736.6292960046,-0.005696006364361684,-2.8392459951762605,-43.27474059502913
374765.87472669495,-0.0080057359946253005,-2.8382184901128351,-43.275432020221842
374795.12243977556,-0.0055955779579016296,-2.8392329221066746,-43.271357385752196
374824.37243542448,-0.0064330406349282334,-2.8394837539263884,-43.270356169101049
374853.62471381988,-0.0059838683942312803,-2.8402231210979929,-43.27489704761804
374882.87927513995,-0.0066880137945505777,-2.8403873550899048,-43.286076572896505
374912.13611956278,-0.0079150975260053637,-2.8401042826644756,-43.293657863499661
374941.39524726657,-0.0066560329287477411,-2.8407220604112049,-43.284716705437305
374970.65665842954,-0.0077092820893105264,-2.8388041821355374,-43.285877188481919
374999.92035322991,-0.0067259918642436373,-2.8408313949696091,-43.291644423108821
375029.18633184576,-0.0071094054747351714,-2.8415592528894673,-43.299276715602787
375058.45459445554,-0.0067495244258667384,-2.8408334741188201,-43.287459656747615
375087.72514123743,-0.0055146910786266663,-2.8418041339379041,-43.2950741018727
375116.9979723696,-0.0076086981813225764,-2.8405696814589252,-43.29765303866445
375146.27308803046,-0.0062812504324866016,-2.840443154402545,-43.276934633134672
375175.55048839812,-0.0067819367494993017,-2.8411175805176159,-43.298223256903789
375204.83017365105,-0.0058942925591655504,-2.8424946636109132,-43.297458709056528
375234.11214396753,-0.0069451546801721706,-2.8418762514936642,-43.306158284930419
375263.39639952587,-0.0071108086725444981,-2.8413611906401104,-43.310716149851068
375292.6829405044,-0.0056426743735173163,-2.8434630908491378,-43.30266452025144
375321.97176708147,-0.0074344285454501407,-2.8435059399678773,-43.306161097244321
375351.26287943556,-0.0054352730121283149,-2.8434944970349152,-43.302647824304216
375380.55627774494,-0.0085134775378327004,-2.8424875903502143,-43.306226894211605
375409.85196218808,-0.0063814049149548847,-2.8429923346575543,-43.308551803823846
375439.14993294334,-0.0066950743634511516,-2.8424609607691309,-43.312305371027037
375468.45019018918,-0.0067886450217432021,-2.8434681214110951,-43.314598287581703
375497.75273410405,-0.0066651255768896394,-2.8453587917145446,-43.321626145441655
375527.05756486644,-0.0064460382380853633,-2.8446745210325064,-43.331444917763989
375556.36468265468,-0.0055585778066771264,-2.8444925026867467,-43.321383634911172
375585.67408764747,-0.0068111462476196372,-2.8456495695341042,-43.32441312009081
375614.98578002315,-0.0072169724700607172,-2.844692030746176,-43.327847221037217
375644.29975996027,-0.0054770306610524271,-2.8483719933215124,-43.34107012585828
375673.61602763738,-0.006245520855406618,-2.8474211855839568,-43.324715423452403
375702.93458323303,-0.0072321158229723967,-2.8458665326425461,-43.34081363713301
375732.25542692578,-0.0062126535970218454,-2.848326718778766,-43.34025851100229
375761.57855889417,-0.006215129885523747,-2.8479396773690233,-43.330493415780666
375790.9039793167,-0.0052655903743125208,-2.8476742386960541,-43.329486582527011
375820.23168837215,-0.0061218549468567817,-2.8460161872752021,-43.329713368211983
375849.56168623897,-0.0063067617993295931,-2.8467258588931825,-43.344036058615885
375878.89397309587,-0.006329388521856368,-2.8472605151022123,-43.330169012224246
375908.22854912147,-0.0083608560847991537,-2.8463752373724494,-43.349085541445262
375937.56541449449,-0.0072435466080046553,-2.8499209894297675,-43.344205344889787
375966.90456939343,-0.0083191406921704399,-2.8480607547797536,-43.342191155154694
375996.24601399712,-0.0059193498371575863,-2.8487654704356431,-43.351548639085252
376025.5897484842,-0.0060238876108036684,-2.8480258800798026,-43.331334056699667
376054.93577303336,-0.0063868246581836267,-2.8482217134979986,-43.35100181146143
376084.28408782335,-0.0071712837924048549,-2.8504594209733076,-43.360638647852682
376113.63469303295,-0.0086607509561082985,-2.8480179777629751,-43.359233421916556
376142.98758884083,-0.0072212874750693821,-2.8484119842813111,-43.351078532199608
376172.3427754257,-0.0064966366078320278,-2.8494076265946058,-43.354155369395066
376201.70025296655,-0.0078562849964650336,-2.8482502579311046,-43.364023397620855
376231.06002164201,-0.0053453787244839542,-2.85070576954447,-43.360636770534782
376260.42208163091,-0.007092227022103062,-2.8508103259672812,-43.356900761520286
376289.78643311205,-0.0086621468818787566,-2.8495771445113731,-43.362002723136868
376319.15307626437,-0.0064885246532841697,-2.8524643433410173,-43.367666894745021
376348.52201126661,-0.0070961525676040849,-2.8531653088064446,-43.371143143381531
376377.89323829766,-0.0069205827089510313,-2.8518317963935553,-43.37070583044212
376407.26675753639,-0.0072479691826991925,-2.8518958049389793,-43.371907362218536
376436.64256916172,-0.0070619282986403905,-2.8534188311149671,-43.37701955521657
376466.02067335253,-0.0064405542441524528,-2.8530318178598395,-43.378207843334586
376495.40107028774,-0.0074802114760362751,-2.8540183567381519,-43.381578651141552
376524.7837601463,-0.0060381624950925092,-2.8538974619850195,-43.379201120111475
376554.16874310712,-0.0079810436562744412,-2.8523978254369449,-43.381052089783594
376583.5560193492,-0.006413506529277236,-2.8548751474977681,-43.376758051570107
376612.94558905152,-0.0057840316807756791,-2.8546248034332229,-43.384374839637957
376642.33745239303,-0.0058008024751258561,-2.8559385364675869,-43.381604165908399
376671.73160955275,-0.0084200032436861014,-2.8540699268640362,-43.395084901700656
376701.12806070963,-0.0070079058492690041,-2.8545259356671955,-43.389843602092753
376730.52680604282,-0.0057354583729248149,-2.8573870405360986,-43.391886059383438
376759.92784573132,-0.0052541138813509171,-2.8565287104315837,-43.388487721798739
376789.33117995405,-0.0065851219455810997,-2.8571422696036035,-43.398960781336029
376818.7368088903,-0.0059770638890143538,-2.8578298976454217,-43.395378324879601
376848.14473271905,-0.0058073925639523854,-2.8576999004458918,-43.388795562600052
376877.55495161942,-0.0077913614670640273,-2.8571586962708544,-43.400952129314867
376906.96746577049,-0.0075727275864957543,-2.8552818239837796,-43.390627168328336
376936.38227535138,-0.0076208318274692379,-2.8574660880353036,-43.397892336583823
376965.79938054137,-0.0074288782889687767,-2.8564348371156658,-43.406231990176821
