#Digilent WaveForms Network Analyzer - Bode
#Device Name: Discovery2
#Serial Number: SN:210321A35FCC
#Date Time: 2018-10-27 22:31:10.449
#Start: 490000 Hz
#Stop: 505000 Hz
#Steps: 500
#Wavegen: Wavegen1
#Amplification: 1 X
#Settle: 10 ms
#MinPeriods: 16
#Channel: Channel 1
#Range: 5.42537 V
#Offset: 0.000183761 V
#Relative: no
#Channel: Channel 2
#Range: 5.47028 V
#Offset: -7.92091e-07 V
#Relative: yes

Frequency (Hz),Channel 1 Magnitude (dB),Channel 2 Magnitude (dB),Channel 2 Phase (°)
490000.00000000006,0.0091033508378815693,-2.9363494445673721,-43.842346406567813
490029.61009041336,0.0092032784342599826,-2.9366880367930142,-43.849319375100038
490059.22197012755,0.0090373304395373003,-2.9373061779257794,-43.847728638459941
490088.83563925081,0.008668804735482212,-2.9385791083647943,-43.854418921311549
490118.45109789126,0.0087022430257966358,-2.9381826882151247,-43.849915789129398
490148.06834615703,0.0094265121472763922,-2.9381500622745764,-43.852013328067045
490177.68738415628,0.009206418729859854,-2.9377083613520725,-43.848451472027662
490207.30821199721,0.0096397221600872333,-2.9377796006026036,-43.862987299749548
490236.9308297878,0.0081031673097138966,-2.9395578106976639,-43.848091925937013
490266.55523763644,0.0076414849960708218,-2.9378986675250571,-43.85001677978039
490296.18143565109,0.009033538327092824,-2.9380113424143062,-43.851920784290328
490325.80942394014,0.0079035965912648935,-2.9389731587958243,-43.859356740097269
490355.43920261157,0.0095923213846034194,-2.9402425312243681,-43.865648546977283
490385.0707717737,0.0089648703818014271,-2.9403842317519633,-43.866629170246796
490414.70413153461,0.0087041195346236645,-2.941134351925192,-43.874394070871972
490444.33928200271,0.010912259492788687,-2.9415723000692124,-43.874035863124647
490473.97622328601,0.010524942814214396,-2.9408086468616017,-43.87402783845323
490503.61495549284,0.010102824139431119,-2.9408463307480552,-43.87802649499838
490533.25547873141,0.010137138688699832,-2.9428447145631784,-43.873969740693987
490562.89779310982,0.0089557561097464277,-2.9412006564837907,-43.874830409699342
490592.54189873656,0.00846364706909398,-2.9417517689064399,-43.874310720802548
490622.1877957196,0.0096877255918744673,-2.942683313709697,-43.876614702271837
490651.83548416739,0.0093695580780445084,-2.9434203215508314,-43.871372784269099
490681.48496418801,0.0096453131013502658,-2.9430051244382822,-43.885035505428959
490711.13623588992,0.0090453704370017721,-2.9433750474615046,-43.888550977898205
490740.78929938126,0.0092167073145908562,-2.9433579333355735,-43.881248837696006
490770.44415477029,0.0098177472704724898,-2.9448024420855665,-43.890993214358851
490800.1008021654,0.0075342013639333278,-2.9427424968726656,-43.895883197115708
490829.75924167485,0.010526204991490613,-2.9444951881098858,-43.894553325003486
490859.4194734068,0.0094866228526252171,-2.9432342143196495,-43.894820132577372
490889.08149746968,0.0078621636458023319,-2.9444137181977204,-43.899580420805762
490918.74531397183,0.0091912551058939695,-2.9448727347462884,-43.903139451283778
490948.4109230215,0.0085354866931017133,-2.9446976015920172,-43.893172787350522
490978.07832472702,0.0093098070409560005,-2.9472829025806764,-43.902077060113683
491007.74751919665,0.0095065186378235755,-2.9452300911440248,-43.901629271742387
491037.4185065389,0.0086810409477365777,-2.9447808578766099,-43.908745335968092
491067.09128686192,0.010163847776459022,-2.9468069427057864,-43.907716249830784
491096.76586027414,0.010304129580588619,-2.9458824261254573,-43.916713349789333
491126.4422268839,0.0093914451085002244,-2.9452907336782297,-43.909341747944922
491156.12038679962,0.0097265501942741979,-2.9469749469054296,-43.91025664561343
491185.80034012964,0.0093490096692782736,-2.9476973855999153,-43.917078936699454
491215.48208698229,0.0075051462125500113,-2.9453759272892728,-43.912845369103557
491245.16562746593,0.010296314022886961,-2.9479503507199518,-43.917980710613875
491274.85096168908,0.0091367469754555369,-2.9482572350904173,-43.906188914556395
491304.53808976,0.0088243451826749957,-2.9478494309765346,-43.920296125775074
491334.22701178712,0.010253964707647528,-2.9483879883004622,-43.915864043729073
491363.9177278789,0.0098647477216784966,-2.9488685998050328,-43.922112016345551
491393.61023814371,0.0080572840761013488,-2.9475687219601343,-43.922522027164447
491423.30454268999,0.0088440198107112619,-2.9481796252925458,-43.931366061838659
491453.00064162613,0.0081952805051335228,-2.9495999703292264,-43.919779041669628
491482.69853506057,0.0073299547729941466,-2.9490028233668149,-43.916825173221753
491512.39822310174,0.0088015955702436238,-2.9505433702254402,-43.926696030747593
491542.09970585821,0.0081623819909818901,-2.9489926924934631,-43.936445895565015
491571.80298343825,0.0089601241999401719,-2.9492173196867726,-43.937936254023043
491601.50805595046,0.0079826758728462482,-2.9501562089625915,-43.936020236350544
491631.21492350317,0.0091068268772140828,-2.950951495986275,-43.932191730879119
491660.923586205,0.0074440339386456517,-2.9505706725997651,-43.942832335669969
491690.63404416433,0.0075762406808433276,-2.9507824661834765,-43.929475159283044
491720.34629748965,0.008668329846931307,-2.9509319003339951,-43.942170163675307
491750.06034628954,0.0076136254538101654,-2.9508048532109283,-43.938259841435162
491779.77619067236,0.0081564283919537579,-2.9510930765831409,-43.940916883148219
491809.49383074668,0.0096919099430897871,-2.9529259836567894,-43.941388743054588
491839.21326662105,0.0099818105315411174,-2.9517560671791374,-43.943705132773857
491868.93449840398,0.0084955698846333437,-2.9541216972720576,-43.949959013222674
491898.65752620396,0.010081395946904095,-2.9538861495706303,-43.944651109795444
491928.38235012954,0.008736163566402954,-2.9530206926971623,-43.945379436305238
491958.10897028929,0.0092987139750295347,-2.9548786177686504,-43.958507977890122
491987.83738679159,0.0080810757730947601,-2.9527801738522177,-43.958827103029193
492017.56759974523,0.0084194871963965984,-2.9544719409031743,-43.958766187491349
492047.2996092586,0.008113997979047884,-2.9539881002896169,-43.962387116963754
492077.03341544035,0.00791633501070153,-2.9551845050405361,-43.961001899913555
492106.76901839901,0.0081337734388455731,-2.9548139105977738,-43.960054419521526
492136.50641824317,0.0070459781232024045,-2.9554382061963818,-43.962613584996753
492166.24561508134,0.0085008445043274292,-2.9554410846944585,-43.966171007295046
492195.98660902219,0.0078824509065987518,-2.9539747797639193,-43.964689195907013
492225.72940017434,0.0079672170566226115,-2.9566054914502042,-43.972422672171362
492255.47398864641,0.0087084226920502699,-2.9556822645335759,-43.966605034712913
492285.22037454689,0.008112476328919184,-2.9556436726126241,-43.96712151584785
492314.96855798451,0.0080272259379042723,-2.9577030465886494,-43.960264848963739
492344.71853906784,0.0078475162358557903,-2.9561313075715798,-43.968955942712611
492374.47031790548,0.0062051642000091672,-2.9571218250613898,-43.973843755406492
492404.22389460611,0.0073919965889980141,-2.9579216184231165,-43.981543615366732
492433.97926927835,0.0082792412731155923,-2.9578625347609995,-43.983757149937013
492463.73644203087,0.0074588017944495618,-2.9580050581171715,-43.989311697003643
492493.49541297235,0.0076196049151211719,-2.9579251817819578,-43.983965960177116
492523.25618221139,0.0068213171215146563,-2.9560396892265199,-43.987987523966872
492553.01874985674,0.0065888824729605769,-2.9588224184767538,-43.991251292624753
492582.78311601694,0.0057409885960902074,-2.9582529007917664,-43.988968188991301
492612.54928080086,0.0073034165467332993,-2.9599530144626103,-43.989311277837274
492642.31724431703,0.0063503242853592354,-2.9590930408449161,-43.993253174699845
492672.08700667421,0.0054504194917343353,-2.9597946088879894,-43.997238990876241
492701.85856798111,0.0046764112339187083,-2.9590871401202508,-43.987601716406246
492731.63192834641,0.006483234202503403,-2.96001902091853,-43.990873782506746
492761.40708787885,0.0062644423943181461,-2.9598694791513309,-43.997739775776942
492791.18404668709,0.0042728606777698254,-2.9589033294275673,-44.002798065936304
492820.96280487993,0.0060582959939022634,-2.9603744756354002,-44.003956103700773
492850.74336256611,0.0050801902704266906,-2.961124598902829,-44.009235794172831
492880.52571985434,0.0050473036915342547,-2.9607847691754023,-43.998765139549121
492910.30987685331,0.0035109970854026438,-2.9596897221366443,-44.008297383830445
492940.09583367192,0.0063010310124990646,-2.9620810828889432,-44.008235610394344
492969.88359041879,0.003689009147799723,-2.9624656927582804,-44.014297421185326
492999.67314720276,0.0056329484106421674,-2.9632388293329432,-44.008983902603944
493029.46450413257,0.0038873246735073377,-2.9620921470291028,-44.014466244319166
493059.25766131707,0.0035758515214751969,-2.9620159009760885,-44.017446753315767
493089.05261886492,0.0034689158149345135,-2.9619870519452922,-44.012891297439019
493118.84937688499,0.0033871792166210329,-2.9632576417318872,-44.015070626083926
493148.64793548611,0.0044245855479346091,-2.9624184592823544,-44.016781433813719
493178.44829477713,0.0031702049762496734,-2.9634640257412119,-44.030381170781254
493208.25045486668,0.0029284130691790461,-2.9636429106094346,-44.028780121090563
493238.05441586371,0.0043509140385316657,-2.9643436548812989,-44.015954603568531
493267.86017787707,0.0031681019336286869,-2.964105453784271,-44.028866844988201
493297.6677410155,0.001132738002242857,-2.9645547930085669,-44.025873836439573
493327.47710538795,0.0026376169004592872,-2.966240708712558,-44.020171677633968
493357.28827110311,0.0014198465809705117,-2.9634772718652829,-44.032597243545041
493387.10123827,0.0023330812960426755,-2.9656062834250854,-44.031043504684646
493416.91600699734,0.0026978818931770784,-2.9665694481624145,-44.039834246656106
493446.73257739411,0.0021126212768699431,-2.9660197070333179,-44.034027092720734
493476.55094956921,0.0013792502697660303,-2.9658816275523749,-44.037509850189849
493506.37112363131,0.0039759671318149881,-2.9675545949226501,-44.045742266078776
493536.1930996895,0.0012329796282899387,-2.9660561961988301,-44.040964270287645
493566.01687785261,0.0014253399623396345,-2.9697962382225866,-44.04784830423047
493595.84245822951,0.00036620821871244277,-2.9664956606758968,-44.048051673961865
493625.66984092916,-0.00083517843321973136,-2.9680524522508867,-44.045697221197926
493655.4990260604,-0.0013591661073637186,-2.9672868940943138,-44.042582233213551
493685.33001373219,0.0005426576796531391,-2.9683031031786178,-44.050889485115633
493715.16280405346,-0.00085232228607297518,-2.9667456330507247,-44.054816039318517
493744.99739713309,-0.0011559476455430208,-2.9693817669156224,-44.050499696398049
493774.83379308018,-0.001082451343112403,-2.9671327094818905,-44.05874923815135
493804.67199200351,-0.00051917761665192452,-2.9690395085375219,-44.056917482992169
493834.51199401205,-0.00034152260922133584,-2.9706087874772527,-44.060051427621374
493864.35379921476,-0.0019158209181830733,-2.9693370018698544,-44.065210770817046
493894.19740772067,-0.0020898989453913175,-2.9692077732035713,-44.067654552450477
493924.04281963874,-0.0035930012522347016,-2.9713840566486867,-44.069223056144622
493953.89003507793,-0.0014894885424055972,-2.9714272547210947,-44.061318189478229
493983.73905414715,-0.0027964170256779236,-2.9711347676041107,-44.069356315583761
494013.58987695549,-0.0015206785139701357,-2.969781401168472,-44.072160963159405
494043.44250361191,-0.0029110121355664198,-2.9711476344486005,-44.064074868069156
494073.29693422548,-0.0042903245384877543,-2.9704640246055742,-44.07601619320593
494103.15316890506,-0.0050154666659134733,-2.9724870982378833,-44.074772136298193
494133.01120775979,-0.0052133132050027446,-2.9723800255112871,-44.073774083897575
494162.87105089874,-0.0040354728571678471,-2.9727185244424019,-44.084428440660176
494192.73269843083,-0.0049105271720158231,-2.9728874931409228,-44.080090847418361
494222.59615046508,-0.0057841326397254809,-2.973309918536831,-44.085247789740762
494252.46140711062,-0.0077614162023831755,-2.9724195923933596,-44.079990812603484
494282.32846847642,-0.0077126982512883127,-2.972942042769064,-44.086369667865156
494312.19733467157,-0.0067554004189268419,-2.973867011841711,-44.091646579497208
494342.06800580525,-0.008472316693637235,-2.9729229066538414,-44.082821153435447
494371.94048198638,-0.0089810614807050507,-2.9732669715029543,-44.090231961899917
494401.81476332404,-0.0070087677480817415,-2.9748449848370635,-44.079628643317136
494431.69084992737,-0.0056536188394482757,-2.9739256166305559,-44.096350692453882
494461.5687419055,-0.0065773371606917949,-2.9776561088363787,-44.10155189464659
494491.44843936741,-0.0068425006624771084,-2.9758470482587942,-44.100433955163624
494521.32994242228,-0.0058993407654286687,-2.9753918243689776,-44.106236340068108
494551.21325117926,-0.0064908797586540768,-2.9752234050539221,-44.096422880872083
494581.09836574731,-0.0057399764016401265,-2.9762111766509847,-44.10241247816861
494610.98528623575,-0.0054356230580859645,-2.976594656360084,-44.105660703880815
494640.87401275354,-0.0038014077854768621,-2.97799138083119,-44.104333151374021
494670.76454540994,-0.0041931025986635326,-2.9776894943624659,-44.104922796702795
494700.65688431403,-0.0044630879127706864,-2.9767689676642584,-44.107889236253023
494730.55102957494,-0.0034268412800496839,-2.978231032441816,-44.110790581663473
494760.44698130194,-0.0047600099914974622,-2.9769903419599393,-44.115021029524399
494790.34473960404,-0.0016129955395365334,-2.9788581050299543,-44.117153680103769
494820.24430459051,-0.003795631119620297,-2.9779595905144252,-44.109992123692976
494850.14567637048,-0.0030606215205376381,-2.9793113993051481,-44.10999699869609
494880.04885505314,-0.002725391598729936,-2.9785033971822878,-44.108988530747723
494909.95384074771,-0.00029691204046571279,-2.97883982028829,-44.119642303315402
494939.86063356331,-0.002133324837730008,-2.9795644836791277,-44.126835451807906
494969.76923360926,-0.0029043143742331222,-2.9789649608284527,-44.128910913915249
494999.6796409947,-0.0020466647751843773,-2.9792454149611509,-44.118626125213964
495029.59185582882,-0.002679246684349137,-2.9787349111878609,-44.135000587848666
495059.50587822089,-0.0011236726211017215,-2.9809188021368231,-44.138629414871332
495089.4217082801,-0.00053586302066631645,-2.9809599591384779,-44.140265951006498
495119.33934611571,-0.0011224473850395245,-2.9795342649866741,-44.130167501839111
495149.25879183697,-0.0010426843762866064,-2.9805823201419153,-44.138452177177442
495179.18004555308,0.0011290528161423759,-2.9822479271733733,-44.145742837290882
495209.10310737335,0.00174000641539079,-2.9814609952222595,-44.139280442641734
495239.02797740698,3.3024611598050044e-05,-2.9817668891232572,-44.147797765597602
495268.95465576334,-0.0016037078636630666,-2.9814957035877314,-44.145142238423972
495298.88314255164,-0.00045728368794209533,-2.9816069867929809,-44.146981677477356
495328.81343788112,0.00042770817889086778,-2.9821840717693444,-44.150685688348858
495358.74554186111,0.00080659914739014866,-2.9830431444633665,-44.145456819339373
495388.6794546009,0.0010551666463151149,-2.9834325249501532,-44.151523843353246
495418.61517620983,0.0019383506860862457,-2.9835670758303721,-44.144581017362555
495448.5527067972,0.0030806663907596531,-2.9850489825576982,-44.161110689366332
495478.49204647227,0.0028265483681448856,-2.9835601707280839,-44.15378359783093
495508.43319534435,0.002447615292596609,-2.9842056963784067,-44.155565709063417
495538.37615352287,0.0016326576309146283,-2.9840472803946225,-44.164986497393642
495568.32092111709,0.0027097922049970991,-2.9853313466103781,-44.156576064384765
495598.26749823638,0.0016320121090053672,-2.9841727839843806,-44.163790176414381
495628.21588499,0.0034434580606899235,-2.9852430634744205,-44.153051566157615
495658.16608148743,0.0041521369276080397,-2.9860995321608712,-44.169180576631447
495688.11808783794,0.004280541085897943,-2.985583332176946,-44.161127298724765
495718.07190415094,0.0040162647018357877,-2.9880154707991204,-44.169174394342612
495748.02753053588,0.0051173922829916675,-2.986243485399291,-44.168752839816932
495777.98496710195,0.004988284721173142,-2.987564975766003,-44.176070223163961
495807.94421395869,0.0049750163173141494,-2.9860153402839362,-44.179415942952147
495837.90527121542,0.0045129458355223084,-2.9872378492908531,-44.181122166578888
495867.86813898158,0.0050845545414319494,-2.9878138323778689,-44.169424229046655
495897.83281736658,0.0039944301443250157,-2.9882609287347779,-44.169466532603224
495927.79930647981,0.0047895251779800961,-2.9882165343387044,-44.184940670088892
495957.76760643069,0.0053094185364212024,-2.9892310809127243,-44.184909194551352
495987.73771732865,0.0064735038060631991,-2.9897421246119951,-44.176583619140217
496017.70963928313,0.0053462028908015735,-2.9898960469135276,-44.189533454106027
496047.68337240355,0.0058544449565874146,-2.9892290609388223,-44.187807922960779
496077.65891679941,0.005064206133214285,-2.9896544013662076,-44.188495833086236
496107.63627258007,0.0058769057103784002,-2.9896860937268577,-44.189320672069925
496137.61543985514,0.0056999728758362874,-2.9884737929677869,-44.189553411647182
496167.59641873394,0.0039545634719347399,-2.9892907460583857,-44.204421619781357
496197.57920932601,0.0056029773419673905,-2.9902914734515695,-44.196067562373827
496227.56381174078,0.0050022732985049948,-2.9919223166524378,-44.197403920762
496257.55022608774,0.007949067045292444,-2.9901610905355143,-44.191635677311481
496287.5384524765,0.0059130843073855223,-2.9924964281750501,-44.2066313191105
496317.52849101642,0.0062983313716481314,-2.992100621310485,-44.211007423985222
496347.52034181711,0.0046943079261471546,-2.9921342522930754,-44.211498041062612
496377.51400498796,0.0051199199024871602,-2.9912384494117221,-44.210912464679389
496407.50948063866,0.0075337869203308096,-2.9919588328365099,-44.210423465394491
496437.50676887849,0.0040181374332752037,-2.9902978077201245,-44.210215582674948
496467.50586981728,0.0065433715142800613,-2.9922966534971445,-44.209622355487305
496497.50678356434,0.0068811572879750585,-2.9920148511016711,-44.204992547222588
496527.50951022928,0.0074130154542159784,-2.9938793416081393,-44.221233037067684
496557.51404992177,0.0064148469114126512,-2.9941306694603091,-44.215407710824479
496587.52040275116,0.006265405997277625,-2.9934328234386327,-44.218895819436966
496617.52856882714,0.0059937699681636954,-2.9941851135821649,-44.220586526609281
496647.53854825936,0.0068569622098360056,-2.9947140235467513,-44.214027243944294
496677.55034115713,0.0084424458710597658,-2.9965970655853584,-44.224499629363748
496707.56394763035,0.006724786093366613,-2.9957197900997121,-44.222362606824262
496737.57936778839,0.0060791906423091277,-2.9946303391676876,-44.234565236502249
496767.59660174098,0.0083046117333987583,-2.9962195077139042,-44.225643504758672
496797.61564959766,0.0087958357356715741,-2.9954166877416908,-44.231313755335634
496827.63651146804,0.0073005056722680577,-2.995435337076962,-44.233129136802916
496857.65918746183,0.0071669576271481909,-2.99733621605073,-44.241487673909887
496887.68367768847,0.0081808752765993378,-2.9961981553161614,-44.237892768987024
496917.7099822578,0.0075693746388920714,-2.998168677495443,-44.237694125464088
496947.7381012793,0.0082785450608540839,-2.997563596224631,-44.247624012079655
496977.7680348627,0.0073329611476193836,-2.9975030017176989,-44.240538850843301
497007.7997831176,0.0084127975834559082,-2.9964175078014903,-44.242743837086984
497037.83334615373,0.0076001684046333486,-2.9980062475024671,-44.235697487251876
497067.86872408068,0.008997837720528739,-2.999100974465474,-44.249160283757682
497097.90591700817,0.007413353027726834,-2.9987476846954992,-44.241280083255944
497127.94492504583,0.0077604230001005513,-2.9986281794623864,-44.259898478299419
497157.98574830341,0.0073175314891932575,-2.9994857526165069,-44.247261984757699
