#Digilent WaveForms Network Analyzer - Bode
#Device Name: Discovery2
#Serial Number: SN:210321A35FCC
#Date Time: 2018-10-28 01:34:47.677
#Start: 195000 Hz
#Stop: 230000 Hz
#Steps: 1000
#Wavegen: Wavegen1
#Amplification: 1 X
#Settle: 10 ms
#MinPeriods: 16
#Channel: Channel 1
#Range: 5.42537 V
#Offset: 0.000183761 V
#Relative: no
#Channel: Channel 2
#Range: 5.47028 V
#Offset: -7.92091e-07 V
#Relative: yes

Frequency (Hz),Channel 1 Magnitude (dB),Channel 2 Magnitude (dB),Channel 2 Phase (°)
195000,-0.720328125258901,-2.7834859528727045,-41.904543595050995
195032.22543656692,-0.71548326757637881,-2.7867521047370776,-41.918760152183367
195064.45619866592,-0.71748175379462431,-2.7877036418313499,-41.932213053642116
195096.69228717717,-0.71594955855169018,-2.7912248149856067,-41.960284702095791
195128.93370298087,-0.71555417904115637,-2.7932219827338027,-41.965144197994206
195161.18044695733,-0.71780908626012596,-2.7906409357270263,-41.946347964263687
195193.43251998717,-0.7158043137632657,-2.793415624043583,-41.974228764134907
195225.68992295102,-0.71525714000451801,-2.7922044748450565,-41.983077505125152
195257.95265672973,-0.71607450188290156,-2.794211689892709,-41.983685488462456
195290.22072220422,-0.71598587461961682,-2.795271256270123,-41.990669070765307
195322.49412025561,-0.71677900842429287,-2.7981970934282465,-42.002924510040486
195354.77285176516,-0.71336147750596779,-2.7981096914133015,-42.000411136308486
195387.05691761427,-0.71457791890535494,-2.797508498959747,-41.995601339595595
195419.34631868449,-0.71519443306282016,-2.7994752964400766,-42.005864949193764
195451.64105585753,-0.7166968582309956,-2.7992696206558558,-42.016825048117987
195483.94113001521,-0.71739530304843235,-2.8010567971041018,-42.013510769752571
195516.2465420395,-0.71427759415746028,-2.8010857192896617,-42.02360578355318
195548.5572928125,-0.71870082015572934,-2.8005348122990936,-42.031270103509485
195580.87338321659,-0.7143281969240074,-2.8038999022652256,-42.028226745285437
195613.1948141341,-0.71640424479168874,-2.8037419039398142,-42.021051247204056
195645.5215864476,-0.71686428754361831,-2.8039292375410612,-42.06551418476019
195677.85370103983,-0.71626089072278865,-2.8046482498133418,-42.051152594012876
195710.19115879363,-0.71647522071060954,-2.8064641295506436,-42.033260491034468
195742.53396059203,-0.71564910179814201,-2.8088600923639868,-42.077225376134571
195774.88210731818,-0.7163614965853925,-2.8069947121398342,-42.051047276083381
195807.23559985534,-0.7189409019283457,-2.8060385196900315,-42.062095368183819
195839.59443908694,-0.71869787237388527,-2.8076476698333082,-42.071618902826913
195871.9586258966,-0.7155588013905414,-2.8130623795014849,-42.089142383313572
195904.32816116809,-0.71865167005817365,-2.8163843366075758,-42.140910752504169
195936.70304578522,-0.71444390169804406,-2.8172038147510485,-42.15085604482897
195969.08328063204,-0.71482541539106403,-2.8214074803670899,-42.137271623831225
196001.46886659277,-0.71555656932295775,-2.8187781373267957,-42.138170945462107
196033.85980455164,-0.71682460894491495,-2.8205594163267129,-42.123956704587883
196066.25609539315,-0.71720417144382775,-2.8163953774068888,-42.133677875587672
196098.65774000197,-0.71455293381604712,-2.8197455737678463,-42.130011435261309
196131.06473926277,-0.71491832133378885,-2.8200577900745833,-42.129255084424756
196163.47709406051,-0.71172963748126516,-2.8208632517871246,-42.147253126216789
196195.8948052802,-0.71261895356268012,-2.8199125467463353,-42.155340863875402
196228.31787380704,-0.7106006631220565,-2.8159704600987205,-42.111766431582659
196260.74630052643,-0.71554175684052224,-2.812333848091094,-42.094484669468372
196293.18008632376,-0.71525673307783477,-2.8128704943554927,-42.109076001666871
196325.61923208472,-0.71399847132713867,-2.8170481634967115,-42.137753859539828
196358.06373869511,-0.71357380365637335,-2.8170297355900282,-42.126817118353046
196390.51360704083,-0.71495614267937102,-2.8164699872344565,-42.144465105504409
196422.96883800795,-0.71351255632258637,-2.8189293996818305,-42.157559414907354
196455.42943248269,-0.71353454163788921,-2.8204536120603958,-42.142934122295173
196487.89539135143,-0.71110783844943282,-2.8203224328193066,-42.134561895325916
196520.36671550066,-0.71132529081354323,-2.8238048699991043,-42.160597932507216
196552.84340581705,-0.71358525551946617,-2.8235706984261295,-42.178044050437791
196585.32546318742,-0.70964157830183261,-2.8255290985755672,-42.188035202810582
196617.81288849868,-0.70870488608534754,-2.8270232045573191,-42.188153264386202
196650.30568263802,-0.70808507507724261,-2.8246523144325542,-42.184635691332701
196682.80384649258,-0.71220139979467911,-2.8276417360738586,-42.207527718884144
196715.30738094979,-0.71089606586733345,-2.8258287664865849,-42.19082476573854
196747.81628689723,-0.71030005329000279,-2.8261169124402423,-42.180886593938666
196780.33056522248,-0.7104264589077719,-2.8272169015598099,-42.203354005229698
196812.8502168135,-0.70728958150880694,-2.8304030304348231,-42.221528339082994
196845.37524255819,-0.7082995166545405,-2.8319870161042342,-42.228513783260738
196877.90564334471,-0.70832210987716082,-2.8308159919175626,-42.209373488861246
196910.44142006131,-0.70836757939058581,-2.8330814096928143,-42.236398386051079
196942.98257359641,-0.71008120115443674,-2.8299344562093127,-42.2189953323482
196975.52910483858,-0.70790571318694728,-2.8347100768211102,-42.229105595160917
197008.08101467657,-0.70579268902413383,-2.8342592303672749,-42.235609355454521
197040.63830399918,-0.70755190854001793,-2.8371754714482433,-42.232135606139437
197073.20097369544,-0.70819094980051345,-2.8336016147719372,-42.246786726620378
197105.76902465447,-0.70968362709185495,-2.8385580232807888,-42.263281655926875
197138.34245776566,-0.70769648080101333,-2.8356223364839819,-42.262726287005464
197170.92127391839,-0.70908358771252145,-2.8380853434589808,-42.277512031727987
197203.50547400222,-0.70937509342765903,-2.8375141366292778,-42.253318222143179
197236.095058907,-0.70925419263428857,-2.8378958729775001,-42.254311813726446
197268.69002952249,-0.70984105393957919,-2.8397267889769577,-42.276801629870022
197301.29038673884,-0.7106666441778452,-2.8357103725968544,-42.263447735730182
197333.89613144615,-0.70559086619970524,-2.8393106852288574,-42.284168785108463
197366.5072645348,-0.70911293430777056,-2.8418219963782687,-42.277510405128453
197399.12378689524,-0.71010157293442822,-2.84313249908076,-42.296390722379982
197431.74569941813,-0.70898935227849647,-2.8433101247175845,-42.297553454636393
197464.37300299419,-0.71150853595756036,-2.8434787724828881,-42.311523810826166
197497.00569851435,-0.71157788275667999,-2.8429129114878018,-42.298985149386702
197529.64378686971,-0.71149969802081725,-2.844358310389294,-42.300266562162754
197562.28726895145,-0.70841480001169388,-2.8452488467872956,-42.298353062955677
197594.93614565092,-0.7101048628481087,-2.8468324281101856,-42.317411345929713
197627.59041785967,-0.70991391532136561,-2.8443546570461962,-42.310466017460399
197660.25008646934,-0.70978746648867452,-2.8478392884645105,-42.304993438351339
197692.91515237172,-0.71350964947798712,-2.8452390711033755,-42.321211626594462
197725.58561645873,-0.71093327016677343,-2.8507302700828214,-42.334883237499071
197758.26147962254,-0.71167781718280598,-2.8484768390727586,-42.317740086997944
197790.94274275535,-0.70986455556880224,-2.8485747421260887,-42.332313950219316
197823.62940674953,-0.71410119744096412,-2.8484049666644902,-42.34656332378632
197856.32147249766,-0.71078198962810402,-2.8494420496540602,-42.352797567169318
197889.01894089239,-0.70912522866397498,-2.8522006062799483,-42.356327917574163
197921.72181282661,-0.70819626486203946,-2.8520849342722459,-42.35662713021722
197954.43008919322,-0.70962114929513931,-2.8536307735628341,-42.362271412774547
197987.14377088542,-0.71199423370251047,-2.8544417019440522,-42.3628248219024
198019.86285879646,-0.71573448842844689,-2.8525755093973664,-42.372518751012848
198052.58735381978,-0.71499478001664329,-2.8544601163061096,-42.371827232200744
198085.31725684894,-0.71510036183985759,-2.8558028378324178,-42.365799130315281
198118.05256877764,-0.71481640898549925,-2.8532528303288069,-42.362224269665305
198150.79329049977,-0.7160859514468052,-2.8567758610783267,-42.393593374519469
198183.53942290935,-0.71562475273742954,-2.8568892017025806,-42.387153860432051
198216.2909669005,-0.7136281100238141,-2.857927188161602,-42.395922885461083
198249.04792336762,-0.71634835029050126,-2.8562533006497413,-42.387639620813445
198281.81029320508,-0.71480467917861268,-2.8583344636373367,-42.392807046929633
198314.57807730752,-0.71216936422380495,-2.861212144950918,-42.401443196298999
198347.35127656971,-0.71378964295617464,-2.8615021411042236,-42.402937495947839
198380.12989188652,-0.71369126054692256,-2.8609058407113745,-42.409959037815511
198412.91392415302,-0.71369220297870939,-2.8620412157968174,-42.40786958203546
198445.70337426441,-0.71280148168132562,-2.8638761173911691,-42.436692918077526
198478.49824311602,-0.71104350061195587,-2.8663515629432279,-42.422480088630536
198511.29853160336,-0.70989261358699984,-2.8637793899550754,-42.44206008564322
198544.10424062205,-0.71345955968438124,-2.865605918548102,-42.426802015545377
198576.91537106791,-0.71255938606111446,-2.8685569559434492,-42.448946692998049
198609.73192383687,-0.71534515822884415,-2.8673089440694643,-42.463354052639303
198642.55389982497,-0.71300003724516348,-2.8694436790582034,-42.444391025143048
198675.3812999285,-0.71340157797443526,-2.8705045632451824,-42.453802566585523
198708.21412504383,-0.71027283653093065,-2.8698027348839177,-42.457894844656209
198741.05237606747,-0.7091559236232613,-2.8716003747180219,-42.480200704502863
198773.89605389614,-0.71335287944683823,-2.8701960037805705,-42.478559747564525
198806.74515942662,-0.71171462995905288,-2.8690987971196447,-42.467314742682106
198839.59969355588,-0.7113530438965654,-2.8718517114461815,-42.468906372573414
198872.45965718108,-0.70964309834723516,-2.8726258462081007,-42.489025167931402
198905.3250511995,-0.71340585314376437,-2.8731771433435469,-42.470956795248483
198938.19587650851,-0.71271071072437808,-2.8781061792110911,-42.476797501011831
198971.07213400572,-0.71204539598857519,-2.8739964204024329,-42.489772283127536
199003.95382458883,-0.71303456887076755,-2.8744283677342675,-42.498535351151091
199036.84094915571,-0.71096547035814195,-2.8776997819543975,-42.49989746542726
199069.73350860435,-0.71083596894090872,-2.8750097178468126,-42.506443164106017
199102.63150383296,-0.71085272230539465,-2.8784591333810066,-42.481838369289392
199135.53493573979,-0.71490374437607629,-2.8763789469268315,-42.506444350709309
199168.4438052233,-0.71236962059283804,-2.8768544824858506,-42.510967622399207
199201.35811318218,-0.71305202109187471,-2.8798005137203586,-42.518040562399435
199234.27786051508,-0.71436432533686189,-2.8787503001753589,-42.538655334751041
199267.20304812101,-0.71240145353488904,-2.8810488139826553,-42.540272350348779
199300.1336768989,-0.71595244899437138,-2.8793970497584409,-42.543680588831023
199333.06974774803,-0.7116185936771855,-2.8843010234752575,-42.543560351741526
199366.01126156776,-0.71834052883946087,-2.8819291131598339,-42.549071856201252
199398.95821925756,-0.71127395812559646,-2.8849777640055647,-42.569648126914039
199431.91062171705,-0.71281056001736742,-2.8834647616558278,-42.554529811983798
199464.86846984609,-0.71436787080740249,-2.8848776549039643,-42.5696720637319
199497.83176454453,-0.71524391252028785,-2.8871887209545739,-42.573831347366493
199530.80050671258,-0.71063604828381544,-2.8877835786529764,-42.56691212442945
199563.77469725042,-0.71459959562170816,-2.8859762932537962,-42.571609840082111
199596.7543370584,-0.71455134450034274,-2.8876018103765762,-42.56631740381215
199629.73942703716,-0.71669064221307677,-2.8869251535896185,-42.582968896906721
199662.72996808728,-0.71513093462126143,-2.8888616433408467,-42.562839463920625
199695.72596110962,-0.71431873265452184,-2.8882758260117831,-42.59461352548194
199728.72740700524,-0.71535024109334788,-2.8908543133285622,-42.590125206858701
199761.73430667524,-0.71798874744556751,-2.8897481268239948,-42.586565625627969
199794.74666102085,-0.71572445166849108,-2.895079796335283,-42.619285764383321
199827.76447094357,-0.71691949670037314,-2.8931812610034422,-42.614000065389085
199860.78773734492,-0.71707813277308796,-2.8930479400505336,-42.621754984056736
199893.8164611267,-0.71679037912517396,-2.8964303091840007,-42.624398707392807
199926.85064319073,-0.71768781746904775,-2.8949341893792617,-42.631340649784136
199959.89028443908,-0.71521843539172292,-2.8976537277630858,-42.627423958353873
199992.93538577389,-0.71657907266613485,-2.8953947130349862,-42.636377843214888
200025.98594809748,-0.71225300772312417,-2.9020706455278718,-42.657049332765482
200059.04197231238,-0.71423304683291189,-2.8984357758193613,-42.639872063406514
200092.1034593212,-0.7131746172504132,-2.9033568964656857,-42.644684508726449
200125.17041002671,-0.71377331569252067,-2.9004745446616469,-42.654064048610245
200158.24282533178,-0.71733795848908155,-2.9027522555423815,-42.657311588692124
200191.32070613952,-0.71781027772085071,-2.9027096716740184,-42.678791197720287
200224.40405335318,-0.71853510704673218,-2.9013760412249185,-42.666917382505872
200257.49286787611,-0.71722729343435487,-2.9045307061916796,-42.65678259622166
200290.58715061183,-0.71780630231651388,-2.9039629246804171,-42.664712144969684
200323.68690246399,-0.71880698307204138,-2.9022807786937186,-42.683059166664719
200356.79212433644,-0.71909770468217882,-2.9019601867868206,-42.681376834638108
200389.90281713309,-0.71934098876935493,-2.9059945607798832,-42.678798406693573
200423.01898175816,-0.71970673812240937,-2.9037249250449406,-42.674112749618629
200456.14061911585,-0.72173887360804045,-2.9015392353830749,-42.678502327330506
200489.26773011053,-0.71902269320441992,-2.9055314192705235,-42.711866036726242
200522.40031564687,-0.71770001527039784,-2.9092744963779946,-42.702898262900405
200555.53837662953,-0.72023863561740165,-2.9057550253937543,-42.707640849696773
200588.68191396337,-0.72068953788460999,-2.9086856323174795,-42.722510351788486
200621.83092855342,-0.72086236211512322,-2.9120966436229416,-42.707012039481043
200654.98542130485,-0.72232243517688266,-2.9108020152854448,-42.727710369099242
200688.14539312295,-0.71673904171182967,-2.9135384854228317,-42.708748022975669
200721.31084491318,-0.72225452873737561,-2.9114307583574957,-42.732114534175224
200754.48177758118,-0.72173341791528889,-2.9159708748247675,-42.732577241094546
200787.65819203272,-0.72224949468384303,-2.9125226643766915,-42.752615703288967
200820.84008917367,-0.72225517580142184,-2.9119711411912514,-42.762449533671955
200854.02746991013,-0.72248031586435058,-2.9144683456593019,-42.758431001413896
200887.2203351483,-0.72416459961836277,-2.9121857112749399,-42.761783346148306
200920.41868579452,-0.72535414666856757,-2.9136912650515416,-42.771878524901354
200953.62252275532,-0.72387813166309323,-2.918076679001671,-42.775334576697233
200986.83184693736,-0.72422681025602342,-2.9197951964420756,-42.758961605567777
201020.04665924745,-0.72467755719366655,-2.9173673554624409,-42.778437282443186
201053.26696059256,-0.72375174952294408,-2.9179584517816699,-42.773581705374212
201086.49275187979,-0.72173479215057135,-2.9204964477877877,-42.761819667566947
201119.72403401643,-0.7234313706787503,-2.9235674650447807,-42.807987759958323
201152.96080790981,-0.7241543785700566,-2.9197281487342588,-42.797948618905195
201186.20307446757,-0.72236971737242617,-2.9236343463934937,-42.80779953436295
201219.4508345974,-0.72650017405952172,-2.9225085798674071,-42.784065382157209
201252.70408920717,-0.72588412882475195,-2.923631691316837,-42.809898677312731
201285.96283920482,-0.72546303868384543,-2.9218331775270818,-42.801474667246524
201319.2270854986,-0.72425359474013085,-2.926293901064152,-42.821704516393289
201352.49682899675,-0.71927685676584208,-2.9247835188718967,-42.820131247030083
201385.77207060778,-0.7239578596614098,-2.9252220296862284,-42.841254397477769
201419.05281124034,-0.72602867472894361,-2.9260584832237506,-42.81302387394787
201452.33905180308,-0.72441746834785603,-2.9279706084450785,-42.814876331265523
201485.63079320497,-0.72543012135599905,-2.9258508790531224,-42.82971780967604
201518.92803635509,-0.72515055100553183,-2.9287900536926346,-42.837855655923065
201552.2307821626,-0.725049803674501,-2.9294795951099446,-42.839263099395268
201585.53903153693,-0.72385051817401336,-2.9291370424032488,-42.847300625888522
201618.85278538754,-0.72172337472177051,-2.9304844093794769,-42.867855912914322
201652.17204462411,-0.72166601324639945,-2.9333141594458318,-42.867819566744977
201685.49681015642,-0.72035456027458955,-2.9324068634057507,-42.874369920174388
201718.82708289451,-0.71956068272028995,-2.9359454975650885,-42.860230590410993
201752.16286374841,-0.72238799410259469,-2.9336019785953837,-42.873527245560965
201785.50415362843,-0.71949147903719712,-2.9324094719454625,-42.878035128580755
201818.85095344498,-0.72023839026601577,-2.9361519774252716,-42.885813834198188
201852.2032641086,-0.7184418796258224,-2.9350362054406243,-42.868367971564822
201885.56108653004,-0.71893207614019916,-2.9388624318279071,-42.884701959319592
201918.92442162015,-0.71737313647710754,-2.9361044815722726,-42.863944613336969
201952.29327028993,-0.71933066124727185,-2.9367454842959599,-42.898898927738919
201985.66763345059,-0.71870520810131699,-2.936495532509467,-42.921290057937853
202019.04751201338,-0.71634389657778852,-2.9351956914673716,-42.907807491571944
202052.43290688982,-0.71417841220742395,-2.9418694209334131,-42.899227990978616
202085.82381899151,-0.71532200031001958,-2.9396487172922403,-42.895075735175439
202119.22024923025,-0.70762494380951524,-2.9426033917384009,-42.914720346429363
202152.62219851793,-0.71076808051211759,-2.9435231842657243,-42.919518361498078
202186.02966776662,-0.71390503777150371,-2.9399566391019194,-42.926369212130567
202219.44265788852,-0.71261293491142919,-2.9412901396407771,-42.927056321719689
202252.86116979606,-0.712113985606186,-2.9460836721493848,-42.934582104131884
202286.28520440173,-0.7140251381042001,-2.9457195488128307,-42.944405398849071
202319.71476261821,-0.71251322994054456,-2.9471413255635599,-42.955064110909042
202353.1498453583,-0.70959247772691492,-2.9514009459205317,-42.953671982452249
202386.590453535,-0.71194372126623262,-2.946400322674851,-42.964184971613484
202420.03658806146,-0.7106208806998372,-2.9478582829871063,-42.93415625180856
202453.48824985087,-0.71199520011212858,-2.949640049141947,-42.950521379290308
202486.94543981674,-0.71426971647452753,-2.9489138086560214,-42.983601145890717
202520.40815887265,-0.71428515505061108,-2.9495703656332402,-42.981874891455966
202553.87640793229,-0.71467038808276317,-2.9508472265598664,-42.981641059635244
202587.35018790959,-0.71347436196321168,-2.9523547977939928,-42.994907176668583
202620.82949971847,-0.71285217662916911,-2.9549244427926356,-43.007986150839272
202654.31434427324,-0.71280757109190185,-2.955222203726743,-42.994796880349178
202687.80472248819,-0.71282623212095819,-2.9573189081345026,-43.008260091319698
202721.30063527779,-0.71001674049328423,-2.9574302202455649,-43.003497714140146
202754.80208355669,-0.71212136373442603,-2.95760072347939,-43.015849943609304
202788.30906823967,-0.70683810199888686,-2.9583320520450402,-43.027495287315134
202821.82159024166,-0.70723730132622409,-2.9617437910684874,-43.014949054572128
202855.33965047778,-0.70707064837905342,-2.9590776213415495,-43.020064619950773
202888.86324986327,-0.70793884853071187,-2.9599360612926686,-43.03524367518537
202922.39238931346,-0.70733634134760581,-2.9623786708343491,-43.04120374171454
202955.92706974398,-0.70679965607682127,-2.9621470154856429,-43.032188767178098
202989.46729207048,-0.70947727144569417,-2.9641809103005725,-43.055203505122279
203023.01305720879,-0.70800854616469,-2.9623385671762934,-43.053492875236543
