#Digilent WaveForms Network Analyzer - Bode
#Device Name: Discovery2
#Serial Number: SN:210321A35FCC
#Date Time: 2018-10-28 01:02:20.753
#Start: 200000 Hz
#Stop: 300000 Hz
#Steps: 1000
#Wavegen: Wavegen1
#Amplification: 1 X
#Settle: 10 ms
#MinPeriods: 16
#Channel: Channel 1
#Range: 5.42537 V
#Offset: 0.000183761 V
#Relative: no
#Channel: Channel 2
#Range: 5.47028 V
#Offset: -7.92091e-07 V
#Relative: yes

Frequency (Hz),Channel 1 Magnitude (dB),Channel 2 Magnitude (dB),Channel 2 Phase (°)
200000,-0.01360777800285422,-2.1147750906138922,-37.748184445712923
200081.1906711715,-0.018281990857247878,-2.1151014837762809,-37.757248461865288
200162.41430196841,-0.018406308562130332,-2.1198496880315703,-37.752475996082012
200243.67090577085,-0.0184705150347876,-2.1192404963759404,-37.775927608597357
200324.96049596427,-0.017398560179194032,-2.1229766838116984,-37.781205871719436
200406.28308593962,-0.018017760229486195,-2.1228517654788641,-37.806619033800615
200487.63868909329,-0.017657833117564005,-2.1255385084849729,-37.806737338331388
200569.02731882705,-0.018776743986200987,-2.1257023973364926,-37.814987523805456
200650.44898854822,-0.019651872269107543,-2.1262996861437324,-37.816951700716075
200731.90371166941,-0.02337578938354035,-2.1279171549608513,-37.835049506535384
200813.39150160886,-0.020696919443845951,-2.1310858766112921,-37.842709094586965
200894.91237179004,-0.023310200095437626,-2.1319957203703424,-37.867342169350664
200976.46633564206,-0.02788508091768024,-2.1331086030618787,-37.877422771817635
201058.05340659941,-0.025880452160216748,-2.1339292749687568,-37.892382362845041
201139.67359810197,-0.027650520255165876,-2.1351405597650621,-37.904867087239865
201221.32692359522,-0.025689852637637713,-2.1369151364052725,-37.906829972107118
201303.01339652995,-0.027011741705876745,-2.1403393703599467,-37.920692770021887
201384.73303036246,-0.026975764010643655,-2.1414583320360228,-37.936217923092954
201466.48583855462,-0.028381523006950526,-2.1407919984981145,-37.943926768797169
201548.27183457359,-0.028553411118208437,-2.1430920454828635,-37.965008170892325
201630.09103189214,-0.027863801242974814,-2.1429941114269675,-37.957797532638537
201711.94344398836,-0.026927707185942711,-2.1443696159404144,-37.981549776006176
201793.82908434598,-0.026128343669575317,-2.1456924184244039,-37.976873950977108
201875.74796645413,-0.024810067861203919,-2.1476800497353858,-37.994535482808232
201957.70010380735,-0.022440851562690423,-2.1496614907743727,-38.001899770806602
202039.68550990574,-0.022622008126461438,-2.1515751818257303,-38.028021329101136
202121.70419825488,-0.02155847315196659,-2.1513801303208728,-38.035224409392001
202203.75618236579,-0.022087622465698644,-2.1536338299127373,-38.052653931509731
202285.84147575501,-0.020623794964928166,-2.1560275636697797,-38.050668399074368
202367.96009194455,-0.019372381725621387,-2.159094371983957,-38.07589669608759
202450.11204446189,-0.019347245017238481,-2.1591439082857002,-38.081573021915148
202532.29734684006,-0.018099383848178843,-2.1589675075153498,-38.082831399652882
202614.51601261756,-0.018879774087248974,-2.1629726842519434,-38.09820871047404
202696.76805533833,-0.020637069787627985,-2.1606079008906671,-38.096019698966934
202779.05348855187,-0.017289572714076957,-2.1656098768243153,-38.119066264056812
202861.37232581314,-0.01870247785087131,-2.1645928869855253,-38.125936291186996
202943.72458068264,-0.019492491650572263,-2.1658872652231471,-38.143299939456298
203026.11026672641,-0.018150941548615809,-2.1668697381315134,-38.169860162559075
203108.5293975159,-0.014733543746685743,-2.1714037102621204,-38.172854508795226
203190.98198662809,-0.015560089642449993,-2.1696293973531819,-38.180093366997646
203273.46804764553,-0.016599057042100858,-2.1716926958919833,-38.191029258847408
203355.98759415623,-0.018079808347897287,-2.1723573164964578,-38.203745004385027
203438.54063975383,-0.015553074261858993,-2.1749887449167469,-38.221590910423529
203521.12719803728,-0.017860950646791631,-2.1737048627733131,-38.223246015154189
203603.74728261121,-0.014337679446419537,-2.1800513279129579,-38.223338094802877
203686.40090708574,-0.015652671220410263,-2.1809377213876715,-38.236587875364656
203769.08808507651,-0.017260043365191866,-2.1804611836290304,-38.255373328338052
203851.80883020468,-0.015188329435024241,-2.1818294912582377,-38.271053028893348
203934.56315609691,-0.015119314463906392,-2.1827882822945561,-38.274113562129152
204017.35107638544,-0.01517088519934677,-2.1842337478496239,-38.304132504590953
204100.17260470806,-0.016194428849535793,-2.1860842294289373,-38.297580448554129
204183.02775470805,-0.014621693691938224,-2.1882965817537792,-38.308943894198052
204265.91654003423,-0.012349498534093468,-2.1898869030043246,-38.309359151970014
204348.83897434096,-0.015160344157394888,-2.1894303029430331,-38.337691201953575
204431.79507128816,-0.014432522852561103,-2.1903189772977578,-38.33786881628005
204514.78484454131,-0.015497106065920342,-2.1947240226695612,-38.363709348685973
204597.80830777145,-0.0164012544895153,-2.1931971842262867,-38.367504339760472
204680.86547465509,-0.014877751478355928,-2.1980655717718514,-38.364289812661184
204763.9563588743,-0.013375917680057118,-2.1962872316933248,-38.391494034269101
204847.08097411683,-0.01612596402311145,-2.2000635857870074,-38.403386102143607
204930.23933407592,-0.01419581586738454,-2.1983491932533554,-38.404367005316033
205013.43145245026,-0.016458211217453594,-2.1988893393791011,-38.409336459119842
205096.65734294424,-0.015905852284938279,-2.2028000057498347,-38.435069131228708
205179.91701926777,-0.014242228409812889,-2.2058124284822926,-38.460121300337022
205263.21049513627,-0.017120827626984469,-2.2047500569551031,-38.451015562898242
205346.53778427085,-0.016393694626738172,-2.207653556964571,-38.473548884797069
205429.89890039811,-0.017808399254370166,-2.2082473771111646,-38.46894371844057
205513.29385725019,-0.013808734013357738,-2.211956229573647,-38.513027304505954
205596.72266856488,-0.015756323509978454,-2.211512067024509,-38.521975795828197
205680.18534808548,-0.014819772407579793,-2.2144512984736133,-38.512237959079158
205763.68190956092,-0.016614141901962007,-2.2150582480368426,-38.515436978841763
205847.21236674569,-0.015217988979131975,-2.2161730199554452,-38.517372923265214
205930.77673339989,-0.015518444286570213,-2.2182172169514986,-38.553186832756921
206014.37502328915,-0.016829255706727705,-2.2191027291300598,-38.567020692286512
206098.00725018472,-0.014906454569074376,-2.2206804343424627,-38.578168279727485
206181.67342786348,-0.016280078737033885,-2.2211781734469769,-38.582410345326593
206265.37357010785,-0.017561442403037576,-2.2222653810065749,-38.588388640616898
206349.10769070583,-0.017918093555905758,-2.222592942686147,-38.612803329331982
206432.87580345105,-0.016831561866545618,-2.2262965504079064,-38.614137887817847
206516.67792214279,-0.016428501541173281,-2.2295163232080757,-38.631668107695646
206600.51406058582,-0.016848709906638653,-2.2273063277102185,-38.659663912134235
206684.38423259062,-0.016732743445230035,-2.2306420582122497,-38.636863004729634
206768.28845197317,-0.017975818617820726,-2.2307141196863602,-38.655746171465275
206852.22673255514,-0.015485494377800169,-2.233995903839427,-38.687282856232159
206936.19908816382,-0.017292479358347955,-2.2359828812991318,-38.683298327020303
207020.20553263207,-0.016326784489684169,-2.2359354184203055,-38.713822559429531
207104.24607979835,-0.019606779782307286,-2.2368027139048867,-38.704500661061275
207188.32074350677,-0.01467987234720595,-2.238339073169108,-38.693428367657745
207272.42953760709,-0.015306209215145916,-2.2392026964275198,-38.713269913423701
207356.5724759546,-0.01786702467166125,-2.2432041278921186,-38.735848153129609
207440.74957241031,-0.019339826340189801,-2.2396143054681907,-38.732814686123554
207524.96084084085,-0.021715251334840615,-2.2411255983765961,-38.760312268120003
207609.20629511838,-0.016217385560603963,-2.2470458588447251,-38.742780972100604
207693.48594912078,-0.018637153189178,-2.2476100251576399,-38.772697289933234
207777.79981673157,-0.017044616647032905,-2.2503311031452378,-38.796141653858513
207862.14791183986,-0.018073355252594101,-2.2518062947142994,-38.792685005406511
207946.53024834042,-0.017591544939201852,-2.2496694706803844,-38.821347812042688
208030.94684013363,-0.017644262167475475,-2.2535441335904576,-38.819364561635588
208115.39770112559,-0.019318969260166918,-2.2533977347425145,-38.828277767754884
208199.88284522796,-0.01785893402642337,-2.2582699350346767,-38.850617436811916
208284.40228635812,-0.019521216277586739,-2.2558763972003941,-38.851866178727988
208368.95603843906,-0.018409228040303708,-2.2584257500471736,-38.874903018992327
208453.54411539939,-0.017798024819694412,-2.2599076778371656,-38.87741033055778
208538.16653117343,-0.019312664985709473,-2.2637386817741305,-38.896012024913674
208622.82329970109,-0.018602839036127923,-2.2630778333670873,-38.893280032443812
208707.5144349281,-0.020064192436984804,-2.2658980584062984,-38.919162953205458
208792.23995080561,-0.017290698075341022,-2.2681863472033492,-38.931766382084653
208876.99986129065,-0.0173470227014055,-2.2685545033303192,-38.933294801849513
208961.79418034581,-0.018620871046933232,-2.2706898157254813,-38.944802472682781
209046.6229219393,-0.018637955939680127,-2.2709490342002052,-38.951039697878912
209131.48610004515,-0.018045451032017133,-2.2711301503104147,-38.962803675865018
209216.38372864292,-0.0190530939725411,-2.2721092561461429,-38.981331294208616
209301.3158217179,-0.018755802504181199,-2.2750452929777958,-38.988039193909287
209386.28239326115,-0.020444680247218842,-2.2759093751145127,-39.000282532440806
209471.28345726922,-0.019421388369252484,-2.2758633728906021,-39.001768171904757
209556.31902774447,-0.020179436991823646,-2.2767835893007895,-39.010484937700419
209641.38911869493,-0.018013822226404307,-2.2802173482700332,-39.028336333236958
209726.49374413426,-0.018138353602580839,-2.283495456818887,-39.052196634917493
209811.63291808192,-0.021215905236740822,-2.2827116946650063,-39.07149286775131
209896.80665456297,-0.017447005213163592,-2.2857455023409945,-39.066252875610076
209982.01496760815,-0.019572778330825949,-2.2869664617947181,-39.096801692336065
210067.25787125397,-0.018690938791433374,-2.2879782062933787,-39.090973365787185
210152.53537954259,-0.018143476698729729,-2.2876104683207794,-39.107086014987452
210237.84750652188,-0.017285003607130416,-2.2922659519660713,-39.124049499010297
210323.19426624544,-0.018504812906514911,-2.2917315436781212,-39.125924033981399
210408.57567277245,-0.019675789853198102,-2.2922348763173499,-39.1285699423089
210493.99174016801,-0.017390600888538187,-2.2948088627364496,-39.14787377470148
210579.44248250275,-0.018514226461761846,-2.2966825086935168,-39.145121085844039
210664.92791385317,-0.016935533023206908,-2.2985371213201073,-39.161928577626583
210750.44804830127,-0.020597809960165268,-2.298648887215466,-39.167650968117925
210836.00289993492,-0.019203443953910198,-2.3008766118902706,-39.188788666214194
210921.59248284774,-0.020301612652397577,-2.3027386394945464,-39.199224328690491
211007.21681113893,-0.018992959332937508,-2.304388921937957,-39.218708945974541
211092.87589891357,-0.021131578932604072,-2.3055999683041128,-39.219138500410565
211178.56976028238,-0.020299440296961908,-2.3070759630854352,-39.238701380514904
211264.29840936174,-0.020627184791580828,-2.3072906199341379,-39.245776327409885
211350.06186027388,-0.021860304938595081,-2.3102705693189671,-39.252266233915989
211435.86012714676,-0.021180163779232028,-2.3094628436289306,-39.254740359542296
211521.69322411396,-0.022000910524001244,-2.3107193714122043,-39.276221289464999
211607.56116531498,-0.02219308070806383,-2.313762210420597,-39.289553236478696
211693.46396489485,-0.022469331641631372,-2.3154395925811686,-39.297659262682814
211779.40163700448,-0.021955035119789707,-2.3164765451805471,-39.310516586185315
211865.37419580051,-0.023401088118517769,-2.3189536131336785,-39.325767268481904
211951.38165544532,-0.024956093239057314,-2.3186365703177509,-39.347413734649763
212037.42403010698,-0.022064625217504612,-2.3213458462692933,-39.352161611975191
212123.50133395934,-0.021712251850337146,-2.3208395525502419,-39.337787472111501
212209.61358118214,-0.02557737644132432,-2.3231713428742204,-39.372810759365052
212295.76078596062,-0.025310565462941727,-2.3239932504678738,-39.385191862818111
212381.94296248603,-0.026477188958219912,-2.3255789846908077,-39.397559735438108
212468.16012495517,-0.02444994488759826,-2.3279293211825229,-39.419144557064939
212554.41228757074,-0.026932641378318401,-2.3292700964622903,-39.417333761162638
212640.69946454122,-0.02831941479746504,-2.3280229140458131,-39.420117238655884
212727.02167008072,-0.028825803342659356,-2.3321938261374644,-39.443771936725831
212813.37891840929,-0.029436314784196657,-2.3331772809347786,-39.452760530384325
212899.77122375256,-0.029949651221171731,-2.3377914548608976,-39.466146889652968
212986.19860034215,-0.031035248897584491,-2.3358414163714087,-39.46402083705361
213072.66106241528,-0.030696639403179665,-2.3386318170007563,-39.478478238108266
213159.15862421505,-0.03193709455184493,-2.3401226102203205,-39.491126695417123
213245.69129999031,-0.034261612672411075,-2.3389934446763863,-39.503089742964036
213332.25910399569,-0.033761653852110676,-2.3390363229485587,-39.498000333518775
213418.86205049162,-0.034382789130346661,-2.3442724692577648,-39.53650838092139
213505.50015374427,-0.037904220067332461,-2.3468960681661364,-39.539270908938249
213592.17342802574,-0.039158415973038471,-2.3464001815404214,-39.55917744896287
213678.88188761374,-0.037814854128273248,-2.3462464766956677,-39.56472997995111
213765.62554679191,-0.037155951377922734,-2.3509471034984979,-39.573374773026103
213852.4044198496,-0.032328717482456713,-2.3515732245373746,-39.588153920348248
213939.21852108202,-0.032245121426721757,-2.3533441864197715,-39.606586371647808
214026.06786479018,-0.03529088199317245,-2.3529553151472631,-39.602076041857188
214112.95246528086,-0.0309588214966155,-2.3565432895685308,-39.602383784335373
214199.87233686668,-0.031635719292058731,-2.3577850382511496,-39.621402182195993
214286.82749386612,-0.031629033503527235,-2.3595034789747822,-39.643901155995138
214373.81795060332,-0.029787444593326898,-2.3601917076439225,-39.657145044223626
214460.84372140834,-0.027433520826367734,-2.3625567061890753,-39.6693515848457
214547.90482061706,-0.030658172398561362,-2.3613238030730526,-39.669404013041138
214635.0012625712,-0.027328704630027886,-2.3660162270243248,-39.68452662656297
214722.13306161819,-0.027302725974421092,-2.366672289700944,-39.693803415542689
214809.30023211145,-0.026195999499252783,-2.3675680180375624,-39.68580979346617
214896.50278841006,-0.024147766046576084,-2.3708558564660076,-39.709897433884422
214983.74074487906,-0.028121912217191226,-2.3693234279900937,-39.718461926080792
215071.01411588924,-0.024798241191142118,-2.3722325564106788,-39.724457257105385
215158.32291581726,-0.023481883164223186,-2.3741078735814796,-39.740615651283477
215245.66715904561,-0.024430307547930227,-2.3731039553381956,-39.760774167370236
215333.0468599626,-0.025388919348250875,-2.3762512612044664,-39.777776714098323
215420.46203296242,-0.025625157689182054,-2.3768324661350504,-39.773971857841047
215507.91269244507,-0.025941731204119804,-2.3783790283203192,-39.781327525225642
215595.3988528164,-0.023744966564181826,-2.3831867099950048,-39.821573498323765
215682.92052848815,-0.023152711155771881,-2.3840236620106308,-39.809300030896289
215770.47773387784,-0.026259028176707132,-2.3852452351927353,-39.827106084503356
215858.07048340887,-0.022851777508852665,-2.3851789414087317,-39.822486036164506
215945.69879151054,-0.021082377732428697,-2.3883450703594673,-39.856593185267045
216033.36267261792,-0.022853075566017296,-2.3869776627569292,-39.851186923709683
216121.06214117206,-0.024315525977438392,-2.3918036667260218,-39.865835025417837
216208.79721161973,-0.023893759458283901,-2.3903055899596812,-39.865494320056364
216296.56789841372,-0.022779916644105516,-2.3919163453274948,-39.897489328332384
216384.37421601254,-0.021739456539064388,-2.3950890413836099,-39.909149780155872
216472.21617888066,-0.022744742661842659,-2.3944230740924239,-39.906526697053323
216560.09380148837,-0.026027947276751361,-2.396759085028783,-39.929520382884093
216648.00709831191,-0.022574355876222276,-2.3998092216351989,-39.930712530245437
216735.95608383333,-0.022655044069033185,-2.4019011048190957,-39.940531653551574
216823.94077254052,-0.023012359674176822,-2.4006947874422515,-39.976414578006995
216911.96117892739,-0.023174630998045502,-2.401707344289628,-39.973408931371836
217000.01731749359,-0.023142803559416732,-2.4031414451522592,-39.981813244793742
217088.10920274473,-0.025325607432488864,-2.4045395801993998,-39.99961661353575
217176.23684919236,-0.023747817174183793,-2.4075733977176088,-40.012686109726843
217264.40027135381,-0.021814352426451286,-2.4097021506203147,-40.010870749255005
217352.59948375233,-0.024431093652577625,-2.4093269047525294,-40.030999484155075
217440.83450091709,-0.022054067614172577,-2.4126276850417945,-40.032881212784048
217529.1053373832,-0.024204507044951806,-2.4117284923293583,-40.049011847465934
217617.4120076916,-0.023376907993176904,-2.4155321391631008,-40.048914001489266
217705.75452638915,-0.025677041524999222,-2.4157173046736196,-40.071373637001699
217794.13290802861,-0.023710520194537843,-2.4170961649856988,-40.075719529476132
217882.54716716867,-0.023035652205434506,-2.4183544127315013,-40.073061918411895
217970.99731837396,-0.025904543220013253,-2.4187602294701298,-40.102941962111458
218059.48337621498,-0.023824150123399453,-2.4215302545476254,-40.114362911311126
218148.00535526811,-0.025435234516377671,-2.4234187765823432,-40.129762307978595
218236.5632701157,-0.025566824520329878,-2.4243309376879378,-40.142693456865231
218325.157135346,-0.022267869440978378,-2.4279141295486588,-40.137014907370578
218413.78696555321,-0.023315974587635704,-2.4278505696720116,-40.160252921758669
218502.45277533741,-0.024099371951695002,-2.4311349188002036,-40.164751913745405
218591.15457930468,-0.026711870916317822,-2.4318859951816907,-40.186590885478608
218679.89239206689,-0.028762104396616327,-2.4313183842522865,-40.197959569413847
218768.66622824199,-0.025506104656846794,-2.4350852195363242,-40.198118944855509
218857.47610245383,-0.024596858632939325,-2.4351684211836098,-40.206259561662634
218946.32202933211,-0.024354605185512853,-2.436058632133177,-40.216879512137581
219035.20402351258,-0.026214075596104787,-2.4389254540457501,-40.243643237805657
219124.12209963685,-0.026296740705328423,-2.4405329443768844,-40.251445838108822
219213.07627235251,-0.025047361198451325,-2.4428023838157142,-40.274772458720065
219302.0665563131,-0.024579119363362448,-2.4436739854127953,-40.279773954719133
219391.09296617814,-0.027347089499028046,-2.4435504230869118,-40.286018339110242
219480.15551661298,-0.026700822158310236,-2.4433849858632799,-40.292871621607077
219569.25422228911,-0.026854407668793285,-2.446477633178024,-40.286995903902891
219658.38909788374,-0.026266848563356412,-2.447633040731803,-40.309344995762416
219747.56015808028,-0.025554809298133481,-2.4496007554033232,-40.321233789062923
219836.76741756796,-0.02314923488225033,-2.4522703171850209,-40.342633504630108
219926.01089104201,-0.02493387143199903,-2.4522334285922156,-40.343708340203719
220015.29059320354,-0.024322832257120092,-2.4543763587282568,-40.37428471343371
220104.60653875981,-0.02704510905513232,-2.4554781667928878,-40.372656065242708
220193.95874242394,-0.023867277284534343,-2.4600084578329797,-40.384267268326298
220283.34721891495,-0.025361687145293743,-2.4606224573887867,-40.405736850802754
220372.77198295802,-0.022606261848803141,-2.4612117092299277,-40.394086407924675
220462.23304928408,-0.025683834048999907,-2.4629786102849804,-40.423914563975146
220551.73043263028,-0.026539115815137727,-2.4646529322013415,-40.425679498704682
