#Digilent WaveForms Network Analyzer - Bode
#Device Name: Discovery2
#Serial Number: SN:210321A35FCC
#Date Time: 2018-10-28 01:43:16.140
#Start: 200000 Hz
#Stop: 250000 Hz
#Steps: 1000
#Wavegen: Wavegen1
#Amplification: 1 X
#Settle: 10 ms
#MinPeriods: 16
#Channel: Channel 1
#Range: 5.42537 V
#Offset: 0.000183761 V
#Relative: no
#Channel: Channel 2
#Range: 5.47028 V
#Offset: -7.92091e-07 V
#Relative: yes

Frequency (Hz),Channel 1 Magnitude (dB),Channel 2 Magnitude (dB),Channel 2 Phase (°)
200000,0.033681126271169988,-2.3373077474784423,-38.965234183738275
200044.67837329602,0.032644299251257863,-2.3350394769422262,-38.978816436560543
200089.3667273772,0.031544937132131398,-2.3368115452316882,-38.983993943409885
200134.06506447325,0.029047338606507857,-2.3392044422623903,-38.982692362936625
200178.77338681425,0.03056014168470057,-2.3363763049852926,-38.993995115155187
200223.49169663081,0.028308467490111996,-2.3403033513200255,-38.991538100148574
200268.21999615405,0.029142550117191413,-2.3378210543878142,-38.998576151814234
200312.95828761565,0.031837451396929665,-2.339042891332733,-39.014621809536607
200357.70657324765,0.028499990549332197,-2.3394773162772085,-39.033713909148361
200402.46485528271,0.032974878192521852,-2.3419593324419128,-39.022276012707152
200447.23313595392,0.030140231951399869,-2.3414003760874662,-39.034076750166633
200492.01141749488,0.028221610423182702,-2.3400583562884911,-39.028104690289197
200536.7997021398,0.029487083115006776,-2.3381347735394136,-39.029005996913185
200581.59799212319,0.027941538460566635,-2.3410220418298939,-39.054186070837488
200626.40628968019,0.026713009915355201,-2.3426664461419042,-39.071302743864855
200671.22459704641,0.023795250900017405,-2.3418402574046753,-39.07069145921291
200716.05291645799,0.02475542743612372,-2.3435928574871485,-39.07199312081098
200760.8912501515,0.024743274834448294,-2.343866784004188,-39.092588173390318
200805.73960036406,0.025113356437334769,-2.3481135826250283,-39.084505906622432
200850.59796933329,0.024538959446020924,-2.3479733248259183,-39.0643348425982
200895.46635929731,0.024447880185017607,-2.3451241830279326,-39.083673865011804
200940.34477249466,0.024671283856135474,-2.3465959697260343,-39.09364462277361
200985.23321116454,0.023905032520466322,-2.350969680989921,-39.095196718656958
201030.13167754651,0.023361174638156391,-2.3483122778325942,-39.095545437073149
201075.0401738807,0.022794099680503388,-2.3483891681682532,-39.095111867937071
201119.95870240766,0.023701685552845676,-2.3542714343237439,-39.107894836453738
201164.88726536857,0.020918569941235352,-2.3515476157244759,-39.12948648241229
201209.82586500506,0.020499342129362053,-2.352360472314043,-39.150955089775152
201254.77450355914,0.02072536073997968,-2.3506602840070121,-39.139608263843321
201299.73318327352,0.020122558531068552,-2.3541298334016219,-39.145046704242986
201344.70190639124,0.018280799880481934,-2.3547334220048053,-39.149138860946323
201389.68067515598,0.015895916401833986,-2.3552869940617387,-39.123845715089217
201434.66949181183,0.020531668532211587,-2.3584361477620148,-39.153706199130909
201479.66835860341,0.021389924956237639,-2.357125981945253,-39.159363646869934
201524.6772777758,0.021288718544086482,-2.3598949821177655,-39.189461815966169
201569.69625157467,0.020908836555061809,-2.3573362491531173,-39.169405463379803
201614.7252822461,0.019914125616050486,-2.3584749283696644,-39.174275452161567
201659.76437203679,0.02108209469673283,-2.3603362894875035,-39.190989615762092
201704.81352319376,0.021420727139026451,-2.3613287168251782,-39.213342094928962
201749.8727379647,0.021316235136468364,-2.3575444783664423,-39.193342878391022
201794.94201859777,0.02198419707652334,-2.3642723184198506,-39.207905777276409
201840.02136734151,0.022592934668272616,-2.3634167035323963,-39.188500499212758
201885.11078644515,0.023178206624117986,-2.363404318873179,-39.225384540740329
201930.21027815825,0.024439396860786947,-2.3795448085374074,-39.129649206895593
201975.31984473098,0.022401314701592321,-2.3835644125315345,-39.130678960225922
202020.43948841401,0.027109273382019787,-2.3805905441610693,-39.164258651734514
202065.56921145844,0.025687774460326336,-2.3751153552247883,-39.181666089244018
202110.70901611593,0.025924198929456167,-2.3722291239690478,-39.226290628885877
202155.85890463865,0.024296209357758305,-2.3682214710797607,-39.223726697439318
202201.0188792792,0.029671095661443089,-2.3762336816351919,-39.262989048022661
202246.18894229081,0.026266297961101411,-2.3714016382151795,-39.249928884919058
202291.36909592713,0.026291053189375666,-2.3722945124668704,-39.274031672752017
202336.55934244226,0.027474396159868991,-2.3741703147022917,-39.276246935867377
202381.75968409091,0.028477546494355115,-2.3747650109812066,-39.263121066604256
202426.97012312827,0.025132416025848689,-2.3742958598650583,-39.278466045638794
202472.19066180996,0.029568113303173299,-2.3778899055179554,-39.284835247532428
202517.42130239221,0.027928635837674763,-2.376280116571396,-39.321167903431672
202562.66204713166,0.02977384746752965,-2.3775599505380622,-39.30130313522325
202607.91289828552,0.028996202999348623,-2.3756755017702256,-39.305962931285237
202653.17385811152,0.030611849074272085,-2.3787312652806945,-39.325953777295311
202698.44492886777,0.029938484101309396,-2.3792555507279181,-39.317050156529433
202743.72611281302,0.0276373865170991,-2.3772174725111168,-39.348175142057954
202789.01741220648,0.030337839213655182,-2.3813573600075251,-39.346298155303288
202834.31882930786,0.032022275328994182,-2.3797133807405957,-39.350484461085642
202879.63036637733,0.030556640893976028,-2.3790659698688392,-39.332625456588417
202924.95202567565,0.032595823098478159,-2.3820961451028304,-39.352935465403533
202970.28380946402,0.030105524185212593,-2.3830674730026584,-39.357320319791796
203015.62572000423,0.033764346276717774,-2.3866248222475419,-39.36373027362086
203060.97775955842,0.029060283056120476,-2.3826787978617041,-39.38728336813557
203106.33993038937,0.030232435293117855,-2.3842466325660192,-39.41074110660918
203151.71223476037,0.030890921847309322,-2.3851996228657431,-39.389891385244766
203197.0946749351,0.031937987590117047,-2.3868705915929396,-39.414148509289525
203242.48725317785,0.031886754245826189,-2.3877360942976145,-39.402123638255574
203287.88997175338,0.031300286214602138,-2.3925392597958655,-39.389496670873214
203333.30283292694,0.029710004221252362,-2.3956783636256325,-39.3864447457441
203378.72583896434,0.033053783209995448,-2.4030970466602417,-39.368703028229916
203424.15899213185,0.02789077410974802,-2.6847129185469591,-37.445729879577492
203469.60229469623,0.051408026822904983,-0.041769946779579355,-0.86162834057776649
203515.05574892479,0.051482066757853828,-0.04455672119804821,-0.84919492448815959
203560.51935708532,0.050909549804281029,-0.043411162481968385,-0.83275179248192899
203605.99312144614,0.031724178888903484,-2.414839099202915,-39.339321868176917
203651.47704427608,0.029286920745370985,-2.4036632051571019,-39.41291754445875
203696.97112784442,0.030252395146543133,-2.4902392555921655,-38.89278262544525
203742.47537442096,0.031867905727380734,-2.5953388091457574,-38.203745419496116
203787.98978627613,0.029076079647336897,-2.5238287971681168,-38.695314975937862
203833.51436568069,0.032181312577741282,-2.4396353088452045,-39.246006018856392
203879.04911490603,0.031640136863677205,-2.4244329250466552,-39.34268707176939
203924.59403622398,0.033411510714794958,-2.4229941277398876,-39.380159388003619
203970.14913190692,0.034500442316642836,-2.4174469897301427,-39.422760574426107
204015.71440422771,0.033198431555792024,-2.4077986431542358,-39.485886336385335
204061.28985545973,0.034419126731454031,-2.4064319118355293,-39.493127822626178
204106.87548787688,0.030838412033045024,-2.4050959358384851,-39.527228463229505
204152.4713037535,0.03313651436346448,-2.4051701819467559,-39.522317494806131
204198.07730536454,0.035627446414996829,-2.4068691246801079,-39.529359022565146
204243.6934949854,0.032464635102748177,-2.4062725767465523,-39.545822432510533
204289.31987489204,0.034953132426871092,-2.4091112884967609,-39.546043280775706
204334.95644736086,0.033180147977261598,-2.4083510768823055,-39.544556059068299
204380.60321466872,0.032473858383435639,-2.4103754693429464,-39.536865972122499
204426.26017909317,0.033120552568447044,-2.4125206525823253,-39.550353920480468
204471.92734291212,0.032734545324841706,-2.4141999019631988,-39.575713725474188
204517.60470840399,0.034854762054362207,-2.414159120617994,-39.557142340528586
204563.29227784782,0.031602097674452864,-2.4163473373936442,-39.583677310614092
204608.9900535231,0.03228903004967483,-2.4136292697780752,-39.576710782817429
204654.69803770975,0.031383928138113491,-2.414972870949617,-39.578164536186335
204700.41623268829,0.033587016131388502,-2.4183524457392798,-39.600063525693187
204746.14464073975,0.033104835637678083,-2.4154050723717928,-39.59907541888343
204791.88326414564,0.034192213969530511,-2.4191216329202767,-39.614166730634629
204837.63210518795,0.031460618029550427,-2.4173970670370322,-39.621101286910033
204883.39116614929,0.035139198433120002,-2.4216605335346109,-39.61271225009358
204929.16044931268,0.033748908294994245,-2.4233510347661587,-39.616285576095507
204974.93995696161,0.033271201635699466,-2.4192841599588748,-39.627235933350846
205020.72969138026,0.032637100165147932,-2.4229157928885332,-39.630539900428573
205066.52965485308,0.031612398468233119,-2.4238214403662264,-39.651573446837901
205112.33984966527,0.031858772552360554,-2.4220076542434814,-39.644029277556172
205158.16027810238,0.033955589797996712,-2.4209646668127673,-39.64802778989521
205203.9909424505,0.033331389592044736,-2.424909902457077,-39.648911710832898
205249.83184499628,0.032753457093845903,-2.4294926911318209,-39.653906871892829
205295.68298802685,0.031409631242873812,-2.4291004611513327,-39.661663174571331
205341.54437382985,0.03392275696372158,-2.4291540250259223,-39.65333661065165
205387.4160046934,0.035910738098062035,-2.4325521335172056,-39.683009274196159
205433.29788290622,0.0356400580246568,-2.4335978055401877,-39.663655201103836
205479.19001075739,0.035626309914383987,-2.4308339752766188,-39.683803589923215
205525.09239053671,0.029214576116839502,-2.4314838305817958,-39.706893723079688
205571.00502453433,0.032725614332312303,-2.4309255364913054,-39.687368549543805
205616.9279150409,0.033691399002625605,-2.4319911544878896,-39.715512684682878
205662.86106434776,0.034787860543971365,-2.4310512774761501,-39.725613633529484
205708.80447474655,0.032169873954666278,-2.4333748028811213,-39.72924580087394
205754.75814852954,0.034893829614798429,-2.435676901649769,-39.74860411198631
205800.72208798947,0.030792876585418794,-2.4376138324475436,-39.736503619260247
205846.69629541962,0.029563884658394435,-2.4371509806250011,-39.752905217386242
205892.68077311383,0.03130836938234613,-2.4369385278945392,-39.752512288736696
205938.67552336631,0.032934637458770483,-2.4375980770312013,-39.739673514011827
205984.68054847192,0.033960189613166145,-2.4395248528242726,-39.767769301167604
206030.69585072593,0.031522943057655572,-2.4406348409778715,-39.780799869802195
206076.72143242421,0.033007322840534634,-2.4378720571359276,-39.768597482978436
206122.75729586303,0.034470074703523465,-2.4424681991403077,-39.779658133284535
206168.80344333939,0.032245217165129667,-2.4411642245362093,-39.786395842702099
206214.85987715053,0.034708230538708786,-2.4449422158575747,-39.770916950929831
206260.92659959442,0.031383780437186051,-2.4488892499043002,-39.773242042031796
206307.00361296942,0.031769737748105618,-2.448015660610114,-39.756903688119749
206353.0909195744,0.033907311850378249,-2.4491219839170522,-39.763137905482402
206399.18852170886,0.035008998465712191,-2.45334308730523,-39.76961910469997
206445.29642167268,0.032244310785035583,-2.4520639436383878,-39.792891626588116
206491.41462176634,0.027825082545822034,-2.4501248929547947,-39.785927504813472
206537.54312429079,0.029799434121015444,-2.4521140491259494,-39.774954545394493
206583.68193154753,0.03030182892598382,-2.4521155797046763,-39.808806605402125
206629.83104583854,0.032455727940336472,-2.4551040759100964,-39.842533661997891
206675.99046946634,0.03155411144044018,-2.4544540087944671,-39.829748733080592
206722.16020473393,0.033618976336688207,-2.4529673029233683,-39.820264598218955
206768.3402539448,0.033147361856162239,-2.4586577096809954,-39.844483899152479
206814.53061940314,0.03188648620038885,-2.4577008373548752,-39.836852309780625
206860.7313034134,0.034346271280885264,-2.4579209815725656,-39.848639399246942
206906.94230828068,0.031326057553834552,-2.4568929316603918,-39.842433470689784
206953.16363631061,0.032348527220018825,-2.4607051334609382,-39.866115200197903
206999.39528980927,0.032159287399008356,-2.4576088560310789,-39.859653428154502
207045.63727108328,0.030329584505601432,-2.4630454901451797,-39.875558930824027
207091.88958243982,0.030659006120788878,-2.4687891338784285,-39.842464386003776
207138.15222618653,0.030989795131935373,-2.5978610784336458,-39.030224509480362
207184.42520463155,0.029935484399603973,-2.4794254043148052,-39.789715961305973
207230.7085200836,0.033311208575403234,-2.4802526297631378,-39.815701015597938
207277.00217485189,0.033348384677008083,-2.4838417999445719,-39.818003236446529
207323.30617124611,0.031302985237159131,-2.4793673782243584,-39.807441800073718
207369.6205115765,0.031125074794584835,-2.4840823331163224,-39.847694928896814
207415.94519815384,0.030513328356831581,-2.4792542834256315,-39.853408867186431
207462.28023328938,0.031590092629119805,-2.4782542489682218,-39.87968754611903
207508.62561929491,0.031743121671268679,-2.4769105216464014,-39.892992788537043
207554.98135848268,0.031618787732302443,-2.4773773511501664,-39.887306269698229
207601.3474531656,0.033355613493116103,-2.4816917170563721,-39.888819871544271
207647.72390565692,0.029460124475464276,-2.4808767932545344,-39.898069872065435
207694.11071827053,0.028389547617977864,-2.4771821218714436,-39.909686084094631
207740.50789332078,0.029751965642172133,-2.4775695814700489,-39.919529079640355
207786.9154331226,0.029862359659448792,-2.4792039523517988,-39.904873784376719
207833.33333999131,0.029972559746558367,-2.4804237597874033,-39.936160862962147
207879.7616162429,0.032504643675185206,-2.4824682402108875,-39.94433153078694
207926.20026419382,0.029932626487934388,-2.4823477194382386,-39.971019307955203
207972.64928616091,0.032732979788054867,-2.4854964746571797,-39.95688898373885
208019.10868446174,0.030230625438370434,-2.4864819957427589,-39.931529337856915
208065.57846141426,0.029281096021263487,-2.5062753360989558,-39.822185700464118
208112.05861933701,0.029492733713770859,-2.5080167769073167,-39.847779281515436
208158.54916054898,0.033509200501629921,-2.5077695665768704,-39.845714787979603
208205.05008736975,0.027419040491460149,-2.5046390543698664,-39.842495477386748
208251.56140211935,0.032939127654405917,-2.5061762068638131,-39.869421156159774
208298.08310711835,0.032174474855077753,-2.5075483949590796,-39.892130940709407
208344.61520468784,0.032018668691560066,-2.5039164987176825,-39.910836917765835
208391.15769714947,0.031470187811444998,-2.5042082051646855,-39.915755200214079
208437.71058682536,0.032541477028133058,-2.5067378484268197,-39.90877585885471
208484.27387603818,0.028939553489113784,-2.5051770030994742,-39.955497351344093
208530.84756711111,0.035114715045619201,-2.5094994071313281,-39.935743521515036
208577.43166236777,0.032194649149640257,-2.5058376821467605,-39.954457892169458
208624.02616413246,0.0308208167759563,-2.5096984017620585,-39.955792613722764
208670.63107472984,0.033332763543768282,-2.5113629985542705,-39.959216317100548
208717.24639648516,0.028388239467387576,-2.5087754938198215,-39.96617012527085
208763.87213172426,0.030329880457369646,-2.4944687847899827,-40.077350384187753
208810.50828277337,0.03202578142433897,-2.4889078001394989,-40.10340681457879
208857.15485195929,0.032711965230201166,-2.4909571337478846,-40.118270025053789
208903.81184160936,0.031620986677558402,-2.4890593483918675,-40.107850463708388
208950.47925405146,0.034296627880415265,-2.4935982135128612,-40.133789506230926
208997.15709161392,0.032211063089267904,-2.4906374686469315,-40.099670376971964
209043.84535662562,0.03031902617068552,-2.495247492646671,-40.137460899995624
209090.54405141601,0.032459839718478663,-2.4949473120476795,-40.13706045036821
209137.253178315,0.032437029867304595,-2.4950197391260054,-40.146310964649679
209183.97273965299,0.033275789843768971,-2.4977212719868001,-40.161728184807814
209230.70273776102,0.03258092672199412,-2.4966270169639322,-40.153629828798266
209277.44317497051,0.031828815089065141,-2.4977481884039059,-40.153960063494722
209324.19405361355,0.031934662809161553,-2.5032451118626526,-40.187679354325837
209370.95537602264,0.031720633320799024,-2.5024481813090302,-40.195143078897431
209417.72714453077,0.030913845781172494,-2.5022944030499543,-40.17732830493182
209464.5093614716,0.03176188239867949,-2.5013453982200011,-40.203030215645825
209511.30202917918,0.032120295031405628,-2.5000629961946159,-40.208396595343316
209558.10514998811,0.031831091471899754,-2.502836426536601,-40.217132985893258
209604.91872623359,0.031680405889724414,-2.5020503979930848,-40.195521728175997
209651.74276025125,0.032632535096147171,-2.5016379456108959,-40.22392596170539
209698.57725437728,0.033243594491119854,-2.5021506102071172,-40.233768083929036
209745.42221094831,0.031985072939718848,-2.5051185229878783,-40.222266230622523
209792.27763230164,0.032706702220475579,-2.502856763273638,-40.252526534442467
209839.14352077505,0.033503989475688258,-2.5077628771212184,-40.246514790110183
209886.01987870672,0.030570446029791927,-2.5085645576198212,-40.248250248556957
209932.90670843548,0.032008954828896687,-2.5088070977234449,-40.260087218512687
209979.80401230065,0.034476460308283635,-2.5117496791010172,-40.285515835219599
210026.71179264208,0.030081665777727883,-2.5141509835089444,-40.276991348187437
210073.63005180011,0.027913294855482482,-2.5129306254637078,-40.275303568804986
210120.5587921156,0.03346122755083597,-2.5128628101462525,-40.286674998079206
210167.49801592997,0.028671516676677153,-2.510678463161109,-40.329545730515861
210214.4477255852,0.03045783554189601,-2.5089324181836354,-40.330885532169077
210261.40792342371,0.031747634397929797,-2.5116365648552903,-40.342460154234907
210308.37861178844,0.033598994958519278,-2.512657601656981,-40.310576219076168
210355.35979302292,0.030720818792102596,-2.5156121142493628,-40.324264279765558
210402.35146947115,0.032107181039375279,-2.5144568476716733,-40.319115355829922
210449.35364347769,0.032716739485963264,-2.5129821898605291,-40.322273265379266
210496.36631738764,0.032007050919012167,-2.5156807301028512,-40.349655148532413
210543.38949354654,0.03197647756480182,-2.5163280291311549,-40.370475085263521
210590.42317430052,0.030328304891005211,-2.5185716291270688,-40.365227252753307
210637.46736199627,0.028909184876013044,-2.519829312518211,-40.360129008996623
210684.52205898086,0.033106069446729447,-2.5203013025130567,-40.3720167610863
210731.58726760207,0.031639208570378524,-2.522421320446985,-40.376062563428654
210778.66299020807,0.028946508812575357,-2.5221109575853262,-40.377867249624131
210825.74922914765,0.028805470702129524,-2.5234917482068875,-40.405669047737732
210872.84598677,0.029758043078320019,-2.5196093818964989,-40.418750730027796
210919.95326542493,0.030042434746834497,-2.5265928612208297,-40.414736224432772
210967.07106746276,0.03039947328530429,-2.5209207648330993,-40.401237398105899
211014.19939523435,0.03146744589092923,-2.528916458832231,-40.406637500271245
211061.33825109105,0.031714801531369977,-2.5257081273848692,-40.431323756233354
211108.48763738474,0.031450722998009335,-2.5275091538729222,-40.41596135945224
211155.64755646783,0.031413441445254091,-2.5296766814360279,-40.440039557230207
211202.81801069327,0.028049090678532014,-2.5276321543792619,-40.458962317096294
