Freq.	V(vout_highq)
1.00000000000000e+003	(-4.52736345413480e+001dB,-2.64455559832105e+000°)
1.00230523807790e+003	(-4.52755446358222e+001dB,-2.65067009862717e+000°)
1.00461579027840e+003	(-4.52774638952461e+001dB,-2.65679882351585e+000°)
1.00693166885180e+003	(-4.52793923652821e+001dB,-2.66294180671335e+000°)
1.00925288607668e+003	(-4.52813300918362e+001dB,-2.66909908203068e+000°)
1.01157945425990e+003	(-4.52832771210600e+001dB,-2.67527068336377e+000°)
1.01391138573668e+003	(-4.52852334993516e+001dB,-2.68145664469379e+000°)
1.01624869287070e+003	(-4.52871992733575e+001dB,-2.68765700008737e+000°)
1.01859138805412e+003	(-4.52891744899739e+001dB,-2.69387178369696e+000°)
1.02093948370768e+003	(-4.52911591963480e+001dB,-2.70010102976080e+000°)
1.02329299228075e+003	(-4.52931534398801e+001dB,-2.70634477260366e+000°)
1.02565192625141e+003	(-4.52951572682244e+001dB,-2.71260304663648e+000°)
1.02801629812647e+003	(-4.52971707292910e+001dB,-2.71887588635717e+000°)
1.03038612044162e+003	(-4.52991938712475e+001dB,-2.72516332635054e+000°)
1.03276140576140e+003	(-4.53012267425202e+001dB,-2.73146540128871e+000°)
1.03514216667934e+003	(-4.53032693917960e+001dB,-2.73778214593140e+000°)
1.03752841581801e+003	(-4.53053218680236e+001dB,-2.74411359512596e+000°)
1.03992016582906e+003	(-4.53073842204156e+001dB,-2.75045978380789e+000°)
1.04231742939330e+003	(-4.53094564984497e+001dB,-2.75682074700105e+000°)
1.04472021922080e+003	(-4.53115387518703e+001dB,-2.76319651981772e+000°)
1.04712854805090e+003	(-4.53136310306906e+001dB,-2.76958713745928e+000°)
1.04954242865232e+003	(-4.53157333851935e+001dB,-2.77599263521590e+000°)
1.05196187382322e+003	(-4.53178458659339e+001dB,-2.78241304846743e+000°)
1.05438689639126e+003	(-4.53199685237400e+001dB,-2.78884841268327e+000°)
1.05681750921366e+003	(-4.53221014097153e+001dB,-2.79529876342274e+000°)
1.05925372517729e+003	(-4.53242445752396e+001dB,-2.80176413633522e+000°)
1.06169555719872e+003	(-4.53263980719714e+001dB,-2.80824456716079e+000°)
1.06414301822431e+003	(-4.53285619518496e+001dB,-2.81474009173018e+000°)
1.06659612123026e+003	(-4.53307362670946e+001dB,-2.82125074596509e+000°)
1.06905487922266e+003	(-4.53329210702107e+001dB,-2.82777656587857e+000°)
1.07151930523761e+003	(-4.53351164139871e+001dB,-2.83431758757524e+000°)
1.07398941234124e+003	(-4.53373223515008e+001dB,-2.84087384725156e+000°)
1.07646521362983e+003	(-4.53395389361170e+001dB,-2.84744538119616e+000°)
1.07894672222983e+003	(-4.53417662214920e+001dB,-2.85403222578995e+000°)
1.08143395129794e+003	(-4.53440042615745e+001dB,-2.86063441750679e+000°)
1.08392691402120e+003	(-4.53462531106074e+001dB,-2.86725199291328e+000°)
1.08642562361706e+003	(-4.53485128231296e+001dB,-2.87388498866940e+000°)
1.08893009333343e+003	(-4.53507834539781e+001dB,-2.88053344152869e+000°)
1.09144033644875e+003	(-4.53530650582897e+001dB,-2.88719738833852e+000°)
1.09395636627209e+003	(-4.53553576915027e+001dB,-2.89387686604038e+000°)
1.09647819614318e+003	(-4.53576614093590e+001dB,-2.90057191167012e+000°)
1.09900583943252e+003	(-4.53599762679059e+001dB,-2.90728256235845e+000°)
1.10153930954141e+003	(-4.53623023234981e+001dB,-2.91400885533103e+000°)
1.10407861990207e+003	(-4.53646396327995e+001dB,-2.92075082790875e+000°)
1.10662378397766e+003	(-4.53669882527850e+001dB,-2.92750851750822e+000°)
1.10917481526240e+003	(-4.53693482407429e+001dB,-2.93428196164174e+000°)
1.11173172728159e+003	(-4.53717196542764e+001dB,-2.94107119791814e+000°)
1.11429453359173e+003	(-4.53741025513059e+001dB,-2.94787626404245e+000°)
1.11686324778056e+003	(-4.53764969900706e+001dB,-2.95469719781655e+000°)
1.11943788346715e+003	(-4.53789030291312e+001dB,-2.96153403713960e+000°)
1.12201845430196e+003	(-4.53813207273710e+001dB,-2.96838682000793e+000°)
1.12460497396692e+003	(-4.53837501439988e+001dB,-2.97525558451567e+000°)
1.12719745617551e+003	(-4.53861913385503e+001dB,-2.98214036885507e+000°)
1.12979591467279e+003	(-4.53886443708907e+001dB,-2.98904121131648e+000°)
1.13240036323555e+003	(-4.53911093012162e+001dB,-2.99595815028914e+000°)
1.13501081567231e+003	(-4.53935861900568e+001dB,-3.00289122426107e+000°)
1.13762728582343e+003	(-4.53960750982777e+001dB,-3.00984047181949e+000°)
1.14024978756117e+003	(-4.53985760870820e+001dB,-3.01680593165147e+000°)
1.14287833478977e+003	(-4.54010892180126e+001dB,-3.02378764254372e+000°)
1.14551294144553e+003	(-4.54036145529543e+001dB,-3.03078564338323e+000°)
1.14815362149688e+003	(-4.54061521541360e+001dB,-3.03779997315742e+000°)
1.15080038894443e+003	(-4.54087020841332e+001dB,-3.04483067095481e+000°)
1.15345325782109e+003	(-4.54112644058698e+001dB,-3.05187777596486e+000°)
1.15611224219210e+003	(-4.54138391826205e+001dB,-3.05894132747853e+000°)
1.15877735615512e+003	(-4.54164264780131e+001dB,-3.06602136488878e+000°)
1.16144861384034e+003	(-4.54190263560308e+001dB,-3.07311792769047e+000°)
1.16412602941049e+003	(-4.54216388810143e+001dB,-3.08023105548108e+000°)
1.16680961706096e+003	(-4.54242641176641e+001dB,-3.08736078796098e+000°)
1.16949939101987e+003	(-4.54269021310433e+001dB,-3.09450716493341e+000°)
1.17219536554813e+003	(-4.54295529865791e+001dB,-3.10167022630519e+000°)
1.17489755493953e+003	(-4.54322167500658e+001dB,-3.10885001208707e+000°)
1.17760597352080e+003	(-4.54348934876671e+001dB,-3.11604656239378e+000°)
1.18032063565173e+003	(-4.54375832659183e+001dB,-3.12325991744459e+000°)
1.18304155572516e+003	(-4.54402861517288e+001dB,-3.13049011756359e+000°)
1.18576874816716e+003	(-4.54430022123844e+001dB,-3.13773720317999e+000°)
1.18850222743701e+003	(-4.54457315155499e+001dB,-3.14500121482840e+000°)
1.19124200802737e+003	(-4.54484741292716e+001dB,-3.15228219314953e+000°)
1.19398810446427e+003	(-4.54512301219797e+001dB,-3.15958017889005e+000°)
1.19674053130724e+003	(-4.54539995624908e+001dB,-3.16689521290331e+000°)
1.19949930314937e+003	(-4.54567825200104e+001dB,-3.17422733614940e+000°)
1.20226443461741e+003	(-4.54595790641355e+001dB,-3.18157658969577e+000°)
1.20503594037179e+003	(-4.54623892648573e+001dB,-3.18894301471743e+000°)
1.20781383510678e+003	(-4.54652131925634e+001dB,-3.19632665249730e+000°)
1.21059813355048e+003	(-4.54680509180408e+001dB,-3.20372754442663e+000°)
1.21338885046497e+003	(-4.54709025124782e+001dB,-3.21114573200531e+000°)
1.21618600064636e+003	(-4.54737680474692e+001dB,-3.21858125684235e+000°)
1.21898959892486e+003	(-4.54766475950141e+001dB,-3.22603416065596e+000°)
1.22179966016487e+003	(-4.54795412275233e+001dB,-3.23350448527432e+000°)
1.22461619926504e+003	(-4.54824490178199e+001dB,-3.24099227263551e+000°)
1.22743923115840e+003	(-4.54853710391421e+001dB,-3.24849756478829e+000°)
1.23026877081238e+003	(-4.54883073651463e+001dB,-3.25602040389208e+000°)
1.23310483322890e+003	(-4.54912580699097e+001dB,-3.26356083221776e+000°)
1.23594743344450e+003	(-4.54942232279331e+001dB,-3.27111889214753e+000°)
1.23879658653036e+003	(-4.54972029141440e+001dB,-3.27869462617582e+000°)
1.24165230759241e+003	(-4.55001972038988e+001dB,-3.28628807690920e+000°)
1.24451461177138e+003	(-4.55032061729863e+001dB,-3.29389928706715e+000°)
1.24738351424294e+003	(-4.55062298976306e+001dB,-3.30152829948227e+000°)
1.25025903021771e+003	(-4.55092684544935e+001dB,-3.30917515710043e+000°)
1.25314117494141e+003	(-4.55123219206776e+001dB,-3.31683990298159e+000°)
1.25602996369487e+003	(-4.55153903737297e+001dB,-3.32452258029994e+000°)
1.25892541179416e+003	(-4.55184738916432e+001dB,-3.33222323234433e+000°)
1.26182753459066e+003	(-4.55215725528616e+001dB,-3.33994190251866e+000°)
1.26473634747115e+003	(-4.55246864362812e+001dB,-3.34767863434223e+000°)
1.26765186585784e+003	(-4.55278156212542e+001dB,-3.35543347145034e+000°)
1.27057410520854e+003	(-4.55309601875919e+001dB,-3.36320645759432e+000°)
1.27350308101666e+003	(-4.55341202155677e+001dB,-3.37099763664218e+000°)
1.27643880881134e+003	(-4.55372957859205e+001dB,-3.37880705257924e+000°)
1.27938130415752e+003	(-4.55404869798575e+001dB,-3.38663474950798e+000°)
1.28233058265601e+003	(-4.55436938790574e+001dB,-3.39448077164875e+000°)
1.28528665994361e+003	(-4.55469165656741e+001dB,-3.40234516334043e+000°)
1.28824955169313e+003	(-4.55501551223394e+001dB,-3.41022796904031e+000°)
1.29121927361353e+003	(-4.55534096321663e+001dB,-3.41812923332493e+000°)
1.29419584144998e+003	(-4.55566801787528e+001dB,-3.42604900089021e+000°)
1.29717927098395e+003	(-4.55599668461845e+001dB,-3.43398731655212e+000°)
1.30016957803328e+003	(-4.55632697190388e+001dB,-3.44194422524700e+000°)
1.30316677845229e+003	(-4.55665888823872e+001dB,-3.44991977203177e+000°)
1.30617088813183e+003	(-4.55699244217998e+001dB,-3.45791400208482e+000°)
1.30918192299940e+003	(-4.55732764233481e+001dB,-3.46592696070595e+000°)
1.31219989901920e+003	(-4.55766449736085e+001dB,-3.47395869331711e+000°)
1.31522483219223e+003	(-4.55800301596660e+001dB,-3.48200924546278e+000°)
1.31825673855640e+003	(-4.55834320691176e+001dB,-3.49007866281034e+000°)
1.32129563418657e+003	(-4.55868507900758e+001dB,-3.49816699115043e+000°)
1.32434153519466e+003	(-4.55902864111723e+001dB,-3.50627427639764e+000°)
1.32739445772973e+003	(-4.55937390215615e+001dB,-3.51440056459079e+000°)
1.33045441797808e+003	(-4.55972087109244e+001dB,-3.52254590189330e+000°)
1.33352143216332e+003	(-4.56006955694718e+001dB,-3.53071033459389e+000°)
1.33659551654643e+003	(-4.56041996879485e+001dB,-3.53889390910670e+000°)
1.33967668742593e+003	(-4.56077211576367e+001dB,-3.54709667197200e+000°)
1.34276496113786e+003	(-4.56112600703598e+001dB,-3.55531866985660e+000°)
1.34586035405594e+003	(-4.56148165184865e+001dB,-3.56355994955425e+000°)
1.34896288259165e+003	(-4.56183905949342e+001dB,-3.57182055798606e+000°)
1.35207256319427e+003	(-4.56219823931733e+001dB,-3.58010054220114e+000°)
1.35518941235103e+003	(-4.56255920072307e+001dB,-3.58839994937689e+000°)
1.35831344658715e+003	(-4.56292195316940e+001dB,-3.59671882681954e+000°)
1.36144468246594e+003	(-4.56328650617153e+001dB,-3.60505722196467e+000°)
1.36458313658892e+003	(-4.56365286930154e+001dB,-3.61341518237750e+000°)
1.36772882559584e+003	(-4.56402105218876e+001dB,-3.62179275575367e+000°)
1.37088176616484e+003	(-4.56439106452019e+001dB,-3.63018998991941e+000°)
1.37404197501251e+003	(-4.56476291604093e+001dB,-3.63860693283231e+000°)
1.37720946889394e+003	(-4.56513661655454e+001dB,-3.64704363258157e+000°)
1.38038426460288e+003	(-4.56551217592351e+001dB,-3.65550013738859e+000°)
1.38356637897177e+003	(-4.56588960406967e+001dB,-3.66397649560749e+000°)
1.38675582887188e+003	(-4.56626891097459e+001dB,-3.67247275572556e+000°)
1.38995263121334e+003	(-4.56665010668005e+001dB,-3.68098896636370e+000°)
1.39315680294529e+003	(-4.56703320128842e+001dB,-3.68952517627715e+000°)
1.39636836105593e+003	(-4.56741820496315e+001dB,-3.69808143435582e+000°)
1.39958732257261e+003	(-4.56780512792919e+001dB,-3.70665778962469e+000°)
1.40281370456195e+003	(-4.56819398047341e+001dB,-3.71525429124450e+000°)
1.40604752412990e+003	(-4.56858477294508e+001dB,-3.72387098851232e+000°)
1.40928879842186e+003	(-4.56897751575633e+001dB,-3.73250793086178e+000°)
1.41253754462274e+003	(-4.56937221938254e+001dB,-3.74116516786404e+000°)
1.41579377995707e+003	(-4.56976889436290e+001dB,-3.74984274922773e+000°)
1.41905752168908e+003	(-4.57016755130081e+001dB,-3.75854072480004e+000°)
1.42232878712281e+003	(-4.57056820086433e+001dB,-3.76725914456702e+000°)
1.42560759360218e+003	(-4.57097085378672e+001dB,-3.77599805865387e+000°)
1.42889395851109e+003	(-4.57137552086687e+001dB,-3.78475751732597e+000°)
1.43218789927353e+003	(-4.57178221296980e+001dB,-3.79353757098899e+000°)
1.43548943335364e+003	(-4.57219094102711e+001dB,-3.80233827018981e+000°)
1.43879857825583e+003	(-4.57260171603754e+001dB,-3.81115966561665e+000°)
1.44211535152486e+003	(-4.57301454906739e+001dB,-3.82000180809996e+000°)
1.44543977074592e+003	(-4.57342945125108e+001dB,-3.82886474861287e+000°)
1.44877185354475e+003	(-4.57384643379159e+001dB,-3.83774853827168e+000°)
1.45211161758773e+003	(-4.57426550796104e+001dB,-3.84665322833650e+000°)
1.45545908058195e+003	(-4.57468668510116e+001dB,-3.85557887021192e+000°)
1.45881426027534e+003	(-4.57510997662380e+001dB,-3.86452551544725e+000°)
1.46217717445671e+003	(-4.57553539401147e+001dB,-3.87349321573742e+000°)
1.46554784095590e+003	(-4.57596294881789e+001dB,-3.88248202292351e+000°)
1.46892627764385e+003	(-4.57639265266846e+001dB,-3.89149198899312e+000°)
1.47231250243271e+003	(-4.57682451726084e+001dB,-3.90052316608119e+000°)
1.47570653327588e+003	(-4.57725855436551e+001dB,-3.90957560647060e+000°)
1.47910838816819e+003	(-4.57769477582628e+001dB,-3.91864936259244e+000°)
1.48251808514594e+003	(-4.57813319356084e+001dB,-3.92774448702703e+000°)
1.48593564228699e+003	(-4.57857381956134e+001dB,-3.93686103250416e+000°)
1.48936107771090e+003	(-4.57901666589494e+001dB,-3.94599905190411e+000°)
1.49279440957898e+003	(-4.57946174470440e+001dB,-3.95515859825788e+000°)
1.49623565609442e+003	(-4.57990906820861e+001dB,-3.96433972474792e+000°)
1.49968483550236e+003	(-4.58035864870319e+001dB,-3.97354248470869e+000°)
1.50314196609001e+003	(-4.58081049856110e+001dB,-3.98276693162761e+000°)
1.50660706618673e+003	(-4.58126463023319e+001dB,-3.99201311914518e+000°)
1.51008015416413e+003	(-4.58172105624880e+001dB,-4.00128110105622e+000°)
1.51356124843619e+003	(-4.58217978921638e+001dB,-4.01057093130982e+000°)
1.51705036745932e+003	(-4.58264084182409e+001dB,-4.01988266401048e+000°)
1.52054752973248e+003	(-4.58310422684040e+001dB,-4.02921635341858e+000°)
1.52405275379728e+003	(-4.58356995711471e+001dB,-4.03857205395108e+000°)
1.52756605823806e+003	(-4.58403804557800e+001dB,-4.04794982018225e+000°)
1.53108746168201e+003	(-4.58450850524340e+001dB,-4.05734970684391e+000°)
1.53461698279928e+003	(-4.58498134920690e+001dB,-4.06677176882681e+000°)
1.53815464030302e+003	(-4.58545659064794e+001dB,-4.07621606118057e+000°)
1.54170045294954e+003	(-4.58593424283007e+001dB,-4.08568263911504e+000°)
1.54525443953840e+003	(-4.58641431910161e+001dB,-4.09517155800021e+000°)
1.54881661891247e+003	(-4.58689683289631e+001dB,-4.10468287336771e+000°)
1.55238700995807e+003	(-4.58738179773401e+001dB,-4.11421664091090e+000°)
1.55596563160506e+003	(-4.58786922722130e+001dB,-4.12377291648582e+000°)
1.55955250282694e+003	(-4.58835913505224e+001dB,-4.13335175611177e+000°)
1.56314764264094e+003	(-4.58885153500903e+001dB,-4.14295321597215e+000°)
1.56675107010813e+003	(-4.58934644096265e+001dB,-4.15257735241523e+000°)
1.57036280433354e+003	(-4.58984386687365e+001dB,-4.16222422195453e+000°)
1.57398286446620e+003	(-4.59034382679278e+001dB,-4.17189388126982e+000°)
1.57761126969933e+003	(-4.59084633486177e+001dB,-4.18158638720781e+000°)
1.58124803927037e+003	(-4.59135140531398e+001dB,-4.19130179678295e+000°)
1.58489319246110e+003	(-4.59185905247518e+001dB,-4.20104016717789e+000°)
1.58854674859776e+003	(-4.59236929076426e+001dB,-4.21080155574444e+000°)
1.59220872705115e+003	(-4.59288213469399e+001dB,-4.22058602000448e+000°)
1.59587914723672e+003	(-4.59339759887174e+001dB,-4.23039361765023e+000°)
1.59955802861465e+003	(-4.59391569800029e+001dB,-4.24022440654555e+000°)
1.60324539069002e+003	(-4.59443644687852e+001dB,-4.25007844472629e+000°)
1.60694125301286e+003	(-4.59495986040226e+001dB,-4.25995579040143e+000°)
1.61064563517825e+003	(-4.59548595356499e+001dB,-4.26985650195334e+000°)
1.61435855682647e+003	(-4.59601474145870e+001dB,-4.27978063793922e+000°)
1.61808003764305e+003	(-4.59654623927464e+001dB,-4.28972825709141e+000°)
1.62181009735891e+003	(-4.59708046230416e+001dB,-4.29969941831830e+000°)
1.62554875575047e+003	(-4.59761742593947e+001dB,-4.30969418070526e+000°)
1.62929603263970e+003	(-4.59815714567451e+001dB,-4.31971260351526e+000°)
1.63305194789432e+003	(-4.59869963710575e+001dB,-4.32975474618987e+000°)
1.63681652142779e+003	(-4.59924491593303e+001dB,-4.33982066835004e+000°)
1.64058977319952e+003	(-4.59979299796041e+001dB,-4.34991042979676e+000°)
1.64437172321491e+003	(-4.60034389909704e+001dB,-4.36002409051214e+000°)
1.64816239152549e+003	(-4.60089763535798e+001dB,-4.37016171066011e+000°)
1.65196179822900e+003	(-4.60145422286511e+001dB,-4.38032335058738e+000°)
1.65576996346951e+003	(-4.60201367784797e+001dB,-4.39050907082397e+000°)
1.65958690743754e+003	(-4.60257601664473e+001dB,-4.40071893208471e+000°)
1.66341265037015e+003	(-4.60314125570299e+001dB,-4.41095299526934e+000°)
1.66724721255104e+003	(-4.60370941158072e+001dB,-4.42121132146411e+000°)
1.67109061431069e+003	(-4.60428050094722e+001dB,-4.43149397194223e+000°)
1.67494287602642e+003	(-4.60485454058401e+001dB,-4.44180100816476e+000°)
1.67880401812254e+003	(-4.60543154738575e+001dB,-4.45213249178182e+000°)
1.68267406107045e+003	(-4.60601153836122e+001dB,-4.46248848463302e+000°)
1.68655302538872e+003	(-4.60659453063426e+001dB,-4.47286904874914e+000°)
1.69044093164324e+003	(-4.60718054144473e+001dB,-4.48327424635206e+000°)
1.69433780044731e+003	(-4.60776958814951e+001dB,-4.49370413985651e+000°)
1.69824365246172e+003	(-4.60836168822345e+001dB,-4.50415879187063e+000°)
1.70215850839493e+003	(-4.60895685926040e+001dB,-4.51463826519710e+000°)
1.70608238900310e+003	(-4.60955511897419e+001dB,-4.52514262283389e+000°)
1.71001531509027e+003	(-4.61015648519967e+001dB,-4.53567192797542e+000°)
1.71395730750840e+003	(-4.61076097589372e+001dB,-4.54622624401339e+000°)
1.71790838715757e+003	(-4.61136860913631e+001dB,-4.55680563453776e+000°)
1.72186857498598e+003	(-4.61197940313152e+001dB,-4.56741016333802e+000°)
1.72583789199018e+003	(-4.61259337620865e+001dB,-4.57803989440392e+000°)
1.72981635921508e+003	(-4.61321054682324e+001dB,-4.58869489192643e+000°)
1.73380399775412e+003	(-4.61383093355818e+001dB,-4.59937522029883e+000°)
1.73780082874935e+003	(-4.61445455512482e+001dB,-4.61008094411819e+000°)
1.74180687339159e+003	(-4.61508143036403e+001dB,-4.62081212818542e+000°)
1.74582215292048e+003	(-4.61571157824738e+001dB,-4.63156883750730e+000°)
1.74984668862463e+003	(-4.61634501787824e+001dB,-4.64235113729695e+000°)
1.75388050184174e+003	(-4.61698176849293e+001dB,-4.65315909297529e+000°)
1.75792361395867e+003	(-4.61762184946185e+001dB,-4.66399277017155e+000°)
1.76197604641161e+003	(-4.61826528029073e+001dB,-4.67485223472518e+000°)
1.76603782068614e+003	(-4.61891208062170e+001dB,-4.68573755268596e+000°)
1.77010895831740e+003	(-4.61956227023457e+001dB,-4.69664879031611e+000°)
1.77418948089014e+003	(-4.62021586904801e+001dB,-4.70758601409058e+000°)
1.77827941003890e+003	(-4.62087289712077e+001dB,-4.71854929069870e+000°)
1.78237876744807e+003	(-4.62153337465292e+001dB,-4.72953868704502e+000°)
1.78648757485203e+003	(-4.62219732198709e+001dB,-4.74055427025074e+000°)
1.79060585403527e+003	(-4.62286475960975e+001dB,-4.75159610765460e+000°)
1.79473362683250e+003	(-4.62353570815247e+001dB,-4.76266426681415e+000°)
1.79887091512876e+003	(-4.62421018839320e+001dB,-4.77375881550703e+000°)
1.80301774085954e+003	(-4.62488822125763e+001dB,-4.78487982173191e+000°)
1.80717412601090e+003	(-4.62556982782044e+001dB,-4.79602735371013e+000°)
1.81134009261958e+003	(-4.62625502930667e+001dB,-4.80720147988638e+000°)
1.81551566277311e+003	(-4.62694384709309e+001dB,-4.81840226893028e+000°)
1.81970085860996e+003	(-4.62763630270951e+001dB,-4.82962978973781e+000°)
1.82389570231961e+003	(-4.62833241784021e+001dB,-4.84088411143182e+000°)
1.82810021614272e+003	(-4.62903221432532e+001dB,-4.85216530336415e+000°)
1.83231442237119e+003	(-4.62973571416221e+001dB,-4.86347343511636e+000°)
1.83653834334832e+003	(-4.63044293950696e+001dB,-4.87480857650121e+000°)
1.84077200146893e+003	(-4.63115391267576e+001dB,-4.88617079756396e+000°)
1.84501541917945e+003	(-4.63186865614641e+001dB,-4.89756016858379e+000°)
1.84926861897805e+003	(-4.63258719255977e+001dB,-4.90897676007479e+000°)
1.85353162341478e+003	(-4.63330954472127e+001dB,-4.92042064278772e+000°)
1.85780445509167e+003	(-4.63403573560239e+001dB,-4.93189188771106e+000°)
1.86208713666284e+003	(-4.63476578834225e+001dB,-4.94339056607255e+000°)
1.86637969083464e+003	(-4.63549972624910e+001dB,-4.95491674934059e+000°)
1.87068214036577e+003	(-4.63623757280192e+001dB,-4.96647050922551e+000°)
