Freq.	V(vout_highq)
1.00000000000000e+003	(-4.52144486609931e+001dB,-2.54023020691039e+000°)
1.00230523807790e+003	(-4.52163612589157e+001dB,-2.54609797803160e+000°)
1.00461579027840e+003	(-4.52182830335353e+001dB,-2.55197936123326e+000°)
1.00693166885180e+003	(-4.52202140305703e+001dB,-2.55787438852033e+000°)
1.00925288607668e+003	(-4.52221542959831e+001dB,-2.56378309197663e+000°)
1.01157945425990e+003	(-4.52241038759819e+001dB,-2.56970550376433e+000°)
1.01391138573668e+003	(-4.52260628170216e+001dB,-2.57564165612500e+000°)
1.01624869287070e+003	(-4.52280311658059e+001dB,-2.58159158137909e+000°)
1.01859138805412e+003	(-4.52300089692882e+001dB,-2.58755531192666e+000°)
1.02093948370768e+003	(-4.52319962746736e+001dB,-2.59353288024729e+000°)
1.02329299228075e+003	(-4.52339931294203e+001dB,-2.59952431890059e+000°)
1.02565192625141e+003	(-4.52359995812407e+001dB,-2.60552966052606e+000°)
1.02801629812647e+003	(-4.52380156781036e+001dB,-2.61154893784370e+000°)
1.03038612044162e+003	(-4.52400414682353e+001dB,-2.61758218365393e+000°)
1.03276140576140e+003	(-4.52420770001213e+001dB,-2.62362943083795e+000°)
1.03514216667934e+003	(-4.52441223225079e+001dB,-2.62969071235818e+000°)
1.03752841581801e+003	(-4.52461774844036e+001dB,-2.63576606125786e+000°)
1.03992016582906e+003	(-4.52482425350808e+001dB,-2.64185551066203e+000°)
1.04231742939330e+003	(-4.52503175240776e+001dB,-2.64795909377732e+000°)
1.04472021922080e+003	(-4.52524025011991e+001dB,-2.65407684389231e+000°)
1.04712854805090e+003	(-4.52544975165192e+001dB,-2.66020879437759e+000°)
1.04954242865232e+003	(-4.52566026203822e+001dB,-2.66635497868629e+000°)
1.05196187382322e+003	(-4.52587178634044e+001dB,-2.67251543035416e+000°)
1.05438689639126e+003	(-4.52608432964759e+001dB,-2.67869018299968e+000°)
1.05681750921366e+003	(-4.52629789707620e+001dB,-2.68487927032464e+000°)
1.05925372517729e+003	(-4.52651249377054e+001dB,-2.69108272611392e+000°)
1.06169555719872e+003	(-4.52672812490271e+001dB,-2.69730058423615e+000°)
1.06414301822431e+003	(-4.52694479567289e+001dB,-2.70353287864365e+000°)
1.06659612123026e+003	(-4.52716251130947e+001dB,-2.70977964337291e+000°)
1.06905487922266e+003	(-4.52738127706923e+001dB,-2.71604091254461e+000°)
1.07151930523761e+003	(-4.52760109823753e+001dB,-2.72231672036409e+000°)
1.07398941234124e+003	(-4.52782198012845e+001dB,-2.72860710112132e+000°)
1.07646521362983e+003	(-4.52804392808501e+001dB,-2.73491208919122e+000°)
1.07894672222983e+003	(-4.52826694747931e+001dB,-2.74123171903432e+000°)
1.08143395129794e+003	(-4.52849104371275e+001dB,-2.74756602519639e+000°)
1.08392691402120e+003	(-4.52871622221618e+001dB,-2.75391504230895e+000°)
1.08642562361706e+003	(-4.52894248845009e+001dB,-2.76027880508972e+000°)
1.08893009333343e+003	(-4.52916984790479e+001dB,-2.76665734834244e+000°)
1.09144033644875e+003	(-4.52939830610062e+001dB,-2.77305070695770e+000°)
1.09395636627209e+003	(-4.52962786858810e+001dB,-2.77945891591234e+000°)
1.09647819614318e+003	(-4.52985854094815e+001dB,-2.78588201027065e+000°)
1.09900583943252e+003	(-4.53009032879225e+001dB,-2.79232002518410e+000°)
1.10153930954141e+003	(-4.53032323776266e+001dB,-2.79877299589156e+000°)
1.10407861990207e+003	(-4.53055727353258e+001dB,-2.80524095771974e+000°)
1.10662378397766e+003	(-4.53079244180638e+001dB,-2.81172394608338e+000°)
1.10917481526240e+003	(-4.53102874831977e+001dB,-2.81822199648556e+000°)
1.11173172728159e+003	(-4.53126619884001e+001dB,-2.82473514451783e+000°)
1.11429453359173e+003	(-4.53150479916607e+001dB,-2.83126342586059e+000°)
1.11686324778056e+003	(-4.53174455512890e+001dB,-2.83780687628334e+000°)
1.11943788346715e+003	(-4.53198547259157e+001dB,-2.84436553164491e+000°)
1.12201845430196e+003	(-4.53222755744950e+001dB,-2.85093942789357e+000°)
1.12460497396692e+003	(-4.53247081563065e+001dB,-2.85752860106780e+000°)
1.12719745617551e+003	(-4.53271525309574e+001dB,-2.86413308729586e+000°)
1.12979591467279e+003	(-4.53296087583844e+001dB,-2.87075292279659e+000°)
1.13240036323555e+003	(-4.53320768988561e+001dB,-2.87738814387947e+000°)
1.13501081567231e+003	(-4.53345570129747e+001dB,-2.88403878694480e+000°)
1.13762728582343e+003	(-4.53370491616782e+001dB,-2.89070488848423e+000°)
1.14024978756117e+003	(-4.53395534062430e+001dB,-2.89738648508088e+000°)
1.14287833478977e+003	(-4.53420698082854e+001dB,-2.90408361340956e+000°)
1.14551294144553e+003	(-4.53445984297640e+001dB,-2.91079631023701e+000°)
1.14815362149688e+003	(-4.53471393329822e+001dB,-2.91752461242252e+000°)
1.15080038894443e+003	(-4.53496925805900e+001dB,-2.92426855691772e+000°)
1.15345325782109e+003	(-4.53522582355863e+001dB,-2.93102818076721e+000°)
1.15611224219210e+003	(-4.53548363613211e+001dB,-2.93780352110871e+000°)
1.15877735615512e+003	(-4.53574270214981e+001dB,-2.94459461517332e+000°)
1.16144861384034e+003	(-4.53600302801766e+001dB,-2.95140150028581e+000°)
1.16412602941049e+003	(-4.53626462017737e+001dB,-2.95822421386504e+000°)
1.16680961706096e+003	(-4.53652748510670e+001dB,-2.96506279342403e+000°)
1.16949939101987e+003	(-4.53679162931967e+001dB,-2.97191727657033e+000°)
1.17219536554813e+003	(-4.53705705936679e+001dB,-2.97878770100642e+000°)
1.17489755493953e+003	(-4.53732378183528e+001dB,-2.98567410452985e+000°)
1.17760597352080e+003	(-4.53759180334935e+001dB,-2.99257652503357e+000°)
1.18032063565173e+003	(-4.53786113057044e+001dB,-2.99949500050623e+000°)
1.18304155572516e+003	(-4.53813177019738e+001dB,-3.00642956903249e+000°)
1.18576874816716e+003	(-4.53840372896674e+001dB,-3.01338026879335e+000°)
1.18850222743701e+003	(-4.53867701365300e+001dB,-3.02034713806618e+000°)
1.19124200802737e+003	(-4.53895163106884e+001dB,-3.02733021522563e+000°)
1.19398810446427e+003	(-4.53922758806535e+001dB,-3.03432953874305e+000°)
1.19674053130724e+003	(-4.53950489153232e+001dB,-3.04134514718762e+000°)
1.19949930314937e+003	(-4.53978354839848e+001dB,-3.04837707922611e+000°)
1.20226443461741e+003	(-4.54006356563174e+001dB,-3.05542537362357e+000°)
1.20503594037179e+003	(-4.54034495023945e+001dB,-3.06249006924313e+000°)
1.20781383510678e+003	(-4.54062770926868e+001dB,-3.06957120504680e+000°)
1.21059813355048e+003	(-4.54091184980644e+001dB,-3.07666882009559e+000°)
1.21338885046497e+003	(-4.54119737898001e+001dB,-3.08378295354979e+000°)
1.21618600064636e+003	(-4.54148430395713e+001dB,-3.09091364466919e+000°)
1.21898959892486e+003	(-4.54177263194631e+001dB,-3.09806093281363e+000°)
1.22179966016487e+003	(-4.54206237019710e+001dB,-3.10522485744318e+000°)
1.22461619926504e+003	(-4.54235352600034e+001dB,-3.11240545811840e+000°)
1.22743923115840e+003	(-4.54264610668844e+001dB,-3.11960277450066e+000°)
1.23026877081238e+003	(-4.54294011963568e+001dB,-3.12681684635264e+000°)
1.23310483322890e+003	(-4.54323557225846e+001dB,-3.13404771353847e+000°)
1.23594743344450e+003	(-4.54353247201557e+001dB,-3.14129541602401e+000°)
1.23879658653036e+003	(-4.54383082640852e+001dB,-3.14855999387737e+000°)
1.24165230759241e+003	(-4.54413064298177e+001dB,-3.15584148726904e+000°)
1.24451461177138e+003	(-4.54443192932306e+001dB,-3.16313993647235e+000°)
1.24738351424294e+003	(-4.54473469306367e+001dB,-3.17045538186375e+000°)
1.25025903021771e+003	(-4.54503894187874e+001dB,-3.17778786392302e+000°)
1.25314117494141e+003	(-4.54534468348753e+001dB,-3.18513742323394e+000°)
1.25602996369487e+003	(-4.54565192565373e+001dB,-3.19250410048403e+000°)
1.25892541179416e+003	(-4.54596067618579e+001dB,-3.19988793646571e+000°)
1.26182753459066e+003	(-4.54627094293716e+001dB,-3.20728897207571e+000°)
1.26473634747115e+003	(-4.54658273380664e+001dB,-3.21470724831621e+000°)
1.26765186585784e+003	(-4.54689605673869e+001dB,-3.22214280629454e+000°)
1.27057410520854e+003	(-4.54721091972370e+001dB,-3.22959568722412e+000°)
1.27350308101666e+003	(-4.54752733079832e+001dB,-3.23706593242425e+000°)
1.27643880881134e+003	(-4.54784529804580e+001dB,-3.24455358332093e+000°)
1.27938130415752e+003	(-4.54816482959626e+001dB,-3.25205868144662e+000°)
1.28233058265601e+003	(-4.54848593362705e+001dB,-3.25958126844128e+000°)
1.28528665994361e+003	(-4.54880861836304e+001dB,-3.26712138605227e+000°)
1.28824955169313e+003	(-4.54913289207697e+001dB,-3.27467907613481e+000°)
1.29121927361353e+003	(-4.54945876308975e+001dB,-3.28225438065226e+000°)
1.29419584144998e+003	(-4.54978623977082e+001dB,-3.28984734167664e+000°)
1.29717927098395e+003	(-4.55011533053845e+001dB,-3.29745800138886e+000°)
1.30016957803328e+003	(-4.55044604386012e+001dB,-3.30508640207914e+000°)
1.30316677845229e+003	(-4.55077838825279e+001dB,-3.31273258614727e+000°)
1.30617088813183e+003	(-4.55111237228331e+001dB,-3.32039659610311e+000°)
1.30918192299940e+003	(-4.55144800456873e+001dB,-3.32807847456689e+000°)
1.31219989901920e+003	(-4.55178529377665e+001dB,-3.33577826426956e+000°)
1.31522483219223e+003	(-4.55212424862556e+001dB,-3.34349600805321e+000°)
1.31825673855640e+003	(-4.55246487788522e+001dB,-3.35123174887121e+000°)
1.32129563418657e+003	(-4.55280719037698e+001dB,-3.35898552978904e+000°)
1.32434153519466e+003	(-4.55315119497416e+001dB,-3.36675739398423e+000°)
1.32739445772973e+003	(-4.55349690060243e+001dB,-3.37454738474698e+000°)
1.33045441797808e+003	(-4.55384431624012e+001dB,-3.38235554548047e+000°)
1.33352143216332e+003	(-4.55419345091865e+001dB,-3.39018191970121e+000°)
1.33659551654643e+003	(-4.55454431372286e+001dB,-3.39802655103948e+000°)
1.33967668742593e+003	(-4.55489691379137e+001dB,-3.40588948323949e+000°)
1.34276496113786e+003	(-4.55525126031701e+001dB,-3.41377076016016e+000°)
1.34586035405594e+003	(-4.55560736254718e+001dB,-3.42167042577543e+000°)
1.34896288259165e+003	(-4.55596522978419e+001dB,-3.42958852417416e+000°)
1.35207256319427e+003	(-4.55632487138573e+001dB,-3.43752509956126e+000°)
1.35518941235103e+003	(-4.55668629676515e+001dB,-3.44548019625730e+000°)
1.35831344658715e+003	(-4.55704951539199e+001dB,-3.45345385869982e+000°)
1.36144468246594e+003	(-4.55741453679224e+001dB,-3.46144613144294e+000°)
1.36458313658892e+003	(-4.55778137054885e+001dB,-3.46945705915792e+000°)
1.36772882559584e+003	(-4.55815002630204e+001dB,-3.47748668663414e+000°)
1.37088176616484e+003	(-4.55852051374980e+001dB,-3.48553505877862e+000°)
1.37404197501251e+003	(-4.55889284264824e+001dB,-3.49360222061720e+000°)
1.37720946889394e+003	(-4.55926702281202e+001dB,-3.50168821729444e+000°)
1.38038426460288e+003	(-4.55964306411475e+001dB,-3.50979309407439e+000°)
1.38356637897177e+003	(-4.56002097648947e+001dB,-3.51791689634063e+000°)
1.38675582887188e+003	(-4.56040076992901e+001dB,-3.52605966959722e+000°)
1.38995263121334e+003	(-4.56078245448643e+001dB,-3.53422145946835e+000°)
1.39315680294529e+003	(-4.56116604027552e+001dB,-3.54240231169966e+000°)
1.39636836105593e+003	(-4.56155153747113e+001dB,-3.55060227215809e+000°)
1.39958732257261e+003	(-4.56193895630969e+001dB,-3.55882138683227e+000°)
1.40281370456195e+003	(-4.56232830708965e+001dB,-3.56705970183334e+000°)
1.40604752412990e+003	(-4.56271960017188e+001dB,-3.57531726339508e+000°)
1.40928879842186e+003	(-4.56311284598015e+001dB,-3.58359411787458e+000°)
1.41253754462274e+003	(-4.56350805500162e+001dB,-3.59189031175222e+000°)
1.41579377995707e+003	(-4.56390523778724e+001dB,-3.60020589163276e+000°)
1.41905752168908e+003	(-4.56430440495226e+001dB,-3.60854090424540e+000°)
1.42232878712281e+003	(-4.56470556717667e+001dB,-3.61689539644405e+000°)
1.42560759360218e+003	(-4.56510873520570e+001dB,-3.62526941520849e+000°)
1.42889395851109e+003	(-4.56551391985028e+001dB,-3.63366300764379e+000°)
1.43218789927353e+003	(-4.56592113198752e+001dB,-3.64207622098168e+000°)
1.43548943335364e+003	(-4.56633038256120e+001dB,-3.65050910258066e+000°)
1.43879857825583e+003	(-4.56674168258227e+001dB,-3.65896169992644e+000°)
1.44211535152486e+003	(-4.56715504312934e+001dB,-3.66743406063226e+000°)
1.44543977074592e+003	(-4.56757047534918e+001dB,-3.67592623243981e+000°)
1.44877185354475e+003	(-4.56798799045719e+001dB,-3.68443826321920e+000°)
1.45211161758773e+003	(-4.56840759973797e+001dB,-3.69297020096968e+000°)
1.45545908058195e+003	(-4.56882931454580e+001dB,-3.70152209382014e+000°)
1.45881426027534e+003	(-4.56925314630515e+001dB,-3.71009399002972e+000°)
1.46217717445671e+003	(-4.56967910651122e+001dB,-3.71868593798780e+000°)
1.46554784095590e+003	(-4.57010720673047e+001dB,-3.72729798621501e+000°)
1.46892627764385e+003	(-4.57053745860110e+001dB,-3.73593018336347e+000°)
1.47231250243271e+003	(-4.57096987383368e+001dB,-3.74458257821729e+000°)
1.47570653327588e+003	(-4.57140446421163e+001dB,-3.75325521969319e+000°)
1.47910838816819e+003	(-4.57184124159176e+001dB,-3.76194815684090e+000°)
1.48251808514594e+003	(-4.57228021790487e+001dB,-3.77066143884365e+000°)
1.48593564228699e+003	(-4.57272140515626e+001dB,-3.77939511501877e+000°)
1.48936107771090e+003	(-4.57316481542631e+001dB,-3.78814923481797e+000°)
1.49279440957898e+003	(-4.57361046087107e+001dB,-3.79692384782837e+000°)
1.49623565609442e+003	(-4.57405835372280e+001dB,-3.80571900377220e+000°)
1.49968483550236e+003	(-4.57450850629056e+001dB,-3.81453475250833e+000°)
1.50314196609001e+003	(-4.57496093096080e+001dB,-3.82337114403181e+000°)
1.50660706618673e+003	(-4.57541564019794e+001dB,-3.83222822847508e+000°)
1.51008015416413e+003	(-4.57587264654500e+001dB,-3.84110605610835e+000°)
1.51356124843619e+003	(-4.57633196262412e+001dB,-3.85000467733965e+000°)
1.51705036745932e+003	(-4.57679360113727e+001dB,-3.85892414271635e+000°)
1.52054752973248e+003	(-4.57725757486676e+001dB,-3.86786450292468e+000°)
1.52405275379728e+003	(-4.57772389667595e+001dB,-3.87682580879094e+000°)
1.52756605823806e+003	(-4.57819257950982e+001dB,-3.88580811128174e+000°)
1.53108746168201e+003	(-4.57866363639561e+001dB,-3.89481146150474e+000°)
1.53461698279928e+003	(-4.57913708044344e+001dB,-3.90383591070919e+000°)
1.53815464030302e+003	(-4.57961292484699e+001dB,-3.91288151028618e+000°)
1.54170045294954e+003	(-4.58009118288414e+001dB,-3.92194831176973e+000°)
1.54525443953840e+003	(-4.58057186791757e+001dB,-3.93103636683688e+000°)
1.54881661891247e+003	(-4.58105499339551e+001dB,-3.94014572730850e+000°)
1.55238700995807e+003	(-4.58154057285234e+001dB,-3.94927644515001e+000°)
1.55596563160506e+003	(-4.58202861990926e+001dB,-3.95842857247170e+000°)
1.55955250282694e+003	(-4.58251914827503e+001dB,-3.96760216152933e+000°)
1.56314764264094e+003	(-4.58301217174661e+001dB,-3.97679726472489e+000°)
1.56675107010813e+003	(-4.58350770420985e+001dB,-3.98601393460711e+000°)
1.57036280433354e+003	(-4.58400575964023e+001dB,-3.99525222387216e+000°)
1.57398286446620e+003	(-4.58450635210350e+001dB,-4.00451218536395e+000°)
1.57761126969933e+003	(-4.58500949575648e+001dB,-4.01379387207514e+000°)
1.58124803927037e+003	(-4.58551520484770e+001dB,-4.02309733714747e+000°)
1.58489319246110e+003	(-4.58602349371818e+001dB,-4.03242263387253e+000°)
1.58854674859776e+003	(-4.58653437680215e+001dB,-4.04176981569238e+000°)
1.59220872705115e+003	(-4.58704786862779e+001dB,-4.05113893619997e+000°)
1.59587914723672e+003	(-4.58756398381798e+001dB,-4.06053004914007e+000°)
1.59955802861465e+003	(-4.58808273709105e+001dB,-4.06994320840989e+000°)
1.60324539069002e+003	(-4.58860414326157e+001dB,-4.07937846805932e+000°)
1.60694125301286e+003	(-4.58912821724110e+001dB,-4.08883588229223e+000°)
1.61064563517825e+003	(-4.58965497403897e+001dB,-4.09831550546651e+000°)
1.61435855682647e+003	(-4.59018442876307e+001dB,-4.10781739209491e+000°)
1.61808003764305e+003	(-4.59071659662067e+001dB,-4.11734159684616e+000°)
1.62181009735891e+003	(-4.59125149291918e+001dB,-4.12688817454508e+000°)
1.62554875575047e+003	(-4.59178913306701e+001dB,-4.13645718017311e+000°)
1.62929603263970e+003	(-4.59232953257435e+001dB,-4.14604866887005e+000°)
1.63305194789432e+003	(-4.59287270705402e+001dB,-4.15566269593337e+000°)
1.63681652142779e+003	(-4.59341867222230e+001dB,-4.16529931681976e+000°)
1.64058977319952e+003	(-4.59396744389977e+001dB,-4.17495858714577e+000°)
1.64437172321491e+003	(-4.59451903801219e+001dB,-4.18464056268818e+000°)
1.64816239152549e+003	(-4.59507347059133e+001dB,-4.19434529938503e+000°)
1.65196179822900e+003	(-4.59563075777586e+001dB,-4.20407285333604e+000°)
1.65576996346951e+003	(-4.59619091581223e+001dB,-4.21382328080384e+000°)
1.65958690743754e+003	(-4.59675396105554e+001dB,-4.22359663821392e+000°)
1.66341265037015e+003	(-4.59731990997048e+001dB,-4.23339298215601e+000°)
1.66724721255104e+003	(-4.59788877913220e+001dB,-4.24321236938473e+000°)
1.67109061431069e+003	(-4.59846058522722e+001dB,-4.25305485681983e+000°)
1.67494287602642e+003	(-4.59903534505442e+001dB,-4.26292050154794e+000°)
1.67880401812254e+003	(-4.59961307552590e+001dB,-4.27280936082225e+000°)
1.68267406107045e+003	(-4.60019379366798e+001dB,-4.28272149206367e+000°)
1.68655302538872e+003	(-4.60077751662212e+001dB,-4.29265695286213e+000°)
1.69044093164324e+003	(-4.60136426164591e+001dB,-4.30261580097638e+000°)
1.69433780044731e+003	(-4.60195404611404e+001dB,-4.31259809433571e+000°)
1.69824365246172e+003	(-4.60254688751930e+001dB,-4.32260389104038e+000°)
1.70215850839493e+003	(-4.60314280347354e+001dB,-4.33263324936197e+000°)
1.70608238900310e+003	(-4.60374181170872e+001dB,-4.34268622774481e+000°)
1.71001531509027e+003	(-4.60434393007788e+001dB,-4.35276288480669e+000°)
1.71395730750840e+003	(-4.60494917655624e+001dB,-4.36286327933963e+000°)
1.71790838715757e+003	(-4.60555756924215e+001dB,-4.37298747031011e+000°)
1.72186857498598e+003	(-4.60616912635824e+001dB,-4.38313551686118e+000°)
1.72583789199018e+003	(-4.60678386625240e+001dB,-4.39330747831193e+000°)
1.72981635921508e+003	(-4.60740180739889e+001dB,-4.40350341415960e+000°)
1.73380399775412e+003	(-4.60802296839941e+001dB,-4.41372338407932e+000°)
1.73780082874935e+003	(-4.60864736798423e+001dB,-4.42396744792578e+000°)
1.74180687339159e+003	(-4.60927502501327e+001dB,-4.43423566573353e+000°)
1.74582215292048e+003	(-4.60990595847720e+001dB,-4.44452809771852e+000°)
1.74984668862463e+003	(-4.61054018749865e+001dB,-4.45484480427822e+000°)
1.75388050184174e+003	(-4.61117773133325e+001dB,-4.46518584599320e+000°)
1.75792361395867e+003	(-4.61181860937088e+001dB,-4.47555128362779e+000°)
1.76197604641161e+003	(-4.61246284113678e+001dB,-4.48594117813051e+000°)
1.76603782068614e+003	(-4.61311044629277e+001dB,-4.49635559063609e+000°)
1.77010895831740e+003	(-4.61376144463843e+001dB,-4.50679458246538e+000°)
1.77418948089014e+003	(-4.61441585611229e+001dB,-4.51725821512666e+000°)
1.77827941003890e+003	(-4.61507370079310e+001dB,-4.52774655031678e+000°)
1.78237876744807e+003	(-4.61573499890101e+001dB,-4.53825964992175e+000°)
1.78648757485203e+003	(-4.61639977079888e+001dB,-4.54879757601827e+000°)
1.79060585403527e+003	(-4.61706803699349e+001dB,-4.55936039087399e+000°)
1.79473362683250e+003	(-4.61773981813682e+001dB,-4.56994815694912e+000°)
1.79887091512876e+003	(-4.61841513502741e+001dB,-4.58056093689700e+000°)
1.80301774085954e+003	(-4.61909400861158e+001dB,-4.59119879356549e+000°)
1.80717412601090e+003	(-4.61977645998477e+001dB,-4.60186178999761e+000°)
1.81134009261958e+003	(-4.62046251039294e+001dB,-4.61254998943299e+000°)
1.81551566277311e+003	(-4.62115218123384e+001dB,-4.62326345530848e+000°)
1.81970085860996e+003	(-4.62184549405842e+001dB,-4.63400225125940e+000°)
1.82389570231961e+003	(-4.62254247057217e+001dB,-4.64476644112076e+000°)
1.82810021614272e+003	(-4.62324313263660e+001dB,-4.65555608892801e+000°)
1.83231442237119e+003	(-4.62394750227055e+001dB,-4.66637125891864e+000°)
1.83653834334832e+003	(-4.62465560165169e+001dB,-4.67721201553250e+000°)
1.84077200146893e+003	(-4.62536745311793e+001dB,-4.68807842341333e+000°)
1.84501541917945e+003	(-4.62608307916890e+001dB,-4.69897054741050e+000°)
1.84926861897805e+003	(-4.62680250246741e+001dB,-4.70988845257896e+000°)
1.85353162341478e+003	(-4.62752574584098e+001dB,-4.72083220418116e+000°)
1.85780445509167e+003	(-4.62825283228330e+001dB,-4.73180186768797e+000°)
1.86208713666284e+003	(-4.62898378495581e+001dB,-4.74279750877987e+000°)
1.86637969083464e+003	(-4.62971862718922e+001dB,-4.75381919334827e+000°)
1.87068214036577e+003	(-4.63045738248507e+001dB,-4.76486698749622e+000°)
