Freq.	V(vout_highq)
2.00000000000000e+003	(-4.65947339390028e+001dB,-5.31422874946918e+000°)
2.04658598456151e+003	(-4.66836076302750e+001dB,-5.43975094238924e+000°)
2.09425709610180e+003	(-4.67774926527047e+001dB,-5.56833980354164e+000°)
2.14303861047521e+003	(-4.68767220526526e+001dB,-5.70007986880005e+000°)
2.19295639228637e+003	(-4.69816571222546e+001dB,-5.83505907024274e+000°)
2.24403690860393e+003	(-4.70926905714630e+001dB,-5.97336901006460e+000°)
2.29630724299377e+003	(-4.72102501622155e+001dB,-6.11510527465254e+000°)
2.34979510987906e+003	(-4.73348028886469e+001dB,-6.26036779701409e+000°)
2.40452886923483e+003	(-4.74668598056574e+001dB,-6.40926127780778e+000°)
2.46053754162476e+003	(-4.76069816313196e+001dB,-6.56189567788574e+000°)
2.51785082358833e+003	(-4.77557852779823e+001dB,-6.71838679873534e+000°)
2.57649910338627e+003	(-4.79139515044431e+001dB,-6.87885697178517e+000°)
2.63651347711281e+003	(-4.80822339298594e+001dB,-7.04343588362328e+000°)
2.69792576518331e+003	(-4.82614697127509e+001dB,-7.21226157232596e+000°)
2.76076852920577e+003	(-4.84525922805369e+001dB,-7.38548164114894e+000°)
2.82507508924551e+003	(-4.86566466035909e+001dB,-7.56325475095492e+000°)
2.89087954149185e+003	(-4.88748076527526e+001dB,-7.74575247370819e+000°)
2.95821677633641e+003	(-4.91084028750176e+001dB,-7.93316161875975e+000°)
3.02712249687242e+003	(-4.93589397896451e+001dB,-8.12568718542546e+000°)
3.09763323782496e+003	(-4.96281401772539e+001dB,-8.32355615562381e+000°)
3.16978638492223e+003	(-4.99179828542805e+001dB,-8.52702242863434e+000°)
3.24362019471786e+003	(-5.02307577660112e+001dB,-8.73637333166408e+000°)
3.31917381487512e+003	(-5.05691352049505e+001dB,-8.95193833983042e+000°)
3.39648730492349e+003	(-5.09362555457836e+001dB,-9.17410094920877e+000°)
3.47560165749875e+003	(-5.13358472746041e+001dB,-9.40331513851665e+000°)
3.55655882007784e+003	(-5.17723847660912e+001dB,-9.64012865564077e+000°)
3.63940171721997e+003	(-5.22513030691514e+001dB,-9.88521670598510e+000°)
3.72417427332573e+003	(-5.27792963980785e+001dB,-1.01394319381899e+001°)
3.81092143592649e+003	(-5.33647428630234e+001dB,-1.04038807813168e+001°)
3.89968919951609e+003	(-5.40183255500678e+001dB,-1.06800439654183e+001°)
3.99052462993776e+003	(-5.47539701767379e+001dB,-1.09699743289693e+001°)
4.08347588933906e+003	(-5.55903153093559e+001dB,-1.12766367657284e+001°)
4.17859226170808e+003	(-5.65531253793008e+001dB,-1.16045258342222e+001°)
4.27592417900446e+003	(-5.76794804619447e+001dB,-1.19608675184902e+001°)
4.37552324789910e+003	(-5.90255885930076e+001dB,-1.23581706357044e+001°)
4.47744227713668e+003	(-6.06827808148779e+001dB,-1.28203037693390e+001°)
4.58173530553554e+003	(-6.28147685600564e+001dB,-1.33994814512988e+001°)
4.68845763063984e+003	(-6.57628045074676e+001dB,-1.42367535256654e+001°)
4.79766583803898e+003	(-7.04577724521161e+001dB,-1.58925614286023e+001°)
4.90941783137006e+003	(-8.20470786055179e+001dB,-2.53602203639661e+001°)
5.02377286301916e+003	(-7.62935365399934e+001dB,1.73080051428900e+002°)
5.14079156553772e+003	(-6.81976978525018e+001dB,1.68896261619635e+002°)
5.26053598379076e+003	(-6.39789831077603e+001dB,1.67600734488796e+002°)
5.38306960785383e+003	(-6.10831533484410e+001dB,1.66822251949194e+002°)
5.50845740667633e+003	(-5.88639132196296e+001dB,1.66222288555879e+002°)
5.63676586252890e+003	(-5.70579048555023e+001dB,1.65701230729255e+002°)
5.76806300625321e+003	(-5.55317733717413e+001dB,1.65219100487616e+002°)
5.90241845333276e+003	(-5.42087446841587e+001dB,1.64756637036587e+002°)
6.03990344080403e+003	(-5.30406984974761e+001dB,1.64303334415278e+002°)
6.18059086502717e+003	(-5.19956159682505e+001dB,1.63852908138890e+002°)
6.32455532033675e+003	(-5.10512502746239e+001dB,1.63401313976569e+002°)
6.47187313859256e+003	(-5.01916547173431e+001dB,1.62945787414377e+002°)
6.62262242965181e+003	(-4.94051529324032e+001dB,1.62484340076705e+002°)
6.77688312278404e+003	(-4.86830930606042e+001dB,1.62015479684166e+002°)
6.93473700905062e+003	(-4.80190551057363e+001dB,1.61538047765416e+002°)
7.09626778467150e+003	(-4.74083348084211e+001dB,1.61051123750813e+002°)
7.26156109540201e+003	(-4.68476051932508e+001dB,1.60553969264601e+002°)
7.43070458194344e+003	(-4.63346987965598e+001dB,1.60045999031209e+002°)
7.60378792641121e+003	(-4.58684775387427e+001dB,1.59526771700421e+002°)
7.78090289988560e+003	(-4.54487719945455e+001dB,1.58995998191033e+002°)
7.96214341106993e+003	(-4.50763819978558e+001dB,1.58453568452423e+002°)
8.14760555608224e+003	(-4.47531387832686e+001dB,1.57899600882739e+002°)
8.33738766940669e+003	(-4.44820371798995e+001dB,1.57334522999125e+002°)
8.53159037603184e+003	(-4.42674567148554e+001dB,1.56759198685546e+002°)
8.73031664480330e+003	(-4.41155056014353e+001dB,1.56175128824493e+002°)
8.93367184301925e+003	(-4.40345461716068e+001dB,1.55584773037876e+002°)
9.14176379229748e+003	(-4.40360033699250e+001dB,1.54992080581490e+002°)
9.35470282574395e+003	(-4.41356381644595e+001dB,1.54403400785142e+002°)
9.57260184645275e+003	(-4.43556268798661e+001dB,1.53829123096410e+002°)
9.79557638736890e+003	(-4.47281261642175e+001dB,1.53286820980210e+002°)
1.00237446725454e+004	(-4.53017879899163e+001dB,1.52807778133262e+002°)
1.02572276798273e+004	(-4.61547120275404e+001dB,1.52452032045755e+002°)
1.04961492049954e+004	(-4.74233255979770e+001dB,1.52348420327367e+002°)
1.07406359274050e+004	(-4.93783569358633e+001dB,1.52826351522558e+002°)
1.09908174771525e+004	(-5.26846731007015e+001dB,1.55032411400583e+002°)
1.12468265038070e+004	(-5.98462807483707e+001dB,1.67155197473524e+002°)
1.15087987467431e+004	(-6.16733225070841e+001dB,-6.55768016799908e+001°)
1.17768731071118e+004	(-5.11259827470925e+001dB,-4.61283420749157e+001°)
1.20511917214871e+004	(-4.56424356274715e+001dB,-4.34330131171817e+001°)
1.23319000372296e+004	(-4.17387640141692e+001dB,-4.30845443937460e+001°)
1.26191468896038e+004	(-3.85940393486929e+001dB,-4.35485637122838e+001°)
1.29130845806931e+004	(-3.58910787089341e+001dB,-4.44256238026585e+001°)
1.32138689601519e+004	(-3.34735622175276e+001dB,-4.55715524986485e+001°)
1.35216595078396e+004	(-3.12524109852265e+001dB,-4.69270642081030e+001°)
1.38366194183787e+004	(-2.91715752994579e+001dB,-4.84689556253019e+001°)
1.41589156876827e+004	(-2.71930756639394e+001dB,-5.01928010295501e+001°)
1.44887192014998e+004	(-2.52896073100193e+001dB,-5.21061522804701e+001°)
1.48262048260183e+004	(-2.34405460183937e+001dB,-5.42259960765097e+001°)
1.51715515005836e+004	(-2.16296536085686e+001dB,-5.65783132789924e+001°)
1.55249423325738e+004	(-1.98437200016746e+001dB,-5.91989589865114e+001°)
1.58865646944856e+004	(-1.80717875063497e+001dB,-6.21356236243194e+001°)
1.62566103232819e+004	(-1.63048110441940e+001dB,-6.54508745708560e+001°)
1.66352754220534e+004	(-1.45357434645164e+001dB,-6.92263556708676e+001°)
1.70227607640475e+004	(-1.27601585823646e+001dB,-7.35681014580274e+001°)
1.74192717991216e+004	(-1.09776695602259e+001dB,-7.86123773271292e+001°)
1.78250187626749e+004	(-9.19456790464915e+000dB,-8.45299334267773e+001°)
1.82402167871182e+004	(-7.42819832969953e+000dB,-9.15230107217523e+001°)
1.86650860159398e+004	(-5.71319742335858e+000dB,-9.98026890306553e+001°)
1.90998517204287e+004	(-4.10786182608650e+000dB,-1.09526005561196e+002°)
1.95447444191162e+004	(-2.69441980685932e+000dB,-1.20676887596089e+002°)
2.00000000000000e+004	(-1.56238257075346e+000dB,-1.32925347827190e+002°)
2.04658598456150e+004	(-7.71501422608900e-001dB,-1.45594994863209e+002°)
2.09425709610179e+004	(-3.17289626540876e-001dB,-1.57863161229148e+002°)
2.14303861047521e+004	(-1.33301246594646e-001dB,-1.69084189519442e+002°)
2.19295639228637e+004	(-1.27631412477512e-001dB,-1.78965265603410e+002°)
2.24403690860392e+004	(-2.18331543708472e-001dB,1.72485160062223e+002°)
2.29630724299376e+004	(-3.47780561287694e-001dB,1.65100374206331e+002°)
2.34979510987905e+004	(-4.81251062130886e-001dB,1.58668838835899e+002°)
2.40452886923482e+004	(-6.00284869023505e-001dB,1.52991836453678e+002°)
2.46053754162476e+004	(-6.96518528571981e-001dB,1.47903237206966e+002°)
2.51785082358833e+004	(-7.67380562280440e-001dB,1.43271291249742e+002°)
2.57649910338626e+004	(-8.13434543582237e-001dB,1.38993993864889e+002°)
2.63651347711281e+004	(-8.36832936221117e-001dB,1.34993167885094e+002°)
2.69792576518330e+004	(-8.40446286035998e-001dB,1.31209123861400e+002°)
2.76076852920576e+004	(-8.27383617916730e-001dB,1.27596362672812e+002°)
2.82507508924550e+004	(-8.00733951697140e-001dB,1.24120277323317e+002°)
2.89087954149185e+004	(-7.63431001960545e-001dB,1.20754668127387e+002°)
2.95821677633641e+004	(-7.18185721207004e-001dB,1.17479876734396e+002°)
3.02712249687241e+004	(-6.67455770871109e-001dB,1.14281376144417e+002°)
3.09763323782495e+004	(-6.13434852286813e-001dB,1.11148691660077e+002°)
3.16978638492222e+004	(-5.58052646540186e-001dB,1.08074560699478e+002°)
3.24362019471785e+004	(-5.02980504441642e-001dB,1.05054265336164e+002°)
3.31917381487511e+004	(-4.49640465333206e-001dB,1.02085090939257e+002°)
3.39648730492348e+004	(-3.99216494300023e-001dB,9.91658786247800e+001°)
3.47560165749874e+004	(-3.52667483418710e-001dB,9.62966495985688e+001°)
3.55655882007784e+004	(-3.10741838972173e-001dB,9.34782868308848e+001°)
3.63940171721996e+004	(-2.73993538800449e-001dB,9.07122645787389e+001°)
3.72417427332572e+004	(-2.42799495807938e-001dB,8.80004196143617e+001°)
3.81092143592648e+004	(-2.17377971689143e-001dB,8.53447600580735e+001°)
3.89968919951608e+004	(-1.97807691718764e-001dB,8.27473088020619e+001°)
3.99052462993775e+004	(-1.84047242440132e-001dB,8.02099789418659e+001°)
4.08347588933904e+004	(-1.75954301817526e-001dB,7.77344786500070e+001°)
4.17859226170806e+004	(-1.73304258644261e-001dB,7.53222427301302e+001°)
4.27592417900445e+004	(-1.75807820454184e-001dB,7.29743878320071e+001°)
4.37552324789909e+004	(-1.83127278292436e-001dB,7.06916880931386e+001°)
4.47744227713666e+004	(-1.94891181971091e-001dB,6.84745678637002e+001°)
4.58173530553553e+004	(-2.10707270455868e-001dB,6.63231081939415e+001°)
4.68845763063983e+004	(-2.30173589877996e-001dB,6.42370639146380e+001°)
4.79766583803896e+004	(-2.52887809686503e-001dB,6.22158884010765e+001°)
4.90941783137004e+004	(-2.78454811510252e-001dB,6.02587634486816e+001°)
5.02377286301914e+004	(-3.06492673573013e-001dB,5.83646320705045e+001°)
5.14079156553771e+004	(-3.36637206085445e-001dB,5.65322324225091e+001°)
5.26053598379074e+004	(-3.68545211350916e-001dB,5.47601314465681e+001°)
5.38306960785381e+004	(-4.01896648611964e-001dB,5.30467571747444e+001°)
5.50845740667631e+004	(-4.36395880506975e-001dB,5.13904289500764e+001°)
5.63676586252889e+004	(-4.71772167986627e-001dB,4.97893850829365e+001°)
5.76806300625319e+004	(-5.07779565994278e-001dB,4.82418076771181e+001°)
5.90241845333275e+004	(-5.44196355122859e-001dB,4.67458445285439e+001°)
6.03990344080401e+004	(-5.80824126386041e-001dB,4.52996281264707e+001°)
6.18059086502716e+004	(-6.17486618345896e-001dB,4.39012918780395e+001°)
6.32455532033673e+004	(-6.54028388921814e-001dB,4.25489837380916e+001°)
6.47187313859254e+004	(-6.90313388768293e-001dB,4.12408774632435e+001°)
6.62262242965180e+004	(-7.26223489416270e-001dB,3.99751817277218e+001°)
6.77688312278402e+004	(-7.61657007510695e-001dB,3.87501473430600e+001°)
6.93473700905061e+004	(-7.96527256416140e-001dB,3.75640728184284e+001°)
7.09626778467148e+004	(-8.30761148083305e-001dB,3.64153084862669e+001°)
7.26156109540200e+004	(-8.64297861218227e-001dB,3.53022594015567e+001°)
7.43070458194342e+004	(-8.97087586285367e-001dB,3.42233872043773e+001°)
7.60378792641119e+004	(-9.29090353524725e-001dB,3.31772111158028e+001°)
7.78090289988558e+004	(-9.60274946789168e-001dB,3.21623082176661e+001°)
7.96214341106991e+004	(-9.90617903448664e-001dB,3.11773131479711e+001°)
8.14760555608222e+004	(-1.02010259871440e+000dB,3.02209173261820e+001°)
8.33738766940667e+004	(-1.04871841138048e+000dB,2.92918678065217e+001°)
8.53159037603182e+004	(-1.07645996705268e+000dB,2.83889658428805e+001°)
8.73031664480328e+004	(-1.10332645434262e+000dB,2.75110652359887e+001°)
8.93367184301922e+004	(-1.12932100917261e+000dB,2.66570705220951e+001°)
9.14176379229746e+004	(-1.15445016220069e+000dB,2.58259350524357e+001°)
9.35470282574392e+004	(-1.17872334438517e+000dB,2.50166590041401e+001°)
9.57260184645272e+004	(-1.20215244582534e+000dB,2.42282873558188e+001°)
9.79557638736888e+004	(-1.22475142320343e+000dB,2.34599078547322e+001°)
1.00237446725454e+005	(-1.24653595139425e+000dB,2.27106489970667e+001°)
1.02572276798272e+005	(-1.26752311507665e+000dB,2.19796780383136e+001°)
1.04961492049954e+005	(-1.28773113646782e+000dB,2.12661990469321e+001°)
1.07406359274050e+005	(-1.30717913559052e+000dB,2.05694510113110e+001°)
1.09908174771524e+005	(-1.32588691977098e+000dB,1.98887060074025e+001°)
1.12468265038069e+005	(-1.34387479934394e+000dB,1.92232674322388e+001°)
1.15087987467431e+005	(-1.36116342680718e+000dB,1.85724683067587e+001°)
1.17768731071117e+005	(-1.37777365692053e+000dB,1.79356696499302e+001°)
1.20511917214871e+005	(-1.39372642547816e+000dB,1.73122589249903e+001°)
1.23319000372296e+005	(-1.40904264470304e+000dB,1.67016485576922e+001°)
1.26191468896038e+005	(-1.42374311341367e+000dB,1.61032745257205e+001°)
1.29130845806930e+005	(-1.43784844029788e+000dB,1.55165950178620e+001°)
1.32138689601519e+005	(-1.45137897879884e+000dB,1.49410891610888e+001°)
1.35216595078396e+005	(-1.46435477227155e+000dB,1.43762558133837e+001°)
1.38366194183787e+005	(-1.47679550820882e+000dB,1.38216124199129e+001°)
1.41589156876827e+005	(-1.48872048046203e+000dB,1.32766939299876e+001°)
1.44887192014997e+005	(-1.50014855849655e+000dB,1.27410517721643e+001°)
1.48262048260183e+005	(-1.51109816282489e+000dB,1.22142528847855e+001°)
1.51715515005836e+005	(-1.52158724585368e+000dB,1.16958787992533e+001°)
1.55249423325738e+005	(-1.53163327746353e+000dB,1.11855247733483e+001°)
1.58865646944855e+005	(-1.54125323471651e+000dB,1.06827989719565e+001°)
1.62566103232819e+005	(-1.55046359515238e+000dB,1.01873216926261e+001°)
1.66352754220533e+005	(-1.55928033319513e+000dB,9.69872463345558e+000°)
1.70227607640474e+005	(-1.56771891924522e+000dB,9.21665020090152e+000°)
1.74192717991215e+005	(-1.57579432108120e+000dB,8.74075085518893e+000°)
1.78250187626748e+005	(-1.58352100723657e+000dB,8.27068849110378e+000°)
1.82402167871181e+005	(-1.59091295205706e+000dB,7.80613385204991e+000°)
1.86650860159397e+005	(-1.59798364217722e+000dB,7.34676597535170e+000°)
1.90998517204286e+005	(-1.60474608418538e+000dB,6.89227166688751e+000°)
1.95447444191161e+005	(-1.61121281327429e+000dB,6.44234500323452e+000°)
1.99999999999999e+005	(-1.61739590269769e+000dB,5.99668685960630e+000°)
2.04658598456150e+005	(-1.62330697387547e+000dB,5.55500446195605e+000°)
2.09425709610179e+005	(-1.62895720700911e+000dB,5.11701096171076e+000°)
2.14303861047520e+005	(-1.63435735208561e+000dB,4.68242503168873e+000°)
2.19295639228636e+005	(-1.63951774016424e+000dB,4.25097048183635e+000°)
2.24403690860391e+005	(-1.64444829485269e+000dB,3.82237589350108e+000°)
2.29630724299375e+005	(-1.64915854389228e+000dB,3.39637427103262e+000°)
2.34979510987905e+005	(-1.65365763078168e+000dB,2.97270270957689e+000°)
2.40452886923481e+005	(-1.65795432637803e+000dB,2.55110207799725e+000°)
2.46053754162475e+005	(-1.66205704042339e+000dB,2.13131671592066e+000°)
2.51785082358832e+005	(-1.66597383295024e+000dB,1.71309414396896e+000°)
2.57649910338625e+005	(-1.66971242552833e+000dB,1.29618478629287e+000°)
2.63651347711280e+005	(-1.67328021231845e+000dB,8.80341704581696e-001°)
2.69792576518329e+005	(-1.67668427090576e+000dB,4.65320342771579e-001°)
2.76076852920575e+005	(-1.67993137288863e+000dB,5.08782817256958e-002°)
2.82507508924549e+005	(-1.68302799420258e+000dB,-3.63224996796350e-001°)
2.89087954149184e+005	(-1.68598032516315e+000dB,-7.77228337519616e-001°)
2.95821677633640e+005	(-1.68879428021375e+000dB,-1.19136913098352e+000°)
3.02712249687240e+005	(-1.69147550736691e+000dB,-1.60588352538245e+000°)
3.09763323782495e+005	(-1.69402939733008e+000dB,-2.02100663144217e+000°)
3.16978638492221e+005	(-1.69646109230863e+000dB,-2.43697272082547e+000°)
3.24362019471784e+005	(-1.69877549447987e+000dB,-2.85401541852693e+000°)
3.31917381487510e+005	(-1.70097727413398e+000dB,-3.27236788968948e+000°)
3.39648730492347e+005	(-1.70307087747815e+000dB,-3.69226302124540e+000°)
3.47560165749873e+005	(-1.70506053410095e+000dB,-4.11393359876163e+000°)
3.55655882007783e+005	(-1.70695026409551e+000dB,-4.53761247884034e+000°)
3.63940171721995e+005	(-1.70874388483915e+000dB,-4.96353275740708e+000°)
3.72417427332571e+005	(-1.71044501742853e+000dB,-5.39192793419433e+000°)
3.81092143592647e+005	(-1.71205709276917e+000dB,-5.82303207370845e+000°)
3.89968919951607e+005	(-1.71358335731758e+000dB,-6.25707996294971e+000°)
3.99052462993774e+005	(-1.71502687847523e+000dB,-6.69430726613493e+000°)
4.08347588933903e+005	(-1.71639054963226e+000dB,-7.13495067665721e+000°)
4.17859226170805e+005	(-1.71767709485897e+000dB,-7.57924806649911e+000°)
4.27592417900444e+005	(-1.71888907324245e+000dB,-8.02743863330118e+000°)
4.37552324789908e+005	(-1.72002888286513e+000dB,-8.47976304527294e+000°)
4.47744227713665e+005	(-1.72109876442120e+000dB,-8.93646358411822e+000°)
4.58173530553552e+005	(-1.72210080446610e+000dB,-9.39778428613644e+000°)
4.68845763063981e+005	(-1.72303693829298e+000dB,-9.86397108164423e+000°)
4.79766583803895e+005	(-1.72390895242916e+000dB,-1.03352719328547e+001°)
4.90941783137003e+005	(-1.72471848674477e+000dB,-1.08119369703354e+001°)
5.00000000000000e+005	(-1.72531775488898e+000dB,-1.11943972602877e+001°)
