Freq.	V(vo)
1.00000000000000e+001	(-4.00038222323604e+001dB,-1.72897389325130e-002°)
1.02329299228075e+001	(-4.00038229885826e+001dB,-1.76924688359401e-002°)
1.04712854805090e+001	(-4.00038237804445e+001dB,-1.81045795344793e-002°)
1.07151930523761e+001	(-4.00038246096258e+001dB,-1.85262895356746e-002°)
1.09647819614319e+001	(-4.00038254780057e+001dB,-1.89578224378019e-002°)
1.12201845430196e+001	(-4.00038263871851e+001dB,-1.93994070445211e-002°)
1.14815362149688e+001	(-4.00038273392129e+001dB,-1.98512774920231e-002°)
1.17489755493953e+001	(-4.00038283361085e+001dB,-2.03136733693133e-002°)
1.20226443461741e+001	(-4.00038293799864e+001dB,-2.07868398462235e-002°)
1.23026877081238e+001	(-4.00038304730608e+001dB,-2.12710278033820e-002°)
1.25892541179417e+001	(-4.00038316177107e+001dB,-2.17664939658406e-002°)
1.28824955169313e+001	(-4.00038328162432e+001dB,-2.22735010369257e-002°)
1.31825673855641e+001	(-4.00038340713213e+001dB,-2.27923178415064e-002°)
1.34896288259165e+001	(-4.00038353854865e+001dB,-2.33232194639467e-002°)
1.38038426460288e+001	(-4.00038367616468e+001dB,-2.38664873986294e-002°)
1.41253754462275e+001	(-4.00038382026006e+001dB,-2.44224096944825e-002°)
1.44543977074593e+001	(-4.00038397115250e+001dB,-2.49912811125453e-002°)
1.47910838816821e+001	(-4.00038412914999e+001dB,-2.55734032773378e-002°)
1.51356124843621e+001	(-4.00038429460575e+001dB,-2.61690848425230e-002°)
1.54881661891248e+001	(-4.00038446784662e+001dB,-2.67786416466822e-002°)
1.58489319246111e+001	(-4.00038464925211e+001dB,-2.74023968894742e-002°)
1.62181009735893e+001	(-4.00038483921303e+001dB,-2.80406812983435e-002°)
1.65958690743756e+001	(-4.00038503812027e+001dB,-2.86938333024198e-002°)
1.69824365246174e+001	(-4.00038524640778e+001dB,-2.93621992169789e-002°)
1.73780082874937e+001	(-4.00038546451736e+001dB,-3.00461334227748e-002°)
1.77827941003892e+001	(-4.00038569289358e+001dB,-3.07459985530188e-002°)
1.81970085860998e+001	(-4.00038593203289e+001dB,-3.14621656918568e-002°)
1.86208713666287e+001	(-4.00038618244856e+001dB,-3.21950145666669e-002°)
1.90546071796325e+001	(-4.00038644467177e+001dB,-3.29449337492722e-002°)
1.94984459975804e+001	(-4.00038671924065e+001dB,-3.37123208602313e-002°)
1.99526231496888e+001	(-4.00038700675565e+001dB,-3.44975827873182e-002°)
2.04173794466953e+001	(-4.00038730781460e+001dB,-3.53011358919625e-002°)
2.08929613085404e+001	(-4.00038762307416e+001dB,-3.61234062387548e-002°)
2.13796208950223e+001	(-4.00038795318497e+001dB,-3.69648298115388e-002°)
2.18776162394955e+001	(-4.00038829885927e+001dB,-3.78258527545956e-002°)
2.23872113856834e+001	(-4.00038866081824e+001dB,-3.87069316008654e-002°)
2.29086765276777e+001	(-4.00038903983566e+001dB,-3.96085335207101e-002°)
2.34422881531992e+001	(-4.00038943672152e+001dB,-4.05311365668797e-002°)
2.39883291901949e+001	(-4.00038985230561e+001dB,-4.14752299248715e-002°)
2.45470891568503e+001	(-4.00039028747547e+001dB,-4.24413141784928e-002°)
2.51188643150958e+001	(-4.00039074316020e+001dB,-4.34299015723567e-002°)
2.57039578276886e+001	(-4.00039122032033e+001dB,-4.44415162812934e-002°)
2.63026799189538e+001	(-4.00039171996801e+001dB,-4.54766946915888e-002°)
2.69153480392691e+001	(-4.00039224315704e+001dB,-4.65359856831253e-002°)
2.75422870333816e+001	(-4.00039279100924e+001dB,-4.76199509253422e-002°)
2.81838293126445e+001	(-4.00039336468066e+001dB,-4.87291651679225e-002°)
2.88403150312660e+001	(-4.00039396538816e+001dB,-4.98642165504143e-002°)
2.95120922666638e+001	(-4.00039459440596e+001dB,-5.10257069129027e-002°)
3.01995172040201e+001	(-4.00039525307433e+001dB,-5.22142521166586e-002°)
3.09029543251359e+001	(-4.00039594277838e+001dB,-5.34304823653496e-002°)
3.16227766016838e+001	(-4.00039666499313e+001dB,-5.46750425486945e-002°)
3.23593656929628e+001	(-4.00039742123849e+001dB,-5.59485925736992e-002°)
3.31131121482591e+001	(-4.00039821313067e+001dB,-5.72518077257204e-002°)
3.38844156139202e+001	(-4.00039904234339e+001dB,-5.85853790168290e-002°)
3.46736850452531e+001	(-4.00039991064160e+001dB,-5.99500135595268e-002°)
3.54813389233575e+001	(-4.00040081984908e+001dB,-6.13464349326964e-002°)
3.63078054770101e+001	(-4.00040177190650e+001dB,-6.27753835792648e-002°)
3.71535229097172e+001	(-4.00040276885145e+001dB,-6.42376171932850e-002°)
3.80189396320561e+001	(-4.00040381276857e+001dB,-6.57339111067905e-002°)
3.89045144994280e+001	(-4.00040490589032e+001dB,-6.72650587273684e-002°)
3.98107170553497e+001	(-4.00040605052945e+001dB,-6.88318719392498e-002°)
4.07380277804112e+001	(-4.00040724911403e+001dB,-7.04351815423660e-002°)
4.16869383470335e+001	(-4.00040850419256e+001dB,-7.20758376933096e-002°)
4.26579518801592e+001	(-4.00040981841537e+001dB,-7.37547103489688e-002°)
4.36515832240165e+001	(-4.00041119458230e+001dB,-7.54726897410187e-002°)
4.46683592150962e+001	(-4.00041263560659e+001dB,-7.72306868353723e-002°)
4.57088189614874e+001	(-4.00041414454505e+001dB,-7.90296338227294e-002°)
4.67735141287197e+001	(-4.00041572460461e+001dB,-8.08704846137195e-002°)
4.78630092322638e+001	(-4.00041737912503e+001dB,-8.27542153365971e-002°)
4.89778819368445e+001	(-4.00041911162810e+001dB,-8.46818248697901e-002°)
5.01187233627271e+001	(-4.00042092578905e+001dB,-8.66543353596582e-002°)
5.12861383991364e+001	(-4.00042282544426e+001dB,-8.86727927623865e-002°)
5.24807460249772e+001	(-4.00042481463562e+001dB,-9.07382674124886e-002°)
5.37031796370252e+001	(-4.00042689757691e+001dB,-9.28518545753880e-002°)
5.49540873857624e+001	(-4.00042907869285e+001dB,-9.50146750400343e-002°)
5.62341325190348e+001	(-4.00043136260441e+001dB,-9.72278757043047e-002°)
5.75439937337156e+001	(-4.00043375415670e+001dB,-9.94926301910722e-002°)
5.88843655355588e+001	(-4.00043625842921e+001dB,-1.01810139471356e-001°)
6.02559586074357e+001	(-4.00043888072857e+001dB,-1.04181632494132e-001°)
6.16595001861481e+001	(-4.00044162661787e+001dB,-1.06608366846558e-001°)
6.30957344480192e+001	(-4.00044450192842e+001dB,-1.09091629421864e-001°)
6.45654229034654e+001	(-4.00044751276018e+001dB,-1.11632737097225e-001°)
6.60693448007595e+001	(-4.00045066548255e+001dB,-1.14233037426810e-001°)
6.76082975391980e+001	(-4.00045396682026e+001dB,-1.16893909392659e-001°)
6.91830970918935e+001	(-4.00045742374713e+001dB,-1.19616764078269e-001°)
7.07945784384136e+001	(-4.00046104360325e+001dB,-1.22403045467952e-001°)
7.24435960074988e+001	(-4.00046483407450e+001dB,-1.25254231196612e-001°)
7.41310241300916e+001	(-4.00046880320279e+001dB,-1.28171833331276e-001°)
7.58577575029182e+001	(-4.00047295940914e+001dB,-1.31157399177539e-001°)
7.76247116628690e+001	(-4.00047731149959e+001dB,-1.34212512094690e-001°)
7.94328234724279e+001	(-4.00048186872597e+001dB,-1.37338792360916e-001°)
8.12830516164097e+001	(-4.00048664074538e+001dB,-1.40537898000249e-001°)
8.31763771102669e+001	(-4.00049163769489e+001dB,-1.43811525695069e-001°)
8.51138038202374e+001	(-4.00049687016484e+001dB,-1.47161411659122e-001°)
8.70963589956078e+001	(-4.00050234926358e+001dB,-1.50589332586275e-001°)
8.91250938133743e+001	(-4.00050808661687e+001dB,-1.54097106580081e-001°)
9.12010839355907e+001	(-4.00051409439868e+001dB,-1.57686594124364e-001°)
9.33254300796988e+001	(-4.00052038535701e+001dB,-1.61359699072670e-001°)
9.54992586021433e+001	(-4.00052697283497e+001dB,-1.65118369656442e-001°)
9.77237220955808e+001	(-4.00053387082320e+001dB,-1.68964599538404e-001°)
9.99999999999997e+001	(-4.00054109395347e+001dB,-1.72900428848075e-001°)
1.02329299228075e+002	(-4.00054865755385e+001dB,-1.76927945283829e-001°)
1.04712854805090e+002	(-4.00055657768131e+001dB,-1.81049285224760e-001°)
1.07151930523760e+002	(-4.00056487113773e+001dB,-1.85266634853901e-001°)
1.09647819614318e+002	(-4.00057355552373e+001dB,-1.89582231335787e-001°)
1.12201845430196e+002	(-4.00058264927004e+001dB,-1.93998364003252e-001°)
1.14815362149688e+002	(-4.00059217167668e+001dB,-1.98517375576837e-001°)
1.17489755493953e+002	(-4.00060214296603e+001dB,-2.03141663423094e-001°)
1.20226443461741e+002	(-4.00061258428972e+001dB,-2.07873680801265e-001°)
1.23026877081238e+002	(-4.00062351782176e+001dB,-2.12715938211984e-001°)
1.25892541179416e+002	(-4.00063496675148e+001dB,-2.17671004687777e-001°)
1.28824955169313e+002	(-4.00064695539318e+001dB,-2.22741509217037e-001°)
1.31825673855640e+002	(-4.00065950919557e+001dB,-2.27930142108504e-001°)
1.34896288259165e+002	(-4.00067265481409e+001dB,-2.33239656443116e-001°)
1.38038426460288e+002	(-4.00068642014951e+001dB,-2.38672869525575e-001°)
1.41253754462275e+002	(-4.00070083442535e+001dB,-2.44232664406018e-001°)
1.44543977074592e+002	(-4.00071592823812e+001dB,-2.49921991407090e-001°)
1.47910838816820e+002	(-4.00073173365254e+001dB,-2.55743869732429e-001°)
1.51356124843620e+002	(-4.00074828421560e+001dB,-2.61701389022115e-001°)
1.54881661891248e+002	(-4.00076561507618e+001dB,-2.67797711055907e-001°)
1.58489319246111e+002	(-4.00078376303588e+001dB,-2.74036071418197e-001°)
1.62181009735892e+002	(-4.00080276663341e+001dB,-2.80419781235250e-001°)
1.65958690743755e+002	(-4.00082266622673e+001dB,-2.86952228947753e-001°)
1.69824365246174e+002	(-4.00084350407908e+001dB,-2.93636882124753e-001°)
1.73780082874937e+002	(-4.00086532444909e+001dB,-3.00477289321347e-001°)
1.77827941003892e+002	(-4.00088817369118e+001dB,-3.07477081988696e-001°)
1.81970085860998e+002	(-4.00091210034241e+001dB,-3.14639976406122e-001°)
1.86208713666286e+002	(-4.00093715522600e+001dB,-3.21969775673319e-001°)
1.90546071796324e+002	(-4.00096339158995e+001dB,-3.29470371794439e-001°)
1.94984459975804e+002	(-4.00099086515446e+001dB,-3.37145747676206e-001°)
1.99526231496887e+002	(-4.00101963431523e+001dB,-3.44999979386208e-001°)
2.04173794466952e+002	(-4.00104976021404e+001dB,-3.53037238270552e-001°)
2.08929613085403e+002	(-4.00108130685727e+001dB,-3.61261793177528e-001°)
2.13796208950222e+002	(-4.00111434132512e+001dB,-3.69678012867025e-001°)
2.18776162394954e+002	(-4.00114893380049e+001dB,-3.78290368188350e-001°)
2.23872113856833e+002	(-4.00118515785777e+001dB,-3.87103434708432e-001°)
2.29086765276776e+002	(-4.00122309048771e+001dB,-3.96121894971274e-001°)
2.34422881531991e+002	(-4.00126281237072e+001dB,-4.05350541203221e-001°)
2.39883291901948e+002	(-4.00130440796535e+001dB,-4.14794277764719e-001°)
2.45470891568502e+002	(-4.00134796574342e+001dB,-4.24458123895223e-001°)
2.51188643150957e+002	(-4.00139357834974e+001dB,-4.34347216380396e-001°)
2.57039578276885e+002	(-4.00144134283682e+001dB,-4.44466812403084e-001°)
2.63026799189537e+002	(-4.00149136081301e+001dB,-4.54822292285831e-001°)
2.69153480392690e+002	(-4.00154373873300e+001dB,-4.65419162550136e-001°)
2.75422870333816e+002	(-4.00159858806623e+001dB,-4.76263058798119e-001°)
2.81838293126444e+002	(-4.00165602557880e+001dB,-4.87359748864696e-001°)
2.88403150312659e+002	(-4.00171617354240e+001dB,-4.98715135877343e-001°)
2.95120922666637e+002	(-4.00177916005186e+001dB,-5.10335261592933e-001°)
3.01995172040200e+002	(-4.00184511924675e+001dB,-5.22226309587834e-001°)
3.09029543251358e+002	(-4.00191419163077e+001dB,-5.34394608707591e-001°)
3.16227766016837e+002	(-4.00198652438088e+001dB,-5.46846636553763e-001°)
3.23593656929627e+002	(-4.00206227164094e+001dB,-5.59589022988386e-001°)
3.31131121482590e+002	(-4.00214159486688e+001dB,-5.72628553808059e-001°)
3.38844156139201e+002	(-4.00222466317591e+001dB,-5.85972174485092e-001°)
3.46736850452530e+002	(-4.00231165373673e+001dB,-5.99626994064871e-001°)
3.54813389233574e+002	(-4.00240275207502e+001dB,-6.13600288900268e-001°)
3.63078054770100e+002	(-4.00249815259048e+001dB,-6.27899506977544e-001°)
3.71535229097171e+002	(-4.00259805889444e+001dB,-6.42532271839908e-001°)
3.80189396320559e+002	(-4.00270268425249e+001dB,-6.57506386825808e-001°)
3.89045144994279e+002	(-4.00281225212091e+001dB,-6.72829839622073e-001°)
3.98107170553495e+002	(-4.00292699654311e+001dB,-6.88510806482976e-001°)
4.07380277804111e+002	(-4.00304716272648e+001dB,-7.04557656999921e-001°)
4.16869383470333e+002	(-4.00317300754189e+001dB,-7.20978958703888e-001°)
4.26579518801591e+002	(-4.00330480010361e+001dB,-7.37783481948313e-001°)
4.36515832240164e+002	(-4.00344282235885e+001dB,-7.54980204869485e-001°)
4.46683592150961e+002	(-4.00358736968811e+001dB,-7.72578318419984e-001°)
4.57088189614873e+002	(-4.00373875157847e+001dB,-7.90587231673975e-001°)
4.67735141287196e+002	(-4.00389729228046e+001dB,-8.09016577116694e-001°)
4.78630092322636e+002	(-4.00406333155318e+001dB,-8.27876216263486e-001°)
4.89778819368444e+002	(-4.00423722537236e+001dB,-8.47176245180672e-001°)
5.01187233627270e+002	(-4.00441934676042e+001dB,-8.66927000454795e-001°)
5.12861383991362e+002	(-4.00461008660137e+001dB,-8.87139065140173e-001°)
5.24807460249770e+002	(-4.00480985447297e+001dB,-9.07823274774360e-001°)
5.37031796370250e+002	(-4.00501907962516e+001dB,-9.28990723954058e-001°)
5.49540873857622e+002	(-4.00523821188958e+001dB,-9.50652772662774e-001°)
5.62341325190346e+002	(-4.00546772269170e+001dB,-9.72821052983262e-001°)
5.75439937337154e+002	(-4.00570810610190e+001dB,-9.95507475955490e-001°)
5.88843655355586e+002	(-4.00595988000058e+001dB,-1.01872423889566e+000°)
6.02559586074355e+002	(-4.00622358716079e+001dB,-1.04248383233720e+000°)
6.16595001861479e+002	(-4.00649979653561e+001dB,-1.06679904779665e+000°)
6.30957344480190e+002	(-4.00678910454202e+001dB,-1.09168298549631e+000°)
6.45654229034652e+002	(-4.00709213638083e+001dB,-1.11714906216941e+000°)
6.60693448007592e+002	(-4.00740954751134e+001dB,-1.14321101950132e+000°)
6.76082975391978e+002	(-4.00774202510337e+001dB,-1.16988293237440e+000°)
6.91830970918933e+002	(-4.00809028967016e+001dB,-1.19717921786932e+000°)
7.07945784384134e+002	(-4.00845509668100e+001dB,-1.22511464404440e+000°)
7.24435960074986e+002	(-4.00883723831571e+001dB,-1.25370433925939e+000°)
7.41310241300914e+002	(-4.00923754534777e+001dB,-1.28296380200510e+000°)
7.58577575029180e+002	(-4.00965688905240e+001dB,-1.31290891067349e+000°)
7.76247116628688e+002	(-4.01009618320583e+001dB,-1.34355593356202e+000°)
7.94328234724277e+002	(-4.01055638633374e+001dB,-1.37492154001281e+000°)
8.12830516164095e+002	(-4.01103850389944e+001dB,-1.40702281092959e+000°)
8.31763771102666e+002	(-4.01154359071230e+001dB,-1.43987725021114e+000°)
8.51138038202372e+002	(-4.01207275347248e+001dB,-1.47350279663223e+000°)
8.70963589956076e+002	(-4.01262715339321e+001dB,-1.50791783577602e+000°)
8.91250938133741e+002	(-4.01320800906440e+001dB,-1.54314121293639e+000°)
9.12010839355905e+002	(-4.01381659930965e+001dB,-1.57919224571972e+000°)
9.33254300796986e+002	(-4.01445426644270e+001dB,-1.61609073809996e+000°)
9.54992586021431e+002	(-4.01512241947241e+001dB,-1.65385699404367e+000°)
9.77237220955805e+002	(-4.01582253763952e+001dB,-1.69251183235963e+000°)
9.99999999999994e+002	(-4.01655617410709e+001dB,-1.73207660187381e+000°)
1.02329299228075e+003	(-4.01732495982544e+001dB,-1.77257319691410e+000°)
1.04712854805089e+003	(-4.01813060771718e+001dB,-1.81402407416055e+000°)
1.07151930523760e+003	(-4.01897491699047e+001dB,-1.85645226924795e+000°)
1.09647819614318e+003	(-4.01985977783662e+001dB,-1.89988141512670e+000°)
1.12201845430196e+003	(-4.02078717627321e+001dB,-1.94433576014052e+000°)
1.14815362149688e+003	(-4.02175919939411e+001dB,-1.98984018779888e+000°)
1.17489755493952e+003	(-4.02277804083101e+001dB,-2.03642023656838e+000°)
1.20226443461741e+003	(-4.02384600666358e+001dB,-2.08410212149220e+000°)
1.23026877081237e+003	(-4.02496552162479e+001dB,-2.13291275624889e+000°)
1.25892541179416e+003	(-4.02613913565793e+001dB,-2.18287977589564e+000°)
1.28824955169313e+003	(-4.02736953102080e+001dB,-2.23403156189827e+000°)
1.31825673855640e+003	(-4.02865952971561e+001dB,-2.28639726726414e+000°)
1.34896288259165e+003	(-4.03001210139534e+001dB,-2.34000684283919e+000°)
1.38038426460288e+003	(-4.03143037197604e+001dB,-2.39489106680366e+000°)
1.41253754462275e+003	(-4.03291763249402e+001dB,-2.45108157254973e+000°)
1.44543977074592e+003	(-4.03447734893389e+001dB,-2.50861088179568e+000°)
1.47910838816820e+003	(-4.03611317238778e+001dB,-2.56751243616878e+000°)
1.51356124843620e+003	(-4.03782895010160e+001dB,-2.62782063244945e+000°)
1.54881661891247e+003	(-4.03962873724961e+001dB,-2.68957085945921e+000°)
1.58489319246110e+003	(-4.04151680955790e+001dB,-2.75279953735497e+000°)
1.62181009735892e+003	(-4.04349767674109e+001dB,-2.81754415825821e+000°)
1.65958690743755e+003	(-4.04557609703668e+001dB,-2.88384333080601e+000°)
1.69824365246173e+003	(-4.04775709272984e+001dB,-2.95173682663295e+000°)
1.73780082874936e+003	(-4.05004596681316e+001dB,-3.02126562952427e+000°)
1.77827941003891e+003	(-4.05244832107056e+001dB,-3.09247198988088e+000°)
1.81970085860997e+003	(-4.05497007530510e+001dB,-3.16539947978113e+000°)
1.86208713666286e+003	(-4.05761748828267e+001dB,-3.24009305456323e+000°)
1.90546071796323e+003	(-4.06039718022710e+001dB,-3.31659911740051e+000°)
1.94984459975803e+003	(-4.06331615719974e+001dB,-3.39496558951886e+000°)
1.99526231496887e+003	(-4.06638183742902e+001dB,-3.47524198477529e+000°)
2.04173794466952e+003	(-4.06960207982634e+001dB,-3.55747949099743e+000°)
2.08929613085403e+003	(-4.07298521503733e+001dB,-3.64173105690166e+000°)
2.13796208950222e+003	(-4.07654007907351e+001dB,-3.72805148711364e+000°)
2.18776162394954e+003	(-4.08027604998508e+001dB,-3.81649754500534e+000°)
2.23872113856832e+003	(-4.08420308771296e+001dB,-3.90712806283196e+000°)
2.29086765276776e+003	(-4.08833177779733e+001dB,-4.00000406494931e+000°)
2.34422881531991e+003	(-4.09267337901011e+001dB,-4.09518889966894e+000°)
2.39883291901947e+003	(-4.09723987549302e+001dB,-4.19274838354795e+000°)
2.45470891568501e+003	(-4.10204403423208e+001dB,-4.29275096280002e+000°)
2.51188643150956e+003	(-4.10709946791641e+001dB,-4.39526788674769e+000°)
2.57039578276885e+003	(-4.11242070440569e+001dB,-4.50037340240420e+000°)
2.63026799189536e+003	(-4.11802326330960e+001dB,-4.60814496827990e+000°)
2.69153480392690e+003	(-4.12392374071290e+001dB,-4.71866349208850e+000°)
2.75422870333815e+003	(-4.13013990311479e+001dB,-4.83201359585104e+000°)
2.81838293126443e+003	(-4.13669079173725e+001dB,-4.94828391076241e+000°)
2.88403150312659e+003	(-4.14359683879465e+001dB,-5.06756740972631e+000°)
2.95120922666636e+003	(-4.15087999720250e+001dB,-5.18996177903724e+000°)
3.01995172040199e+003	(-4.15856388584421e+001dB,-5.31556984033615e+000°)
3.09029543251357e+003	(-4.16667395262735e+001dB,-5.44450002683072e+000°)
3.16227766016836e+003	(-4.17523765799633e+001dB,-5.57686692621207e+000°)
3.23593656929626e+003	(-4.18428468219825e+001dB,-5.71279190092754e+000°)
3.31131121482589e+003	(-4.19384715993241e+001dB,-5.85240379970624e+000°)
3.38844156139200e+003	(-4.20395994723748e+001dB,-5.99583977863470e+000°)
3.46736850452529e+003	(-4.21466092557091e+001dB,-6.14324624977720e+000°)
3.54813389233573e+003	(-4.22599135008966e+001dB,-6.29477998967767e+000°)
3.63078054770099e+003	(-4.23799624981438e+001dB,-6.45060943382844e+000°)
3.71535229097170e+003	(-4.25072488925102e+001dB,-6.61091619939403e+000°)
3.80189396320558e+003	(-4.26423130348689e+001dB,-6.77589689103954e+000°)
3.89045144994278e+003	(-4.27857492116295e+001dB,-6.94576524896269e+000°)
3.98107170553494e+003	(-4.29382129333244e+001dB,-7.12075472586186e+000°)
4.07380277804110e+003	(-4.31004295070312e+001dB,-7.30112159516260e+000°)
4.16869383470332e+003	(-4.32732041760100e+001dB,-7.48714873474894e+000°)
4.26579518801589e+003	(-4.34574341849013e+001dB,-7.67915025904420e+000°)
4.36515832240162e+003	(-4.36541232270737e+001dB,-7.87747724432932e+000°)
4.46683592150960e+003	(-4.38643988675301e+001dB,-8.08252486775186e+000°)
4.57088189614871e+003	(-4.40895337071230e+001dB,-8.29474138649698e+000°)
4.67735141287194e+003	(-4.43309713043820e+001dB,-8.51463955690525e+000°)
4.78630092322634e+003	(-4.45903581969763e+001dB,-8.74281130726246e+000°)
4.89778819368442e+003	(-4.48695838433094e+001dB,-8.97994682608515e+000°)
5.01187233627268e+003	(-4.51708309572637e+001dB,-9.22685970570547e+000°)
5.12861383991361e+003	(-4.54966396747174e+001dB,-9.48452055153395e+000°)
5.24807460249768e+003	(-4.58499903857069e+001dB,-9.75410258806713e+000°)
