Freq.	V(vo)
1.00000000000000e+001	(-3.99915914262881e+001dB,-1.62790608200603e-002°)
1.02329299228075e+001	(-3.99915921917415e+001dB,-1.66582487709465e-002°)
1.04712854805090e+001	(-3.99915929911480e+001dB,-1.70462699405271e-002°)
1.07151930523761e+001	(-3.99915938293801e+001dB,-1.74433285229674e-002°)
1.09647819614319e+001	(-3.99915947069040e+001dB,-1.78496355189935e-002°)
1.12201845430196e+001	(-3.99915956260046e+001dB,-1.82654071149321e-002°)
1.14815362149688e+001	(-3.99915965885212e+001dB,-1.86908628832951e-002°)
1.17489755493953e+001	(-3.99915975961356e+001dB,-1.91262301486810e-002°)
1.20226443461741e+001	(-3.99915986515013e+001dB,-1.95717373318807e-002°)
1.23026877081238e+001	(-3.99915997555620e+001dB,-2.00276213898457e-002°)
1.25892541179417e+001	(-3.99916009125374e+001dB,-2.04941247312370e-002°)
1.28824955169313e+001	(-3.99916021239211e+001dB,-2.09714948699871e-002°)
1.31825673855641e+001	(-3.99916033924268e+001dB,-2.14599831207928e-002°)
1.34896288259165e+001	(-3.99916047203133e+001dB,-2.19598512302200e-002°)
1.38038426460288e+001	(-3.99916061113746e+001dB,-2.24713621270816e-002°)
1.41253754462275e+001	(-3.99916075678123e+001dB,-2.29947875197753e-002°)
1.44543977074593e+001	(-3.99916090923205e+001dB,-2.35304052942741e-002°)
1.47910838816821e+001	(-3.99916106897267e+001dB,-2.40784991770202e-002°)
1.51356124843621e+001	(-3.99916123612869e+001dB,-2.46393609779714e-002°)
1.54881661891248e+001	(-3.99916141122062e+001dB,-2.52132844332559e-002°)
1.58489319246111e+001	(-3.99916159461058e+001dB,-2.58005778172148e-002°)
1.62181009735893e+001	(-3.99916178653509e+001dB,-2.64015512875929e-002°)
1.65958690743756e+001	(-3.99916198764471e+001dB,-2.70165233634309e-002°)
1.69824365246174e+001	(-3.99916219813316e+001dB,-2.76458192660031e-002°)
1.73780082874937e+001	(-3.99916241850975e+001dB,-2.82897735159687e-002°)
1.77827941003892e+001	(-3.99916264941608e+001dB,-2.89487273167364e-002°)
1.81970085860998e+001	(-3.99916289106903e+001dB,-2.96230307911807e-002°)
1.86208713666287e+001	(-3.99916314424187e+001dB,-3.03130394232614e-002°)
1.90546071796325e+001	(-3.99916340921809e+001dB,-3.10191221165727e-002°)
1.94984459975804e+001	(-3.99916368676609e+001dB,-3.17416511509143e-002°)
1.99526231496888e+001	(-3.99916397723068e+001dB,-3.24810095945483e-002°)
2.04173794466953e+001	(-3.99916428159517e+001dB,-3.32375906661034e-002°)
2.08929613085404e+001	(-3.99916460015656e+001dB,-3.40117947571003e-002°)
2.13796208950223e+001	(-3.99916493378623e+001dB,-3.48040323659199e-002°)
2.18776162394955e+001	(-3.99916528318738e+001dB,-3.56147234071378e-002°)
2.23872113856834e+001	(-3.99916564899530e+001dB,-3.64442981630992e-002°)
2.29086765276777e+001	(-3.99916603211208e+001dB,-3.72931950051169e-002°)
2.34422881531992e+001	(-3.99916643311701e+001dB,-3.81618681294744e-002°)
2.39883291901949e+001	(-3.99916685322754e+001dB,-3.90507729800250e-002°)
2.45470891568503e+001	(-3.99916729300895e+001dB,-3.99603827111912e-002°)
2.51188643150958e+001	(-3.99916775358782e+001dB,-4.08911820499321e-002°)
2.57039578276886e+001	(-3.99916823585004e+001dB,-4.18436617269014e-002°)
2.63026799189538e+001	(-3.99916874078820e+001dB,-4.28183278666959e-002°)
2.69153480392691e+001	(-3.99916926957464e+001dB,-4.38156967795728e-002°)
2.75422870333816e+001	(-3.99916982332182e+001dB,-4.48362962189293e-002°)
2.81838293126445e+001	(-3.99917040314740e+001dB,-4.58806708703502e-002°)
2.88403150312660e+001	(-3.99917101017773e+001dB,-4.69493725952148e-002°)
2.95120922666638e+001	(-3.99917164595645e+001dB,-4.80429659356889e-002°)
3.01995172040201e+001	(-3.99917231161076e+001dB,-4.91620342032077e-002°)
3.09029543251359e+001	(-3.99917300873568e+001dB,-5.03071658771338e-002°)
3.16227766016838e+001	(-3.99917373861874e+001dB,-5.14789739881857e-002°)
3.23593656929628e+001	(-3.99917450297218e+001dB,-5.26780766691800e-002°)
3.31131121482591e+001	(-3.99917530326072e+001dB,-5.39051107096787e-002°)
3.38844156139202e+001	(-3.99917614135546e+001dB,-5.51607257193317e-002°)
3.46736850452531e+001	(-3.99917701892506e+001dB,-5.64455886022203e-002°)
3.54813389233575e+001	(-3.99917793782916e+001dB,-5.77603803028993e-002°)
3.63078054770101e+001	(-3.99917890006714e+001dB,-5.91057957680386e-002°)
3.71535229097172e+001	(-3.99917990764669e+001dB,-6.04825523332061e-002°)
3.80189396320561e+001	(-3.99918096268162e+001dB,-6.18913780241742e-002°)
3.89045144994280e+001	(-3.99918206751716e+001dB,-6.33330193038673e-002°)
3.98107170553497e+001	(-3.99918322432832e+001dB,-6.48082410155521e-002°)
4.07380277804112e+001	(-3.99918443577094e+001dB,-6.63178250850653e-002°)
4.16869383470335e+001	(-3.99918570419105e+001dB,-6.78625743231597e-002°)
4.26579518801592e+001	(-3.99918703243150e+001dB,-6.94433046583025e-002°)
4.36515832240165e+001	(-3.99918842330181e+001dB,-7.10608547879158e-002°)
4.46683592150962e+001	(-3.99918987973503e+001dB,-7.27160822521176e-002°)
4.57088189614874e+001	(-3.99919140476784e+001dB,-7.44098692357408e-002°)
4.67735141287197e+001	(-3.99919300169251e+001dB,-7.61431076123211e-002°)
4.78630092322638e+001	(-3.99919467382768e+001dB,-7.79167196406852e-002°)
4.89778819368445e+001	(-3.99919642486996e+001dB,-7.97316443286887e-002°)
5.01187233627271e+001	(-3.99919825838136e+001dB,-8.15888470720866e-002°)
5.12861383991364e+001	(-3.99920017832823e+001dB,-8.34893079813941e-002°)
5.24807460249772e+001	(-3.99920218880100e+001dB,-8.54340373783317e-002°)
5.37031796370252e+001	(-3.99920429394185e+001dB,-8.74240679526559e-002°)
5.49540873857624e+001	(-3.99920649837265e+001dB,-8.94604515142225e-002°)
5.62341325190348e+001	(-3.99920880664540e+001dB,-9.15442725140456e-002°)
5.75439937337156e+001	(-3.99921122371336e+001dB,-9.36766318199076e-002°)
5.88843655355588e+001	(-3.99921375478532e+001dB,-9.58586609221482e-002°)
6.02559586074357e+001	(-3.99921640504581e+001dB,-9.80915186149521e-002°)
6.16595001861481e+001	(-3.99921918023450e+001dB,-1.00376385156850e-001°)
6.30957344480192e+001	(-3.99922208623743e+001dB,-1.02714480986417e-001°)
6.45654229034654e+001	(-3.99922512921943e+001dB,-1.05107032317169e-001°)
6.60693448007595e+001	(-3.99922831558223e+001dB,-1.07555319059776e-001°)
6.76082975391980e+001	(-3.99923165219403e+001dB,-1.10060634583542e-001°)
6.91830970918935e+001	(-3.99923514601283e+001dB,-1.12624310917901e-001°)
7.07945784384136e+001	(-3.99923880453094e+001dB,-1.15247705769694e-001°)
7.24435960074988e+001	(-3.99924263547982e+001dB,-1.17932205026347e-001°)
7.41310241300916e+001	(-3.99924664697664e+001dB,-1.20679240225390e-001°)
7.58577575029182e+001	(-3.99925084754208e+001dB,-1.23490265798328e-001°)
7.76247116628690e+001	(-3.99925524611971e+001dB,-1.26366769391839e-001°)
7.94328234724279e+001	(-3.99925985196328e+001dB,-1.29310281521773e-001°)
8.12830516164097e+001	(-3.99926467494978e+001dB,-1.32322359338804e-001°)
8.31763771102669e+001	(-3.99926972522176e+001dB,-1.35404600787579e-001°)
8.51138038202374e+001	(-3.99927501352060e+001dB,-1.38558642650233e-001°)
8.70963589956078e+001	(-3.99928055113326e+001dB,-1.41786155924260e-001°)
8.91250938133743e+001	(-3.99928634974872e+001dB,-1.45088849002570e-001°)
9.12010839355907e+001	(-3.99929242167021e+001dB,-1.48468478654797e-001°)
9.33254300796988e+001	(-3.99929877979619e+001dB,-1.51926836344200e-001°)
9.54992586021433e+001	(-3.99930543758959e+001dB,-1.55465752060472e-001°)
9.77237220955808e+001	(-3.99931240920783e+001dB,-1.59087109834236e-001°)
9.99999999999997e+001	(-3.99931970948713e+001dB,-1.62792826274967e-001°)
1.02329299228075e+002	(-3.99932735379810e+001dB,-1.66584866707432e-001°)
1.04712854805090e+002	(-3.99933535846179e+001dB,-1.70465243872145e-001°)
1.07151930523760e+002	(-3.99934374047948e+001dB,-1.74436008750615e-001°)
1.09647819614318e+002	(-3.99935251759455e+001dB,-1.78499278399376e-001°)
1.12201845430196e+002	(-3.99936170843007e+001dB,-1.82657204792067e-001°)
1.14815362149688e+002	(-3.99937133248335e+001dB,-1.86911990319906e-001°)
1.17489755493953e+002	(-3.99938141022556e+001dB,-1.91265893602241e-001°)
1.20226443461741e+002	(-3.99939196299728e+001dB,-1.95721224219556e-001°)
1.23026877081238e+002	(-3.99940301326263e+001dB,-2.00280343366354e-001°)
1.25892541179416e+002	(-3.99941458441460e+001dB,-2.04945672192297e-001°)
1.28824955169313e+002	(-3.99942670105714e+001dB,-2.09719686625877e-001°)
1.31825673855640e+002	(-3.99943938888599e+001dB,-2.14604917954232e-001°)
1.34896288259165e+002	(-3.99945267484121e+001dB,-2.19603955418103e-001°)
1.38038426460288e+002	(-3.99946658711996e+001dB,-2.24719453309439e-001°)
1.41253754462275e+002	(-3.99948115530430e+001dB,-2.29954125123352e-001°)
1.44543977074592e+002	(-3.99949641024716e+001dB,-2.35310748710751e-001°)
1.47910838816820e+002	(-3.99951238440304e+001dB,-2.40792166317237e-001°)
1.51356124843620e+002	(-3.99952911162902e+001dB,-2.46401287780850e-001°)
1.54881661891248e+002	(-3.99954662751011e+001dB,-2.52141084098871e-001°)
1.58489319246111e+002	(-3.99956496924797e+001dB,-2.58014604270891e-001°)
1.62181009735892e+002	(-3.99958417569052e+001dB,-2.64024967527826e-001°)
1.65958690743755e+002	(-3.99960428774887e+001dB,-2.70175358898803e-001°)
1.69824365246174e+002	(-3.99962534804508e+001dB,-2.76469047322532e-001°)
1.73780082874937e+002	(-3.99964740136631e+001dB,-2.82909366981992e-001°)
1.77827941003892e+002	(-3.99967049456414e+001dB,-2.89499738719531e-001°)
1.81970085860998e+002	(-3.99969467662337e+001dB,-2.96243662972277e-001°)
1.86208713666286e+002	(-3.99971999900251e+001dB,-3.03144712826694e-001°)
1.90546071796324e+002	(-3.99974651546470e+001dB,-3.10206559311283e-001°)
1.94984459975804e+002	(-3.99977428232878e+001dB,-3.17432945646640e-001°)
1.99526231496887e+002	(-3.99980335862435e+001dB,-3.24827708158252e-001°)
2.04173794466952e+002	(-3.99983380615484e+001dB,-3.32394775113774e-001°)
2.08929613085403e+002	(-3.99986568957331e+001dB,-3.40138163027111e-001°)
2.13796208950222e+002	(-3.99989907669435e+001dB,-3.48061984047200e-001°)
2.18776162394954e+002	(-3.99993403851381e+001dB,-3.56170445512191e-001°)
2.23872113856833e+002	(-3.99997064927308e+001dB,-3.64467850845898e-001°)
2.29086765276776e+002	(-4.00000898687362e+001dB,-3.72958611604880e-001°)
2.34422881531991e+002	(-4.00004913282273e+001dB,-3.81647230885445e-001°)
2.39883291901948e+002	(-4.00009117247970e+001dB,-3.90538330294386e-001°)
2.45470891568502e+002	(-4.00013519527096e+001dB,-3.99636628314611e-001°)
2.51188643150957e+002	(-4.00018129484293e+001dB,-4.08946958893811e-001°)
2.57039578276885e+002	(-4.00022956924877e+001dB,-4.18474269350312e-001°)
2.63026799189537e+002	(-4.00028012122599e+001dB,-4.28223622859223e-001°)
2.69153480392690e+002	(-4.00033305832173e+001dB,-4.38200199015591e-001°)
2.75422870333816e+002	(-4.00038849321877e+001dB,-4.48409299694304e-001°)
2.81838293126444e+002	(-4.00044654391889e+001dB,-4.58856352320388e-001°)
2.88403150312659e+002	(-4.00050733403149e+001dB,-4.69546910666674e-001°)
2.95120922666637e+002	(-4.00057099297966e+001dB,-4.80486656283661e-001°)
3.01995172040200e+002	(-4.00063765633223e+001dB,-4.91681406262375e-001°)
3.09029543251358e+002	(-4.00070746616169e+001dB,-5.03137115540140e-001°)
3.16227766016837e+002	(-4.00078057112228e+001dB,-5.14859875270508e-001°)
3.23593656929627e+002	(-4.00085712706560e+001dB,-5.26855921907911e-001°)
3.31131121482590e+002	(-4.00093729713739e+001dB,-5.39131636423875e-001°)
3.38844156139201e+002	(-4.00102125229365e+001dB,-5.51693552881222e-001°)
3.46736850452530e+002	(-4.00110917156473e+001dB,-5.64548354012148e-001°)
3.54813389233574e+002	(-4.00120124247385e+001dB,-5.77702884554802e-001°)
3.63078054770100e+002	(-4.00129766150031e+001dB,-5.91164144225644e-001°)
3.71535229097171e+002	(-4.00139863439277e+001dB,-6.04939305471415e-001°)
3.80189396320559e+002	(-4.00150437674829e+001dB,-6.19035701565402e-001°)
3.89045144994279e+002	(-4.00161511437663e+001dB,-6.33460842778809e-001°)
3.98107170553495e+002	(-4.00173108382738e+001dB,-6.48222414151732e-001°)
4.07380277804111e+002	(-4.00185253292057e+001dB,-6.63328282653939e-001°)
4.16869383470333e+002	(-4.00197972128157e+001dB,-6.78786503185024e-001°)
4.26579518801591e+002	(-4.00211292088779e+001dB,-6.94605315678981e-001°)
4.36515832240164e+002	(-4.00225241670243e+001dB,-7.10793158433114e-001°)
4.46683592150961e+002	(-4.00239850725883e+001dB,-7.27358666004392e-001°)
4.57088189614873e+002	(-4.00255150534075e+001dB,-7.44310681095599e-001°)
4.67735141287196e+002	(-4.00271173868204e+001dB,-7.61658250164894e-001°)
4.78630092322636e+002	(-4.00287955062155e+001dB,-7.79410639041122e-001°)
4.89778819368444e+002	(-4.00305530100982e+001dB,-7.97577329264454e-001°)
5.01187233627270e+002	(-4.00323936680635e+001dB,-8.16168028856221e-001°)
5.12861383991362e+002	(-4.00343214305921e+001dB,-8.35192673899946e-001°)
5.24807460249770e+002	(-4.00363404375235e+001dB,-8.54661440524904e-001°)
5.37031796370250e+002	(-4.00384550270211e+001dB,-8.74584742079742e-001°)
5.49540873857622e+002	(-4.00406697453877e+001dB,-8.94973242682483e-001°)
5.62341325190346e+002	(-4.00429893572885e+001dB,-9.15837858631202e-001°)
5.75439937337154e+002	(-4.00454188563742e+001dB,-9.37189766871582e-001°)
5.88843655355586e+002	(-4.00479634761794e+001dB,-9.59040410729130e-001°)
6.02559586074355e+002	(-4.00506287032372e+001dB,-9.81401509050824e-001°)
6.16595001861479e+002	(-4.00534202874779e+001dB,-1.00428505631052e+000°)
6.30957344480190e+002	(-4.00563442564551e+001dB,-1.02770333762332e+000°)
6.45654229034652e+002	(-4.00594069293209e+001dB,-1.05166893221630e+000°)
6.60693448007592e+002	(-4.00626149305281e+001dB,-1.07619472082950e+000°)
6.76082975391978e+002	(-4.00659752052451e+001dB,-1.10129389258623e+000°)
6.91830970918933e+002	(-4.00694950356183e+001dB,-1.12697995555891e+000°)
7.07945784384134e+002	(-4.00731820568222e+001dB,-1.15326674323299e+000°)
7.24435960074986e+002	(-4.00770442755291e+001dB,-1.18016842366473e+000°)
7.41310241300914e+002	(-4.00810900881300e+001dB,-1.20769950651456e+000°)
7.58577575029180e+002	(-4.00853283003468e+001dB,-1.23587485334190e+000°)
7.76247116628688e+002	(-4.00897681479376e+001dB,-1.26470968790252e+000°)
7.94328234724277e+002	(-4.00944193181700e+001dB,-1.29421960265166e+000°)
8.12830516164095e+002	(-4.00992919733499e+001dB,-1.32442056985821e+000°)
8.31763771102666e+002	(-4.01043967741376e+001dB,-1.35532895359508e+000°)
8.51138038202372e+002	(-4.01097449059130e+001dB,-1.38696151813656e+000°)
8.70963589956076e+002	(-4.01153481050903e+001dB,-1.41933543811867e+000°)
8.91250938133741e+002	(-4.01212186873954e+001dB,-1.45246831208623e+000°)
9.12010839355905e+002	(-4.01273695780781e+001dB,-1.48637817250947e+000°)
9.33254300796986e+002	(-4.01338143437636e+001dB,-1.52108349646253e+000°)
9.54992586021431e+002	(-4.01405672248243e+001dB,-1.55660322140933e+000°)
9.77237220955805e+002	(-4.01476431724454e+001dB,-1.59295675456881e+000°)
9.99999999999994e+002	(-4.01550578837929e+001dB,-1.63016398862504e+000°)
1.02329299228075e+003	(-4.01628278429029e+001dB,-1.66824531245584e+000°)
1.04712854805089e+003	(-4.01709703624482e+001dB,-1.70722162945665e+000°)
1.07151930523760e+003	(-4.01795036272533e+001dB,-1.74711436895509e+000°)
1.09647819614318e+003	(-4.01884467407545e+001dB,-1.78794550331178e+000°)
1.12201845430196e+003	(-4.01978197763605e+001dB,-1.82973756263382e+000°)
1.14815362149688e+003	(-4.02076438276546e+001dB,-1.87251365188952e+000°)
1.17489755493952e+003	(-4.02179410663809e+001dB,-1.91629746962789e+000°)
1.20226443461741e+003	(-4.02287348001909e+001dB,-1.96111332240121e+000°)
1.23026877081237e+003	(-4.02400495358134e+001dB,-2.00698614732365e+000°)
1.25892541179416e+003	(-4.02519110461510e+001dB,-2.05394152891784e+000°)
1.28824955169313e+003	(-4.02643464408371e+001dB,-2.10200572085418e+000°)
1.31825673855640e+003	(-4.02773842427533e+001dB,-2.15120566673091e+000°)
1.34896288259165e+003	(-4.02910544667495e+001dB,-2.20156902259883e+000°)
1.38038426460288e+003	(-4.03053887067735e+001dB,-2.25312417896402e+000°)
1.41253754462275e+003	(-4.03204202272247e+001dB,-2.30590028795255e+000°)
1.44543977074592e+003	(-4.03361840594719e+001dB,-2.35992728604426e+000°)
1.47910838816820e+003	(-4.03527171061699e+001dB,-2.41523592145191e+000°)
1.51356124843620e+003	(-4.03700582536751e+001dB,-2.47185778397769e+000°)
1.54881661891247e+003	(-4.03882484894366e+001dB,-2.52982533239644e+000°)
1.58489319246110e+003	(-4.04073310305328e+001dB,-2.58917192785690e+000°)
1.62181009735892e+003	(-4.04273514596237e+001dB,-2.64993186510807e+000°)
1.65958690743755e+003	(-4.04483578714561e+001dB,-2.71214040821567e+000°)
1.69824365246173e+003	(-4.04704010295170e+001dB,-2.77583382515791e+000°)
1.73780082874936e+003	(-4.04935345368429e+001dB,-2.84104943152950e+000°)
1.77827941003891e+003	(-4.05178150149970e+001dB,-2.90782562621477e+000°)
1.81970085860997e+003	(-4.05433023021148e+001dB,-2.97620193841217e+000°)
1.86208713666286e+003	(-4.05700596627920e+001dB,-3.04621907350424e+000°)
1.90546071796323e+003	(-4.05981540156378e+001dB,-3.11791896090707e+000°)
1.94984459975803e+003	(-4.06276561814766e+001dB,-3.19134481069275e+000°)
1.99526231496887e+003	(-4.06586411476504e+001dB,-3.26654116621146e+000°)
2.04173794466952e+003	(-4.06911883573575e+001dB,-3.34355396531947e+000°)
2.08929613085403e+003	(-4.07253820242557e+001dB,-3.42243060606690e+000°)
2.13796208950222e+003	(-4.07613114726089e+001dB,-3.50322001754449e+000°)
2.18776162394954e+003	(-4.07990715071121e+001dB,-3.58597273091380e+000°)
2.23872113856832e+003	(-4.08387628181467e+001dB,-3.67074096368373e+000°)
2.29086765276776e+003	(-4.08804924229857e+001dB,-3.75757870615201e+000°)
2.34422881531991e+003	(-4.09243741471738e+001dB,-3.84654181417915e+000°)
2.39883291901947e+003	(-4.09705291550079e+001dB,-3.93768811678158e+000°)
2.45470891568501e+003	(-4.10190865283056e+001dB,-4.03107752334540e+000°)
2.51188643150956e+003	(-4.10701839044772e+001dB,-4.12677214830120e+000°)
2.57039578276885e+003	(-4.11239681802203e+001dB,-4.22483644600760e+000°)
2.63026799189536e+003	(-4.11805962864138e+001dB,-4.32533735641840e+000°)
2.69153480392690e+003	(-4.12402360467093e+001dB,-4.42834446846085e+000°)
2.75422870333815e+003	(-4.13030671293308e+001dB,-4.53393019941092e+000°)
2.81838293126443e+003	(-4.13692821043250e+001dB,-4.64216999367729e+000°)
2.88403150312659e+003	(-4.14390876208256e+001dB,-4.75314254169426e+000°)
2.95120922666636e+003	(-4.15127057240060e+001dB,-4.86693003235768e+000°)
3.01995172040199e+003	(-4.15903753264697e+001dB,-4.98361842585534e+000°)
3.09029543251357e+003	(-4.16723538626844e+001dB,-5.10329776648496e+000°)
3.16227766016836e+003	(-4.17589191501575e+001dB,-5.22606253394492e+000°)
3.23593656929626e+003	(-4.18503714939894e+001dB,-5.35201204736472e+000°)
3.31131121482589e+003	(-4.19470360676513e+001dB,-5.48125091562826e+000°)
3.38844156139200e+003	(-4.20492656226820e+001dB,-5.61388956262273e+000°)
3.46736850452529e+003	(-4.21574435791885e+001dB,-5.75004483015966e+000°)
3.54813389233573e+003	(-4.22719875632947e+001dB,-5.88984067225265e+000°)
3.63078054770099e+003	(-4.23933534748028e+001dB,-6.03340896392333e+000°)
3.71535229097170e+003	(-4.25220401836008e+001dB,-6.18089045478309e+000°)
3.80189396320558e+003	(-4.26585949723156e+001dB,-6.33243588306583e+000°)
3.89045144994278e+003	(-4.28036198790703e+001dB,-6.48820730392632e+000°)
3.98107170553494e+003	(-4.29577791198731e+001dB,-6.64837966798952e+000°)
4.07380277804110e+003	(-4.31218078262149e+001dB,-6.81314272780324e+000°)
4.16869383470332e+003	(-4.32965223842501e+001dB,-6.98270334128825e+000°)
4.26579518801589e+003	(-4.34828327473829e+001dB,-7.15728829035139e+000°)
4.36515832240162e+003	(-4.36817571897701e+001dB,-7.33714774562245e+000°)
4.46683592150960e+003	(-4.38944401146720e+001dB,-7.52255959083599e+000°)
4.57088189614871e+003	(-4.41221737044377e+001dB,-7.71383483460614e+000°)
4.67735141287194e+003	(-4.43664244643574e+001dB,-7.91132449379861e+000°)
4.78630092322634e+003	(-4.46288660481533e+001dB,-8.11542842261109e+000°)
4.89778819368442e+003	(-4.49114202493413e+001dB,-8.32660678201303e+000°)
5.01187233627268e+003	(-4.52163087319541e+001dB,-8.54539516464439e+000°)
5.12861383991361e+003	(-4.55461190670766e+001dB,-8.77242477739615e+000°)
5.24807460249768e+003	(-4.59038901249285e+001dB,-9.00844986399354e+000°)
