Freq.	V(vo)
1.00000000000000e+002	(-6.19561147584715e-003dB,1.73680945233121e+002°)
1.02329299228075e+002	(-6.46885519922323e-003dB,1.73533754767183e+002°)
1.04712854805090e+002	(-6.75497944565318e-003dB,1.73383135739666e+002°)
1.07151930523761e+002	(-7.05459153956629e-003dB,1.73229008285169e+002°)
1.09647819614318e+002	(-7.36832745516281e-003dB,1.73071290677703e+002°)
1.12201845430196e+002	(-7.69685316926498e-003dB,1.72909899287334e+002°)
1.14815362149688e+002	(-8.04086607818134e-003dB,1.72744748535816e+002°)
1.17489755493953e+002	(-8.40109648172258e-003dB,1.72575750851179e+002°)
1.20226443461741e+002	(-8.77830913725880e-003dB,1.72402816621272e+002°)
1.23026877081238e+002	(-9.17330488764499e-003dB,1.72225854146210e+002°)
1.25892541179417e+002	(-9.58692236592039e-003dB,1.72044769589716e+002°)
1.28824955169313e+002	(-1.00200397810955e-002dB,1.71859466929332e+002°)
1.31825673855641e+002	(-1.04735767881791e-002dB,1.71669847905458e+002°)
1.34896288259165e+002	(-1.09484964471726e-002dB,1.71475811969211e+002°)
1.38038426460288e+002	(-1.14458072746550e-002dB,1.71277256229063e+002°)
1.41253754462275e+002	(-1.19665653927870e-002dB,1.71074075396232e+002°)
1.44543977074593e+002	(-1.25118767802224e-002dB,1.70866161728804e+002°)
1.47910838816821e+002	(-1.30828996298515e-002dB,1.70653404974540e+002°)
1.51356124843621e+002	(-1.36808468182639e-002dB,1.70435692312360e+002°)
1.54881661891248e+002	(-1.43069884926104e-002dB,1.70212908292452e+002°)
1.58489319246111e+002	(-1.49626547803160e-002dB,1.69984934774982e+002°)
1.62181009735893e+002	(-1.56492386274433e-002dB,1.69751650867380e+002°)
1.65958690743756e+002	(-1.63681987719438e-002dB,1.69512932860153e+002°)
1.69824365246174e+002	(-1.71210628583750e-002dB,1.69268654161201e+002°)
1.73780082874937e+002	(-1.79094307006350e-002dB,1.69018685228597e+002°)
1.77827941003892e+002	(-1.87349777000641e-002dB,1.68762893501803e+002°)
1.81970085860998e+002	(-1.95994584261280e-002dB,1.68501143331266e+002°)
1.86208713666287e+002	(-2.05047103678522e-002dB,1.68233295906377e+002°)
1.90546071796324e+002	(-2.14526578637520e-002dB,1.67959209181745e+002°)
1.94984459975804e+002	(-2.24453162193794e-002dB,1.67678737801741e+002°)
1.99526231496888e+002	(-2.34847960210803e-002dB,1.67391733023285e+002°)
2.04173794466953e+002	(-2.45733076558642e-002dB,1.67098042636819e+002°)
2.08929613085404e+002	(-2.57131660468382e-002dB,1.66797510885436e+002°)
2.13796208950223e+002	(-2.69067956152624e-002dB,1.66489978382115e+002°)
2.18776162394955e+002	(-2.81567354796557e-002dB,1.66175282025015e+002°)
2.23872113856834e+002	(-2.94656449037499e-002dB,1.65853254910792e+002°)
2.29086765276777e+002	(-3.08363090054049e-002dB,1.65523726245881e+002°)
2.34422881531992e+002	(-3.22716447390397e-002dB,1.65186521255700e+002°)
2.39883291901949e+002	(-3.37747071648758e-002dB,1.64841461091729e+002°)
2.45470891568503e+002	(-3.53486960193045e-002dB,1.64488362736409e+002°)
2.51188643150958e+002	(-3.69969626008462e-002dB,1.64127038905810e+002°)
2.57039578276886e+002	(-3.87230169870324e-002dB,1.63757297950021e+002°)
2.63026799189538e+002	(-4.05305355989162e-002dB,1.63378943751198e+002°)
2.69153480392691e+002	(-4.24233691298018e-002dB,1.62991775619224e+002°)
2.75422870333816e+002	(-4.44055508564464e-002dB,1.62595588184914e+002°)
2.81838293126445e+002	(-4.64813053515074e-002dB,1.62190171290720e+002°)
2.88403150312660e+002	(-4.86550576171673e-002dB,1.61775309878861e+002°)
2.95120922666638e+002	(-5.09314426605765e-002dB,1.61350783876830e+002°)
3.01995172040201e+002	(-5.33153155335169e-002dB,1.60916368080202e+002°)
3.09029543251358e+002	(-5.58117618588410e-002dB,1.60471832032697e+002°)
3.16227766016837e+002	(-5.84261088685812e-002dB,1.60016939903411e+002°)
3.23593656929628e+002	(-6.11639369789174e-002dB,1.59551450361160e+002°)
3.31131121482590e+002	(-6.40310919291636e-002dB,1.59075116445868e+002°)
3.38844156139202e+002	(-6.70336975132115e-002dB,1.58587685436923e+002°)
3.46736850452531e+002	(-7.01781689332257e-002dB,1.58088898718429e+002°)
3.54813389233575e+002	(-7.34712268072486e-002dB,1.57578491641280e+002°)
3.63078054770101e+002	(-7.69199118639561e-002dB,1.57056193381983e+002°)
3.71535229097172e+002	(-8.05316003595441e-002dB,1.56521726798144e+002°)
3.80189396320560e+002	(-8.43140202538546e-002dB,1.55974808280543e+002°)
3.89045144994280e+002	(-8.82752681847646e-002dB,1.55415147601709e+002°)
3.98107170553496e+002	(-9.24238272819610e-002dB,1.54842447760921e+002°)
4.07380277804112e+002	(-9.67685858636002e-002dB,1.54256404825536e+002°)
4.16869383470335e+002	(-1.01318857062141e-001dB,1.53656707768558e+002°)
4.26579518801592e+002	(-1.06084399427316e-001dB,1.53043038302361e+002°)
4.36515832240165e+002	(-1.11075438558416e-001dB,1.52415070708476e+002°)
4.46683592150962e+002	(-1.16302689819497e-001dB,1.51772471663322e+002°)
4.57088189614874e+002	(-1.21777382195464e-001dB,1.51114900059821e+002°)
4.67735141287197e+002	(-1.27511283349777e-001dB,1.50442006824755e+002°)
4.78630092322637e+002	(-1.33516725948347e-001dB,1.49753434731794e+002°)
4.89778819368445e+002	(-1.39806635317918e-001dB,1.49048818210063e+002°)
5.01187233627271e+002	(-1.46394558511604e-001dB,1.48327783148161e+002°)
5.12861383991364e+002	(-1.53294694858308e-001dB,1.47589946693503e+002°)
5.24807460249771e+002	(-1.60521928078121e-001dB,1.46834917046872e+002°)
5.37031796370251e+002	(-1.68091860050058e-001dB,1.46062293252075e+002°)
5.49540873857623e+002	(-1.76020846324934e-001dB,1.45271664980567e+002°)
5.62341325190348e+002	(-1.84326033481350e-001dB,1.44462612310928e+002°)
5.75439937337155e+002	(-1.93025398429468e-001dB,1.43634705503063e+002°)
5.88843655355587e+002	(-2.02137789774222e-001dB,1.42787504766994e+002°)
6.02559586074356e+002	(-2.11682971356717e-001dB,1.41920560026110e+002°)
6.16595001861481e+002	(-2.21681668100982e-001dB,1.41033410674742e+002°)
6.30957344480192e+002	(-2.32155614301601e-001dB,1.40125585329920e+002°)
6.45654229034654e+002	(-2.43127604497594e-001dB,1.39196601577172e+002°)
6.60693448007594e+002	(-2.54621547087710e-001dB,1.38245965710211e+002°)
6.76082975391980e+002	(-2.66662520853868e-001dB,1.37273172464378e+002°)
6.91830970918935e+002	(-2.79276834571579e-001dB,1.36277704743670e+002°)
7.07945784384136e+002	(-2.92492089899168e-001dB,1.35259033341221e+002°)
7.24435960074988e+002	(-3.06337247752590e-001dB,1.34216616653066e+002°)
7.41310241300916e+002	(-3.20842698388416e-001dB,1.33149900385033e+002°)
7.58577575029182e+002	(-3.36040335434665e-001dB,1.32058317252620e+002°)
7.76247116628690e+002	(-3.51963634129174e-001dB,1.30941286673689e+002°)
7.94328234724279e+002	(-3.68647734045521e-001dB,1.29798214453832e+002°)
8.12830516164097e+002	(-3.86129526610557e-001dB,1.28628492464253e+002°)
8.31763771102669e+002	(-4.04447747742983e-001dB,1.27431498312033e+002°)
8.51138038202374e+002	(-4.23643075971444e-001dB,1.26206595002637e+002°)
8.70963589956078e+002	(-4.43758236422100e-001dB,1.24953130594549e+002°)
8.91250938133743e+002	(-4.64838111101116e-001dB,1.23670437845930e+002°)
9.12010839355907e+002	(-4.86929855937063e-001dB,1.22357833853220e+002°)
9.33254300796988e+002	(-5.10083025091958e-001dB,1.21014619681638e+002°)
9.54992586021433e+002	(-5.34349703099014e-001dB,1.19640079987579e+002°)
9.77237220955808e+002	(-5.59784645440390e-001dB,1.18233482632956e+002°)
9.99999999999997e+002	(-5.86445428239739e-001dB,1.16794078291593e+002°)
1.02329299228075e+003	(-6.14392607813976e-001dB,1.15321100047896e+002°)
1.04712854805090e+003	(-6.43689890906757e-001dB,1.13813762988112e+002°)
1.07151930523760e+003	(-6.74404316513840e-001dB,1.12271263784640e+002°)
1.09647819614318e+003	(-7.06606450309629e-001dB,1.10692780274047e+002°)
1.12201845430196e+003	(-7.40370592795302e-001dB,1.09077471029679e+002°)
1.14815362149688e+003	(-7.75775002415085e-001dB,1.07424474930027e+002°)
1.17489755493953e+003	(-8.12902135028033e-001dB,1.05732910724405e+002°)
1.20226443461741e+003	(-8.51838901281991e-001dB,1.04001876597958e+002°)
1.23026877081238e+003	(-8.92676943615925e-001dB,1.02230449738567e+002°)
1.25892541179416e+003	(-9.35512934816233e-001dB,1.00417685909006e+002°)
1.28824955169313e+003	(-9.80448900278476e-001dB,9.85626190285515e+001°)
1.31825673855640e+003	(-1.02759256637556e+000dB,9.66642607694290e+001°)
1.34896288259165e+003	(-1.07705773761149e+000dB,9.47216001748516e+001°)
1.38038426460288e+003	(-1.12896470554741e+000dB,9.27336033071647e+001°)
1.41253754462275e+003	(-1.18344069282209e+000dB,9.06992129367590e+001°)
1.44543977074592e+003	(-1.24062033595608e+000dB,8.86173482850603e+001°)
1.47910838816820e+003	(-1.30064621102074e+000dB,8.64869048381658e+001°)
1.51356124843620e+003	(-1.36366940667003e+000dB,8.43067542516756e+001°)
1.54881661891248e+003	(-1.42985014946450e+000dB,8.20757443721258e+001°)
1.58489319246111e+003	(-1.49935848685429e+000dB,7.97926994063297e+001°)
1.62181009735892e+003	(-1.57237503361182e+000dB,7.74564202770606e+001°)
1.65958690743755e+003	(-1.64909178789479e+000dB,7.50656852120828e+001°)
1.69824365246174e+003	(-1.72971302344059e+000dB,7.26192506237917e+001°)
1.73780082874937e+003	(-1.81445626460111e+000dB,7.01158523489041e+001°)
1.77827941003892e+003	(-1.90355335096435e+000dB,6.75542073320071e+001°)
1.81970085860998e+003	(-1.99725159809789e+000dB,6.49330158535760e+001°)
1.86208713666286e+003	(-2.09581506039352e+000dB,6.22509644225328e+001°)
1.90546071796324e+003	(-2.19952590096870e+000dB,5.95067294756874e+001°)
1.94984459975804e+003	(-2.30868587193641e+000dB,5.66989820515507e+001°)
1.99526231496887e+003	(-2.42361790590831e+000dB,5.38263936339079e+001°)
2.04173794466952e+003	(-2.54466781612713e+000dB,5.08876433908491e+001°)
2.08929613085403e+003	(-2.67220609788150e+000dB,4.78814270669584e+001°)
2.13796208950222e+003	(-2.80662981755720e+000dB,4.48064678189047e+001°)
2.18776162394954e+003	(-2.94836456751892e+000dB,4.16615293159578e+001°)
2.23872113856833e+003	(-3.09786645468915e+000dB,3.84454314543952e+001°)
2.29086765276776e+003	(-3.25562407791163e+000dB,3.51570690548292e+001°)
2.34422881531991e+003	(-3.42216043373956e+000dB,3.17954339194772e+001°)
2.39883291901948e+003	(-3.59803467208050e+000dB,2.83596406163761e+001°)
2.45470891568502e+003	(-3.78384360227663e+000dB,2.48489563222078e+001°)
2.51188643150957e+003	(-3.98022282711432e+000dB,2.12628349862902e+001°)
2.57039578276885e+003	(-4.18784735778585e+000dB,1.76009559659739e+001°)
2.63026799189537e+003	(-4.40743153835378e+000dB,1.38632671185705e+001°)
2.69153480392690e+003	(-4.63972808585703e+000dB,1.00500321082614e+001°)
2.75422870333815e+003	(-4.88552603466461e+000dB,6.16188139187840e+000°)
2.81838293126444e+003	(-5.14564736462119e+000dB,2.19986598333599e+000°)
2.88403150312659e+003	(-5.42094209620749e+000dB,-1.83448733168826e+000°)
2.95120922666637e+003	(-5.71228165702091e+000dB,-5.93912113591265e+000°)
3.01995172040200e+003	(-6.02055036693838e+000dB,-1.01113951775394e+001°)
3.09029543251358e+003	(-6.34663495807561e+000dB,-1.43480396011623e+001°)
3.16227766016836e+003	(-6.69141214203241e+000dB,-1.86451167852807e+001°)
3.23593656929627e+003	(-7.05573435992997e+000dB,-2.29979952082494e+001°)
3.31131121482590e+003	(-7.44041399550940e+000dB,-2.74013387939710e+001°)
3.38844156139201e+003	(-7.84620648854750e+000dB,-3.18491149313758e+001°)
3.46736850452530e+003	(-8.27379294087291e+000dB,-3.63346237694523e+001°)
3.54813389233574e+003	(-8.72376294239340e+000dB,-4.08505504474179e+001°)
3.63078054770100e+003	(-9.19659844006494e+000dB,-4.53890406586153e+001°)
3.71535229097171e+003	(-9.69265951015592e+000dB,-4.99417984506409e+001°)
3.80189396320559e+003	(-1.02121728597423e+001dB,-5.45002035669715e+001°)
3.89045144994279e+003	(-1.07552237714619e+001dB,-5.90554441073547e+001°)
3.98107170553495e+003	(-1.13217520209153e+001dB,-6.35986590082618e+001°)
4.07380277804111e+003	(-1.19115520543428e+001dB,-6.81210839855979e+001°)
4.16869383470333e+003	(-1.25242774400982e+001dB,-7.26141942562774e+001°)
4.26579518801591e+003	(-1.31594493311347e+001dB,-7.70698376089951e+001°)
4.36515832240164e+003	(-1.38164684277635e+001dB,-8.14803521934075e+001°)
4.46683592150961e+003	(-1.44946297362157e+001dB,-8.58386646335765e+001°)
4.57088189614873e+003	(-1.51931392961908e+001dB,-9.01383655861807e+001°)
4.67735141287196e+003	(-1.59111320060271e+001dB,-9.43737614741777e+001°)
4.78630092322636e+003	(-1.66476897031616e+001dB,-9.85399026577777e+001°)
4.89778819368444e+003	(-1.74018587473931e+001dB,-1.02632589615809e+002°)
5.01187233627270e+003	(-1.81726664870510e+001dB,-1.06648359709654e+002°)
5.12861383991362e+003	(-1.89591361436836e+001dB,-1.10584457749949e+002°)
5.24807460249770e+003	(-1.97602998108572e+001dB,-1.14438793891703e+002°)
5.37031796370250e+003	(-2.05752094121844e+001dB,-1.18209892390711e+002°)
5.49540873857622e+003	(-2.14029455924401e+001dB,-1.21896834528505e+002°)
5.62341325190346e+003	(-2.22426246179572e+001dB,-1.25499198627693e+002°)
5.75439937337154e+003	(-2.30934034368515e+001dB,-1.29016999603928e+002°)
5.88843655355586e+003	(-2.39544830975501e+001dB,-1.32450629994100e+002°)
6.02559586074354e+003	(-2.48251107490815e+001dB,-1.35800803907842e+002°)
6.16595001861479e+003	(-2.57045804531389e+001dB,-1.39068504901876e+002°)
6.30957344480190e+003	(-2.65922330307575e+001dB,-1.42254938391672e+002°)
6.45654229034652e+003	(-2.74874551499257e+001dB,-1.45361488899688e+002°)
6.60693448007592e+003	(-2.83896778383289e+001dB,-1.48389682193450e+002°)
6.76082975391978e+003	(-2.92983745806687e+001dB,-1.51341152184401e+002°)
6.91830970918932e+003	(-3.02130591348333e+001dB,-1.54217612331447e+002°)
7.07945784384134e+003	(-3.11332831771252e+001dB,-1.57020831211858e+002°)
7.24435960074986e+003	(-3.20586338647468e+001dB,-1.59752611877299e+002°)
7.41310241300913e+003	(-3.29887313842995e+001dB,-1.62414774595471e+002°)
7.58577575029179e+003	(-3.39232265383535e+001dB,-1.65009142580663e+002°)
7.76247116628687e+003	(-3.48617984081565e+001dB,-1.67537530333169e+002°)
7.94328234724277e+003	(-3.58041521190767e+001dB,-1.70001734233092e+002°)
8.12830516164094e+003	(-3.67500167261721e+001dB,-1.72403525064640e+002°)
8.31763771102666e+003	(-3.76991432300341e+001dB,-1.74744642179834e+002°)
8.51138038202371e+003	(-3.86513027274809e+001dB,-1.77026789043606e+002°)
8.70963589956075e+003	(-3.96062846974928e+001dB,-1.79251629934130e+002°)
8.91250938133740e+003	(-4.05638954197168e+001dB,1.78579212397918e+002°)
9.12010839355904e+003	(-4.15239565207195e+001dB,1.76464158280103e+002°)
9.33254300796985e+003	(-4.24863036417217e+001dB,1.74401672023291e+002°)
9.54992586021430e+003	(-4.34507852206612e+001dB,1.72390262303521e+002°)
9.77237220955804e+003	(-4.44172613809554e+001dB,1.70428482123949e+002°)
9.99999999999993e+003	(-4.53856029191794e+001dB,1.68514928443515e+002°)
1.02329299228075e+004	(-4.63556903839441e+001dB,1.66648241544561e+002°)
1.04712854805089e+004	(-4.73274132384843e+001dB,1.64827104199360e+002°)
1.07151930523760e+004	(-4.83006690998070e+001dB,1.63050240685017e+002°)
1.09647819614318e+004	(-4.92753630476515e+001dB,1.61316415687346e+002°)
1.12201845430196e+004	(-5.02514069969585e+001dB,1.59624433126855e+002°)
1.14815362149688e+004	(-5.12287191280018e+001dB,1.57973134933704e+002°)
1.17489755493952e+004	(-5.22072233687975e+001dB,1.56361399793263e+002°)
1.20226443461740e+004	(-5.31868489248527e+001dB,1.54788141879546e+002°)
1.23026877081237e+004	(-5.41675298517438e+001dB,1.53252309590181e+002°)
1.25892541179416e+004	(-5.51492046664226e+001dB,1.51752884293594e+002°)
1.28824955169313e+004	(-5.61318159935249e+001dB,1.50288879096620e+002°)
1.31825673855640e+004	(-5.71153102433097e+001dB,1.48859337638772e+002°)
1.34896288259164e+004	(-5.80996373181802e+001dB,1.47463332917707e+002°)
1.38038426460288e+004	(-5.90847503450335e+001dB,1.46099966149147e+002°)
1.41253754462274e+004	(-6.00706054309587e+001dB,1.44768365663391e+002°)
1.44543977074592e+004	(-6.10571614400440e+001dB,1.43467685839717e+002°)
1.47910838816820e+004	(-6.20443797892810e+001dB,1.42197106079253e+002°)
1.50000000000000e+004	(-6.26460291300805e+001dB,1.41437573985300e+002°)
