#Digilent WaveForms Network Analyzer - Bode
#Device Name: Discovery2
#Serial Number: SN:210321A29C8B
#Date Time: 2017-10-25 18:45:41.932

Frequency (Hz),Channel 1 Magnitude (dB),Channel 2 Magnitude (dB),Channel 2 Phase (°)
1000.0000000000011,0.012083257108003091,-79.278034825951551,-153.91249045921577
1006.9386314760281,0.011694201177841434,-77.511834450286358,-171.56896158620958
1013.9254075588154,0.011254384012863911,-78.831007744838388,-154.27564870252249
1020.9606623060474,0.012179974293643257,-81.196555100225908,-146.75954809322599
1028.0447320933108,0.011581307216370386,-81.20796761325272,-172.21823971416495
1035.1779556301774,0.011650040781365879,-75.751223510308293,-177.61070515800412
1042.3606739764023,0.011496542943517972,-76.935760806136358,-158.3461493654309
1049.5932305582276,0.011764489013624388,-80.594242625865959,-150.73361108848576
1056.8759711848049,0.01174608028140744,-77.10113402318801,-158.877378399794
1064.2092440647257,0.01233448162984473,-82.568798892982031,-154.16887611119216
1071.5933998226722,0.011781295612293588,-78.487581154590245,-153.13041682436719
1079.0287915161848,0.012145769199974881,-81.812151306734393,-148.98519752361332
1086.5157746525385,0.011661222617136504,-76.927594888833838,-159.93759378453802
1094.0547072057436,0.01188524110845676,-76.928587747834996,-152.77059042134272
1101.6459496336579,0.011491615953074841,-78.138223785123756,-160.50668342141569
1109.2898648952239,0.011613589581897598,-75.391582937923346,-171.12290012674194
1116.9868184678239,0.011937183996690016,-76.320365857258736,-158.39323073121039
1124.737178364752,0.012085116175813111,-77.343846620152135,-167.09658940857625
1132.5413151528126,0.012237666908192089,-77.751009419611307,-146.02954305697045
1140.3996019700342,0.01210745473955978,-78.951353944935022,-169.39608496233507
1148.3124145435122,0.011512474881748929,-77.866228066346281,-162.55835743764959
1156.2801312073766,0.011339782129169697,-76.793522028602283,-171.73786495351609
1164.3031329208768,0.011251730450174276,-78.266020775341303,-161.62602564609438
1172.3818032865997,0.01234736760078917,-74.873424522326033,-153.26345896874363
1180.5165285688067,0.012131639849369215,-75.444462033278867,-159.40400444592555
1188.7076977119045,0.012410257342247499,-78.656354097882414,-150.92712979369895
1196.9557023590439,0.011762702637689425,-74.108970195146597,-167.6886122462389
1205.2609368708424,0.011813765086007705,-76.03469377738692,-161.47137780050213
1213.6237983442418,0.011184485829984298,-76.053188333238296,-164.05293480478346
1222.0446866314901,0.01195825200919726,-76.653425968209433,-171.5321827938171
1230.524004359263,0.011590343854901255,-75.623362691895608,-161.83377965803288
1239.0621569479169,0.011945976544851643,-76.738769117412332,-163.99360828681478
1247.6595526308697,0.01201359195037781,-73.911774473033717,-162.23537426014062
1256.3166024741215,0.01201415687030544,-77.184001961309889,-160.47484989930797
1265.033720395905,0.012537572664739743,-75.844330688957498,-160.0626652590966
1273.81132318648,0.011729422544797979,-74.589542883039101,-163.50494057638679
1282.6498305280611,0.011914396645629453,-75.047025390087057,-171.47572188339149
1291.5496650148839,0.012505454467284311,-76.671738572196574,-153.83453549397927
1300.5112521734097,0.012524292732262878,-74.57607177263435,-160.85182858290671
1309.5350204826691,0.013388404309530604,-73.905187456281411,-163.97138489048027
1318.6214013947497,0.012546269537194203,-76.106027097560982,-159.58505373386808
1327.7708293554306,0.013032977037526769,-75.983920970164945,-160.33968408772674
1336.9837418249479,0.012595240628076907,-73.932346451254745,-171.48795712378862
1346.2605792989111,0.012331284311997655,-74.317456680092036,-168.86548087392114
1355.6017853293702,0.012662039969351717,-74.549747471792486,-174.39806884998364
1365.0078065460152,0.012392402447585982,-73.071546982776525,-168.68529949293901
1374.4790926775381,0.012744839881025188,-75.488657767786904,176.14408655601437
1384.0160965731329,0.012531966941396303,-72.843943268788053,-161.0417761779857
1393.6192742241435,0.0125988346988547,-73.026080711626875,-168.39310724845063
1403.2890847858746,0.012611680023421053,-73.468196428663532,-162.77796010717725
1413.0259905995351,0.012772085447658905,-73.900857541976038,-162.17319376227201
1422.8304572143534,0.012184727838409652,-72.81271242362952,-157.03562487912939
1432.7029534098324,0.012179109183747166,-72.932913418589564,-165.58693434705631
1442.6439512181589,0.0126730653310733,-71.744865952372677,-161.95446833107647
1452.6539259467827,0.012359072878093978,-73.218204603421128,-162.60170887892698
1462.7333562011315,0.012394220111624173,-73.292146953398202,-167.39429634167982
1472.8827239075033,0.011958967644517935,-73.928941891172585,-172.88265781081338
1483.1025143361057,0.011738719028449513,-72.445149700306629,-161.29429706732068
1493.3932161242535,0.012489955602199268,-72.989060972554284,-166.15565780060888
1503.75532129974,0.012265953792698415,-72.737267622741285,-167.64604666517766
1514.1893253043536,0.012730894903246318,-71.712978078268179,-171.52195900702543
1524.6957270175747,0.012846023890124793,-71.410812171865501,-167.90474555233567
1535.2750287804242,0.0126204171310727,-71.717067392434714,-162.25098374122734
1545.9277364194784,0.011930967813221276,-71.592141523155547,-177.34071861952606
1556.6543592710636,0.012570270027315669,-73.851303499232571,-175.45993409333664
1567.4554102055965,0.012204108282318681,-72.045444877673631,-166.59219748602811
1578.3314056521181,0.012361844004379619,-72.648555157207923,-164.86692213966683
1589.2828656229797,0.012529817381879171,-70.741466041538771,-158.46338928181058
1600.3103137387016,0.013113072738921218,-71.230324367035024,-167.34071252528062
1611.4142772530215,0.012259369082701123,-70.85803194046548,-169.70994774414149
1622.5952870780889,0.012549955521160179,-71.984911646740017,-173.35848418785559
1633.8538778098621,0.01176780987753397,-70.853567601253573,-171.21950846835929
1645.190587753664,0.01220516523329384,-71.123020488543659,-174.61719411559747
1656.6059589499152,0.011777365916979567,-70.555944180705723,-175.54252084870444
1668.1005372000607,0.012577142420620415,-71.139898712349421,-167.89627905835636
1679.6748720926551,0.012393062185448181,-70.888128598871447,-172.52335158047259
1691.3295170296506,0.012716808936748959,-69.187197342951123,-163.569938630959
1703.0650292528462,0.011832652615476918,-70.8972512871768,-168.09287847920865
1714.8819698705411,0.012156460292512803,-70.180870420626235,-165.82042604902017
1726.7809038843577,0.012948652371054118,-69.346087227460885,-165.76561968619137
1738.7624002162522,0.013588418189476811,-69.429205091380737,-171.14535538668926
1750.8270317357269,0.012624468201015459,-69.461287107735757,-165.09415745919938
1762.9753752872075,0.013416720660977727,-69.40155264375673,-167.18629526435964
1775.2080117176361,0.012476466566967803,-69.512879511998619,-178.28914105883194
1787.5255259042374,0.01279082786105858,-69.445739333223116,-169.36344123179356
1799.9285067824783,0.012935815690112953,-69.595379489670179,-170.75987905752083
1812.4175473742393,0.013194982551574981,-69.562081286960677,-167.3135895549996
1824.9932448161542,0.013425307717306302,-68.816497847760914,-174.69450687576358
1837.6562003881725,0.012772620401004678,-68.699393257192767,-171.57044070056611
1850.4070195423042,0.012334880274661991,-68.663826808217038,-166.50211552345948
1863.2463119315619,0.012529741470312793,-69.131172859397168,-173.48736245330065
1876.1746914391233,0.012988463566924126,-68.861520059069449,-171.61225352465556
1889.1927762076682,0.012989096988637747,-68.991081539560724,-173.02137676244007
1902.3011886689458,0.012224781364987954,-68.470038086481438,-169.03465954472182
1915.5005555735297,0.011399844235766711,-67.894975083123342,-168.40613297381569
1928.7915080207797,0.013066000107434413,-68.23203951287789,-166.27934058242411
1942.1746814890284,0.012542735163679044,-68.115142826796301,-167.52249672570554
1955.6507158659508,0.012695372947907367,-68.071438203454377,-174.01179686281611
1969.2202554791736,0.012954855244897477,-68.192799508593112,-169.28833198688537
1982.8839491270733,0.012674337666398569,-67.198116519090036,-171.2584381283128
1996.6424501097952,0.012490901902205939,-68.216647927281215,-172.62510187153782
2010.4964162605011,0.013265818235368378,-67.555455624979345,-170.80638304715944
2024.4465099768061,0.013069799795940003,-68.069500341773633,-175.26225900810726
2038.4933982524642,0.012545292365374165,-67.474746271678171,-168.65076349162425
2052.6377527092541,0.012643611830594466,-67.239904677949653,-172.81883268043353
2066.8802496290841,0.012378718702946894,-67.402659837171797,-171.80561045337438
2081.2215699863414,0.012353200704437012,-66.456377104324872,-173.66231403520732
2095.6623994804349,0.013206857963223406,-66.712015419930452,-168.99262451205064
2110.2034285685968,0.013623938696526779,-66.718913778046129,-173.96522967091005
2124.8453524988849,0.01287003437951075,-66.674401834254041,-171.61229848253231
2139.5888713434238,0.01314646788179585,-66.287760186554948,-171.96705281936988
2154.4346900318869,0.012061117195162455,-66.359454192565039,-176.58931236734557
2169.3835183851866,0.012991220086821277,-66.464506205028968,-171.08765760675101
2184.4360711494282,0.013349565936331036,-66.352614083575816,-172.40737280510368
2199.5930680300771,0.013264616717019211,-66.33407013580657,-171.99912318914551
2214.8552337263613,0.013961828423263659,-66.41732464448512,-174.55020619837657
2230.2232979659411,0.012647309552516967,-65.398876174123686,-173.26134541033508
2245.697995539776,0.013253633721588144,-66.015247080839671,-173.43680848799923
2261.2800663372795,0.014257516159439734,-65.094528570396065,-172.7078835415152
2276.9702553816824,0.012671737790420296,-65.073138347143811,-173.44072646720409
2292.769312865651,0.012940757174861914,-66.086025164293986,-175.85077656459089
2308.6779941871723,0.012611149945701448,-64.946031410878732,-172.07431403416598
2324.6970599856504,0.01304410375516523,-64.971916773708699,-173.26028654758471
2340.8272761782946,0.013199679305043175,-64.387209676667538,-172.05270119511599
2357.0694139967304,0.0121907307406791,-64.634003472495664,-171.24150460505001
2373.4242500238688,0.014062149824022811,-64.452125972676214,-171.68512361259883
2389.8925662310526,0.012935736244285663,-64.137621887989781,-172.10054087261977
2406.4751500154266,0.01304066717241722,-64.536479113502381,-173.16815516503601
2423.1727942376006,0.013091943426448671,-64.041914412455256,-172.15388219495424
2439.9862972595529,0.014697629691669347,-64.323924378386323,-175.72089098800666
2456.9164629827928,0.012829838462193644,-63.986197084056656,-171.31886779314797
2473.9641008868166,0.013036260143115465,-63.939886651521036,-174.47913230638443
2491.1300260677908,0.014478298066253547,-63.933285914435416,-172.94134892747718
2508.4150592775413,0.013241387531040797,-64.0371149890521,-176.88327467836396
2525.8200269627873,0.014040682392804447,-63.325013116335697,-175.20123122633282
2543.3457613046508,0.012826314799758917,-63.133351638183306,-174.915250742392
2560.9931002584617,0.014334622485349519,-63.585862935053122,-171.332526759616
2578.7628875938035,0.012382496383012354,-63.248559812250484,-173.8427759162609
2596.6559729348724,0.014379997915144712,-63.109735015582885,-171.70817559285464
2614.6732118010946,0.014405492283346494,-63.311739657377821,-173.37944983076974
2632.8154656480224,0.014656367206105464,-62.969181931509574,-174.32229658271206
2651.0836019085414,0.012819322331740862,-62.320003272553834,-174.37101403026139
2669.4784940343238,0.014291301533140038,-62.572687543277524,-177.98037932963217
2688.0010215376074,0.01321146794280823,-61.999063106793656,-175.65026938485011
2706.6520700332439,0.013088890509335222,-62.189381773119614,-175.5486297752422
2725.4325312810306,0.013640104388911972,-62.005095248595985,-175.8790238660402
2744.3433032283679,0.013986110956482181,-61.789304551672053,-175.82096545870485
2763.3852900531724,0.013892434994754302,-61.870335700306008,-176.22869828896444
2782.5594022071255,0.014165411080478855,-61.54022211701588,-176.0120432480839
2801.8665564591984,0.012592568799419616,-61.660962979488083,-175.3877996828727
2821.3076759394735,0.01434331829351017,-61.320542954863761,-175.54720773023553
2840.883690183307,0.013350725958113565,-61.12816869641172,-174.3595903348475
2860.5955351757448,0.014339800353475327,-61.271631840657136,-175.22870916417764
2880.4441533962981,0.013021908170430974,-61.479185637963397,-174.99275952671442
2900.4304938639948,0.014517307832076812,-61.070068066966741,-174.9192004993354
2920.5555121827479,0.014055018784958422,-60.989717189197947,-175.62888531565054
2940.820170587067,0.015588228985610828,-60.858159637043144,-175.65008697179238
2961.2254379880374,0.01374290014490508,-60.962552585078448,-176.77466262131318
2981.7722900196732,0.014067187399230826,-60.687225707083371,-177.88667938744558
3002.4617090855527,0.014867782751581784,-60.645900766863377,-175.26353992421781
3023.2946844057797,0.013454766664163609,-60.613643290531343,-179.05477937764132
3044.2722120643061,0.014662270244423512,-60.14974871442584,-175.91760760821722
3065.3952950565299,0.013362828466464076,-60.006453204087045,-176.41609425295459
3086.6649433372745,0.014098880862917034,-59.656542523929012,-177.41964572449092
3108.082173869067,0.014313667538086886,-59.818284518909941,-175.71545744327574
3129.648010670754,0.014154189842539817,-59.505984205215334,-176.35012095440288
3151.3634848664824,0.013745507715890008,-59.706550167675914,-176.96152243785994
3173.2296347349793,0.014409015055125683,-59.329457807178841,-176.40088537479332
3195.2475057592137,0.01522841333341516,-59.703362824179038,-177.92183796356784
3217.4181506763748,0.015284597341556539,-59.252065337331089,-175.5690642691354
3239.7426295281984,0.014986847386503988,-58.921987379667328,-176.48174363621729
3262.2220097116733,0.013446709838543148,-58.73173750981509,-177.25853169198498
3284.8573660300472,0.013488086345790498,-58.784216442716833,-178.84243384492081
3307.6497807442424,0.015090051526408663,-58.766606528954043,-178.16328405589826
3330.6003436245919,0.014171077188801532,-58.383660867313971,-177.25502021493918
3353.7101520029323,0.014078129819712895,-58.872462376793671,-177.89140437747739
3376.9803108250949,0.014855324567116532,-58.457910818773314,-177.07795119260385
3400.4119327037097,0.014849894261073379,-58.252158332055856,-177.77717578726566
3424.0061379714257,0.014826981267118202,-58.089326903099234,-178.72158083143233
3447.7640547344677,0.015647204327610759,-58.104956604407249,-178.72927791335044
3471.6868189265633,0.01448842768443921,-57.921272204715955,-177.72714988266341
3495.7755743632788,0.014427005194740043,-58.100184519517398,-178.17924828271885
3520.0314727966825,0.015704292621005478,-57.901585450971965,-177.5636665142417
3544.4556739704358,0.014997278989517374,-57.378557316218178,-178.02160247203742
3569.0493456752333,0.014773418474175536,-57.597493989443265,-178.41744080898837
3593.8136638046294,0.015968414226205169,-57.523006420747642,-178.84944270150018
3618.749812411284,0.014604499245726137,-57.369668279313508,-178.88411161769341
3643.8589837635482,0.014689968739832278,-57.009296812133201,-179.21089057853928
3669.1423784024942,0.01593560596607119,-57.017066433863391,-178.96834692402473
3694.6012051993066,0.014210728131823747,-56.91988236380412,-179.41138544304673
3720.2366814130696,0.015578180031310283,-56.603152919545607,-178.14281003222573
3746.0500327489972,0.015193241116522677,-56.776881638184939,-177.60827448352848
3772.0424934170014,0.014910085746078305,-56.572769361120685,-179.81714030350986
3798.2153061907361,0.015724708753826984,-56.521061416198208,-179.13260766524542
3824.5697224670034,0.014838388536747198,-56.232092543183292,-178.85880490179809
3851.1070023255729,0.016239801209876469,-56.109165488137691,-179.77803909758683
3877.8284145894613,0.016076701174328245,-56.390877350317041,-178.16874797106703
3904.7352368855641,0.014327206046448677,-55.781054570683047,-178.19378718170606
3931.8287557057706,0.015863210307636853,-55.833703208308563,-179.83643072091738
3959.1102664684627,0.015678280103261961,-55.789772139789562,-178.98149170181847
3986.5810735804466,0.01601822809857598,-55.476040615063795,-179.10043262640232
4014.2424904993263,0.015603636962561607,-55.278808730534685,-178.60569616033644
4042.0958397963095,0.016387711202040328,-55.458734488189364,-179.2937879283061
4070.1424532194392,0.015847980465988166,-55.339037318979045,-179.67950733326762
4098.3836717572658,0.015658293946752267,-55.010375825145658,-179.1983035056162
4126.8208457029605,0.016004083439283476,-54.99721002978616,-179.73112130638648
4155.4553347188794,0.014793814481571941,-54.784219426345246,-179.96775998497554
4184.288507901585,0.016347604299288439,-54.84968072449881,-179.79243780168514
4213.3217438472893,0.015886559143354805,-54.448303553538871,-179.55525484914472
4242.556430717782,0.015627651370664603,-54.330437909058993,179.24404871577104
4271.9939663067853,0.015999267065974269,-54.199897177694936,179.97170875993405
4301.6357581067996,0.016768598967105645,-54.21254163461267,-179.74549074455976
4331.4832233764027,0.015429125307063985,-54.109889281625946,-179.43939788723608
4361.537789208006,0.015784845088887008,-53.926994760331738,-179.68308512487494
4391.8008925960903,0.01719443124062154,-53.752914167553186,178.84150005538291
4422.2739805059055,0.016239958958010049,-53.62019913237453,179.94551584935505
4452.9585099426604,0.016668617962731374,-53.677932877903018,-179.65252443750944
4483.8559480211916,0.017514688211683085,-53.240054732203738,179.42347346370221
4514.9677720361015,0.016664681581164555,-53.478053264675594,179.30340465627108
4546.2954695324042,0.016204884669209125,-53.361988134779715,178.26077147203145
4577.8405383766258,0.017042539990372682,-52.938358361364152,179.18097276267184
4609.6044868284389,0.01732127462911379,-52.965720721537721,179.2250947058555
4641.5888336127828,0.015861636530500565,-52.951701805442525,178.85713325651318
4673.7951079924633,0.016907081828551034,-52.693823967316305,179.00288739193394
4706.2248498412864,0.017189940908665644,-52.57660157512872,178.79627964896383
4738.879609717661,0.016848970244491491,-52.606126501598894,178.76644974210117
4771.7609489387505,0.017511910795379591,-52.348169039061212,179.43384397028893
4804.8704396551339,0.016710037763893897,-52.289075290014807,179.0346453787966
4838.2096649259574,0.017779835639619847,-52.294250514659886,178.79688317190033
4871.7802187946363,0.014279585128531282,-51.980260740337492,178.71527982190284
4905.5837063650561,0.017142829122797753,-51.833199172969785,178.65272409623987
4939.621743878326,0.017486290734513986,-51.603477181095158,178.37211238047345
4973.8959587900681,0.01625929983111761,-51.696569413819944,178.81437610884547
5008.4079898482123,0.017460571994321644,-51.414657593010446,178.97000765034667
5043.1594871713642,0.016708188357601839,-51.278175450081292,178.67171722939469
5078.1521123276807,0.017819593661054942,-51.371617389010851,178.95873055313481
5113.3875384143312,0.016087726654473181,-51.190645607075993,178.93715343291308
5148.8674501374971,0.017285011235205084,-51.054860558844354,178.879261532844
5184.5935438929127,0.01731001957730673,-51.016576372822364,178.04137856916464
5220.5675278469798,0.017357649793610087,-50.633207963022464,177.94115483845263
5256.7911220184305,0.015043991101842735,-50.681527511588307,177.49255920128047
5293.2660583605666,0.018160783713715035,-50.533671024211358,177.55574866053348
5329.9940808440933,0.018975036816033627,-50.381375229150287,177.67091456650297
5366.9769455404767,0.017544366985733233,-50.244307045342524,178.21772403155026
5404.2164207059204,0.014444078718342728,-50.151895286069774,178.25199670551223
5441.7142868658984,0.017137013765699111,-49.976872741996551,177.02012454908558
5479.4723369002922,0.018758176809932955,-49.873447197448328,177.90058100298521
5517.4923761291284,0.01864286421589318,-49.757810402359937,178.11601489187106
5555.7762223988784,0.014309117657433368,-49.722151334161083,177.18554839903243
