#Digilent WaveForms Network Analyzer - Bode
#Device Name: Discovery
#Serial Number: SN:210244692301
#Date Time: 2017-10-25 13:08:44.288

Frequency (Hz),Channel 1 Magnitude (dB),Channel 2 Magnitude (dB),Channel 2 Phase (°)
5000.0000000000009,0.19598083773097275,-51.906186577339824,175.61823192665767
5018.4969898470044,0.19968064955273163,-51.691697443912886,174.77980537812894
5037.0624074206862,0.20080317016029789,-51.600947324818904,174.60218894704607
5055.6965058624446,0.20058723401706613,-51.539009005345292,175.48590355378965
5074.3995392501356,0.20072720296177871,-51.651809560840135,174.16419014032004
5093.1717626015661,0.20048230841574977,-51.518079535382491,175.71042258286798
5112.0134318779428,0.19896584353451877,-51.431791498096679,174.25212065154227
5130.9248039873783,0.19593593564315648,-51.475736610801704,174.47885354537692
5149.9061367883996,0.1997716128651601,-51.332920656855052,174.70424168829805
5168.9576890934359,0.20037890671918251,-51.24166988214175,175.07660704227226
5188.0797206723864,0.20104090337526709,-51.129447433082838,175.08293001175187
5207.272492256131,0.20075534527673047,-51.023540836520752,173.87452706395089
5226.5362655400968,0.20093256844972315,-51.030609243117993,174.54804485596975
5245.8713031878378,0.19982704700453718,-50.902819391295765,174.43217516117869
5265.2778688345861,0.1977541681381943,-50.97293072151264,174.38544715949413
5284.756227090882,0.20090816291837998,-50.757864593388042,174.60482293563049
5304.3066435461606,0.20058246514456854,-50.77010990760769,173.98478869811049
5323.9293847723711,0.20161945597415323,-50.603730311038682,174.64129577710162
5343.6247183276328,0.20246007235039493,-50.652431091699896,175.10461050070205
5363.3929127598512,0.20181206032337221,-50.452206102708303,174.57615775009509
5383.2342376104125,0.20078160886560767,-50.374079153439126,174.50579920960138
5403.148963417837,0.19800563697998802,-50.373641529622205,173.96548396271356
5423.1373617214713,0.19280137406687714,-50.36364963376495,174.54402105842635
5443.199705065208,0.20105356236791608,-50.261232215499831,174.53227736524872
5463.3362670011666,0.2012411162524933,-50.249456258849449,174.19999581440973
5483.5473220934637,0.20184197266780257,-50.175929928060143,174.38163153207086
5503.833145921928,0.20100328484415475,-50.048537421141141,174.01331846633994
5524.1940150858691,0.20155467304022043,-49.852688307066202,174.24864607992822
5544.6302072078561,0.19987551488616517,-50.017238801367313,174.87448052620354
5565.142000937476,0.19550645154190413,-49.95069115145499,174.1131144599361
5585.7296759551709,0.20208120978768587,-49.757937771591102,174.50412418866898
5606.3935129760202,0.20217259116686939,-49.765045501543227,173.86954628370472
5627.1337937535827,0.20234522833051438,-49.579305930923859,174.339952427188
5647.9508010837435,0.20353509960783583,-49.558751709820029,173.65726974639929
5668.8448188085449,0.20252815404233376,-49.474392386546697,174.38238143608027
5689.8161318200928,0.20177802436200373,-49.434905918912513,173.84520198213266
5710.8650260644108,0.19893529658766129,-49.413091462694851,174.17063233741104
5731.9917885453524,0.19453513861275523,-49.314811542055061,174.10608460951323
5753.1967073285214,0.20143444736043234,-49.287741774997009,173.94873039808982
5774.4800715451729,0.20255194001965318,-49.186495864105908,174.06408963497893
5795.8421713961916,0.20289636475119191,-49.215584840727395,174.36945958553258
5817.2832981560205,0.20241605676182969,-49.033091763909624,174.16385831291245
5838.8037441766483,0.20287277902299072,-48.956659422191755,173.68749847923681
5860.4038028915847,0.20285510897095294,-48.908216404921454,173.3080498836095
5882.0837688198662,0.19896652232235779,-48.807054124993044,173.33286907255507
5903.8439375700837,0.19428186507367576,-48.721612150239366,173.95522202503503
5925.6846058443889,0.20385603710613603,-48.688129846125392,173.72869475025237
5947.6060714425585,0.20356072334759051,-48.562078277999603,173.37213939429392
5969.6086332660489,0.20460901142193957,-48.604569235210604,173.32381874850086
5991.6925913220666,0.20349913516853008,-48.445578755032635,173.780165244225
6013.8582467276765,0.20397532541802005,-48.235041702567109,173.99520287328426
6036.1059017138814,0.20244544225591241,-48.342501814355131,174.22144701763898
6058.4358596297725,0.20045102990803035,-48.327419930848038,174.03483089427988
6080.848424946631,0.19449332538190198,-48.243042525611543,173.37636534825958
6103.34390326211,0.18882140347689302,-48.161777862290819,173.24298385460872
6125.9226013043917,0.20382843058035388,-47.96413910535675,173.79066981148503
6148.5848269363587,0.20386075477660778,-48.002761567801926,173.47663412629007
6171.330889159819,0.2046248692533324,-47.938481994589203,173.0316222128601
6194.1610981196764,0.20418698234253785,-47.876944534525322,173.4056031718616
6217.0757651081976,0.20404623688253729,-47.754355366234975,173.095504283075
6240.0752025692491,0.20116722563369491,-47.713489956821178,173.47424454360771
6263.1597241025393,0.19811882663991465,-47.609292251120607,173.67104155454882
6286.3296444679199,0.18995600970613757,-47.6671170999876,172.86669886108604
6309.5852795896471,0.20431832084285922,-47.544116880684527,173.36875452714253
6332.9269465607185,0.20453541696244376,-47.420531045539811,173.13052198503792
6356.3549636471871,0.20463584250136083,-47.401807386357682,173.26493465366076
6379.8696502924913,0.20462706125392183,-47.304839998919718,173.20876722898743
6403.4713271218279,0.20443156342741572,-47.194707043463055,173.91355786520984
6427.1603159464976,0.20465327519611692,-47.110135611258421,173.33637505381682
6450.9369397683186,0.20150854091505868,-47.161810110353059,173.24673027039205
6474.8015227840306,0.19606321489932771,-47.078874700091603,172.58515226441014
6498.7543903896867,0.18971592139464555,-46.948840764820403,173.06381061431227
6522.7958691851318,0.20439836955719018,-46.927353698658592,173.11254247678227
6546.9262869784106,0.20608767343057691,-46.800871473367891,173.19777978669893
6571.1459727902711,0.20530997156183772,-46.765783207330678,173.94782946311292
6595.4552568586469,0.20565604043502025,-46.733588606986231,172.98849673220792
6619.8544706431421,0.20540854033094619,-46.590678837323615,172.54374371881323
6644.3439468295674,0.20438013013678386,-46.584471308333121,173.34683679058389
6668.9240193344685,0.20075647210099268,-46.436589955690415,172.89721511676402
6693.5950233096783,0.19659572954642959,-46.394582042098406,172.90975341295589
6718.3572951469014,0.19219404934337797,-46.318675521745838,173.46249844407595
6743.2111724822762,0.20468534870004176,-46.21332398873173,172.94946795281308
6768.1569942009965,0.2058152649550006,-46.04287082053802,173.20323673548125
6793.1951004419261,0.20674933637683335,-46.044898828755777,172.84590111819836
6818.3258326022442,0.2062992113082045,-46.06425466039358,172.6411968426421
6843.5495333420849,0.20655225681125058,-45.938430899942837,171.97718292314212
6868.8665465892236,0.20573549591660575,-45.950154445848057,172.6857603655518
6894.2772175437594,0.20330733177895749,-45.848432606539006,173.14010607859527
6919.7818926828231,0.19814512220924002,-45.848764764227411,172.56587068882806
6945.380919765309,0.18951017389659017,-45.692803571258992,173.03335671468042
6971.0746478366045,0.19843656525150932,-45.62548024525082,172.48840128969968
6996.863427233352,0.20708915343157888,-45.493447684747323,172.89485579422055
7022.747609588233,0.2072572209592633,-45.400944667693459,172.38390167116745
7048.7275478347528,0.20676498602387403,-45.396668702633008,172.56777387382675
7074.8035962120721,0.20733464159189943,-45.32881327976385,172.63114316924251
7100.9761102698076,0.2073622945440533,-45.25176525088014,172.53171175433118
7127.2454468729029,0.20460847501520721,-45.156727882889015,172.25286680366531
7153.6119642064841,0.20171103043589184,-45.119785444227432,172.72753434425175
7180.0760217807474,0.19584139830584044,-45.041288549988622,172.12726533381411
7206.6379804358648,0.19584314739492684,-44.902265093270238,172.40184519380384
7233.2982023468949,0.20121022530700089,-44.90846005109988,172.49950038527842
7260.0570510287271,0.20759634532996701,-44.764232288431714,172.42316248358827
7286.9148913410354,0.20887658802965492,-44.86245930301596,172.35423650051408
7313.8720894932549,0.20845647549260971,-44.717762956461804,172.54612878598266
7340.9290130495829,0.20831895775012418,-44.617039890583854,172.28838898166183
7368.0860309339732,0.20751693193351406,-44.534143570014955,172.37808991947901
7395.3435134351803,0.20597788902082592,-44.453907829792868,172.12273845713847
7422.7018322118029,0.20227579441111165,-44.387843710178956,172.63652963832067
7450.1613602973503,0.19509205140904845,-44.397418139146808,171.6303197645201
7477.7224721053417,0.19836668987376402,-44.29073060338041,171.77283780276042
7505.3855434343895,0.20341038194991778,-44.161196229397945,172.21199710908729
7533.1509514733398,0.20843553247710667,-44.134008260647313,172.20957301881006
7561.0190748064106,0.20839459816622868,-44.075228162974767,171.83603901451474
7588.9902934183447,0.20868259061684893,-43.947126561120839,172.00896187478344
7617.064988699618,0.20949877602986283,-43.925286218763098,171.90775225756639
7645.2435434516065,0.20799369093030667,-43.870568770307315,172.44298979591056
7673.5263418918248,0.20707798288016607,-43.764843643820228,171.94729029076359
7701.9137696591615,0.20371347598233561,-43.73650201077939,172.14445688538211
7730.4062138191357,0.19770859473985386,-43.631393898001214,171.6837114398113
7759.0040628691804,0.19654966720191375,-43.55408866097514,171.84764659459984
7787.7077067439295,0.20288198191788137,-43.474016652324522,171.14187329313626
7816.5175368205446,0.20877889730151389,-43.429115578942927,171.56286751860799
7845.4339459240437,0.20940549729457936,-43.326983736971499,171.8906607623361
7874.4573283326581,0.20923316544408188,-43.240953265660181,171.72213688441082
7903.5880797832251,0.20934619173955721,-43.168936377156932,171.37052144365902
7932.8265974765545,0.21015340472997762,-43.172276169902901,171.78427963527901
7962.1732800828668,0.20964191239147478,-43.057186770283565,171.29916552963365
7991.6285277472216,0.20715112552003365,-42.983331657611132,171.16493032722374
8021.1927420949705,0.20227494547997329,-42.956437376874689,171.14354599736521
8050.8663262372484,0.19616318909782632,-42.825248801538159,171.53163369629502
8080.6496847764465,0.20044600484654523,-42.808310881129287,171.37479123968075
8110.5432238117464,0.20543773533793075,-42.645262273646686,171.16740821797845
8140.547350944652,0.20943325970072174,-42.644082559075009,171.08095174578023
8170.6624752845428,0.20940510287532108,-42.534569356886479,171.50764297315243
8200.8890074542687,0.21047043627172704,-42.477987244796424,171.28635989129702
8231.2273595957267,0.2111088934095825,-42.434159174318211,171.14066437814986
8261.6779453754898,0.21106324525503412,-42.440017993251445,171.03282217645574
8292.2411799904548,0.21017122422095055,-42.24793941660306,170.95299761352305
8322.917480173488,0.2083123849238484,-42.184247918604981,171.19296636574063
8353.7072641991308,0.20373654629038912,-42.128333518235365,171.06859473632292
8384.6109518892772,0.19767369021040479,-42.002400013664399,170.86263688771879
8415.6289646189107,0.20125309239135319,-42.00581332551657,171.20534663242802
8446.7617253218523,0.20682905286957526,-41.920438152037953,170.77590481696859
8478.009658496514,0.2097343337840657,-41.865030036042555,170.75168954068062
8509.3731902117161,0.21062750011805609,-41.759703886315833,170.95713076261998
8540.8527481124584,0.21113317366050616,-41.731613674140952,170.67620938855151
8572.448761425776,0.21243991841851526,-41.632544920849767,170.67735157991493
8604.1616609665853,0.21186132366868016,-41.547962052887605,170.83948475519972
8635.9918791435557,0.21185006526736649,-41.473055314847556,170.73682238980615
8667.9398499650215,0.21078132007408798,-41.411078891799264,170.51238864655664
8700.0060090448696,0.20754490461512218,-41.366027319142127,170.71249921205902
8732.1907936085026,0.20243344091838011,-41.263348976050132,170.5332155628488
8764.4946424987975,0.19785747519732053,-41.200149286564127,170.62652702606201
8796.9179961820773,0.20434472922080452,-41.14346606536823,170.45487482545508
8829.4612967541379,0.20946247973422524,-41.057953749395033,170.35850051513387
8862.1249879462521,0.21225285852629142,-40.983588491267213,170.42408472574067
8894.9095151312358,0.21163132435456777,-40.849909483070192,170.65909454070874
8927.815325329515,0.21197058899422874,-40.806302650861014,170.34308659075558
8960.8428672152186,0.21285034705334327,-40.762577093001163,170.0276999393204
8993.9925911223127,0.21248609054855377,-40.680149753593177,170.08030702345914
9027.2649490507156,0.21188514684744181,-40.632891998350964,170.22180148033758
9060.6603946724754,0.21097435938965897,-40.511945109309622,170.12539045922989
9094.1793833379561,0.20825333458598605,-40.46292965093798,170.4319221503944
9127.8223720820388,0.20300949467351387,-40.420760425514089,169.91039796460183
9161.5898196303679,0.19861380234074452,-40.336524990594363,170.13343051702029
9195.4821864055921,0.20576488708773766,-40.22352446390849,170.1542863154221
9229.49993453364,0.20995305592571736,-40.147008645662467,170.03454599619693
9263.6435278500376,0.21205516976981509,-40.116167797774423,169.97503120899665
9297.9134319062141,0.21308991959205731,-40.043698684311366,169.69765888473626
9332.310113975871,0.21322392582075547,-39.956301676201129,170.01214037524358
9366.8340430613316,0.21393934260716541,-39.891008434026716,170.11465197368773
9401.485689899946,0.21432751358071556,-39.796310955739443,169.69978803553957
9436.2655269705101,0.21435444060310188,-39.701301278479811,169.56332134192581
9471.1740284997068,0.213650095843511,-39.649632515484647,169.60874323690405
9506.2116704685777,0.21276306974379872,-39.599613535682913,169.6554175363967
9541.3789306190029,0.20805917330549972,-39.492654278311036,169.58617084703195
9576.6762884602194,0.201694263488151,-39.404452772176668,169.73137991404786
9612.1042252753559,0.20325609536627748,-39.325541341764165,169.50546227231078
9647.6632241280022,0.20834264414183556,-39.277769564666251,169.38465654754205
9683.3537698688033,0.21255091037797968,-39.223882118581848,169.51028935885867
9719.1763491420443,0.21398351894684436,-39.139976225785247,169.45313920522383
9755.1314503923077,0.21432876189139988,-39.012459221867928,169.48791788606968
9791.2195638711255,0.21415050464977536,-38.998856236854365,169.28667467782768
9827.4411816436623,0.21482880250264375,-38.923552178389031,169.47811901248417
9863.7967975954452,0.21460026153534423,-38.784168551890119,169.22530830250895
9900.2869074390401,0.21461855556254744,-38.741527519715035,169.03847868504377
9936.9120087209085,0.21497289838707731,-38.654443308963579,169.24794324402046
9973.6726008280839,0.21288060761801372,-38.628719709408948,169.17325842374828
10010.569184995051,0.20988697445730894,-38.551687299495903,169.1782535766489
10047.602264310572,0.20438684116786116,-38.443839447572927,168.98380855659809
10084.772343724497,0.2023173389682982,-38.37462292413236,168.89691345136032
10122.079930054744,0.20899239603518135,-38.342623009554202,168.80331276101282
10159.525531994101,0.21286240425762434,-38.248701356668057,168.63043504943818
10197.10966011723,0.21489817725284105,-38.16804166405403,168.88043154653136
10234.832826887628,0.2157997284926344,-38.109957608467418,168.74370862301748
10272.695546664561,0.21571091422931588,-38.013981062140843,168.57252884840565
10310.698335710169,0.21535378366987151,-37.909202253783327,168.71136008132578
10348.841712196399,0.2151919993994782,-37.835656415095706,168.51462315727525
10387.126196212143,0.21648639177353174,-37.770756361000124,168.44100332631322
10425.552309770324,0.21579594719630185,-37.703856738570991,168.35711258834641
10464.120576814963,0.21622366753306824,-37.652798473408467,168.40639434807821
10502.831523228397,0.21403459226034341,-37.551860475112825,168.48440809561285
10541.685676838386,0.21046337677390375,-37.464454316663321,168.405838992214
10580.683567425336,0.20321805454527789,-37.402555047652385,168.26021208280852
10619.825726729547,0.20424393434822485,-37.305680854625983,168.34894767327438
10659.112688458394,0.21027240402375416,-37.223498694413607,168.1284458518997
10698.54498829369,0.21461330536724027,-37.149383660737122,168.02958462229168
10738.123163898927,0.21690320984522032,-37.100794888644607,168.08328215552311
10777.847754926621,0.2175709001050358,-37.006194646541239,167.91016330661327
10817.719303025711,0.21703213173567534,-36.935435952972384,168.02513233554035
10857.738351848866,0.21643732706038404,-36.810642209869819,167.70466906434999
10897.905447059982,0.21647017188344159,-36.797279043663124,167.87009616630996
10938.22113634155,0.21692384540875173,-36.729099592272007,167.88225250161855
10978.685969402186,0.21707100060541018,-36.63021875122508,167.69566371463205
11019.300497984088,0.21752801801189736,-36.574877624513697,167.82912483127015
11060.06527587054,0.21694742276826146,-36.470378967908005,167.54804675843079
11100.980858893534,0.21415298521827764,-36.384146115970978,167.56900039787277
11142.047804941276,0.20976220746825455,-36.283427295871093,167.49591806415387
11183.266673965842,0.20296836598355128,-36.223887663486551,167.66965515433753
11224.638027990783,0.20817040788856628,-36.178426599598048,167.43392402666302
11266.162431118784,0.2133267325528766,-36.093317403753971,167.32734429218323
11307.840449539402,0.21642313403231461,-36.012442648965845,167.3267891756762
11349.67265153673,0.21834825812532976,-35.908988746393064,167.11749123489781
11391.659607497188,0.21834562560168419,-35.848067703935499,167.15647084715786
11433.801889917273,0.21831634599801436,-35.749277585947091,167.08497301400655
11476.100073411357,0.21780652200248135,-35.679924931517846,167.18985086863836
11518.554734719575,0.21808841021475078,-35.600429946302071,166.90941481901524
11561.166452715619,0.2180059683709365,-35.506744853946856,167.01639960481867
11603.935808414701,0.21840680062785506,-35.45671127901408,166.82133522752756
11646.86338498141,0.21824776639089324,-35.320451548154466,166.8818770309353
11689.949767737693,0.21843452413553449,-35.259148376444948,166.7943411793114
11733.195544170858,0.21762029309945852,-35.198327041188676,166.67733294007772
11776.601303941539,0.21370874300228712,-35.076766429318283,166.63330347231789
11820.167638891782,0.20825713951979224,-35.037042653016911,166.58090522941689
11863.89514305308,0.20631696968006213,-34.948615532061666,166.62259222534672
11907.784412654466,0.2119295313923299,-34.872846153953319,166.42996886779707
11951.836046130702,0.21717263982207993,-34.780541796140348,166.32100088032055
11996.050644130361,0.21877948873912006,-34.664069873888977,166.25947171188574
12040.428809524086,0.21892850699474176,-34.617867215477617,166.33127010497779
12084.971147412758,0.2197506463049245,-34.539088053451437,166.09977712937743
12129.678265135757,0.21904387488942284,-34.467645789794815,166.24597012057828
12174.550772279285,0.22000519268317334,-34.367353532254661,165.93554036809854
12219.589280684613,0.21982094293377372,-34.298895684060263,166.04880398943413
12264.794404456488,0.21846699040315432,-34.23542670185919,165.91595513978135
12310.166759971453,0.22001067849280859,-34.150808413125347,165.81540732903198
12355.706965886275,0.22009284334451287,-34.038069872509858,165.87867500079727
12401.415643146383,0.21992205603217113,-33.970880986943357,165.73592756976592
12447.293414994327,0.21868420736965336,-33.877287441747335,165.66062468455092
12493.340906978292,0.21723020852520186,-33.79802914453682,165.60300653016435
12539.5587469606,0.21180622608197902,-33.704572563441928,165.52350898084063
12585.947565126286,0.20488520840342922,-33.635101135366412,165.36082266788782
12632.507993991696,0.21042549254604856,-33.556712505529447,165.51074362655604
12679.240668413102,0.21644337450757456,-33.501174630318133,165.29015390166919
12726.146225595372,0.21888302815568128,-33.385946790440656,165.37214837189345
12773.225305100636,0.22083822584605955,-33.298162242016495,165.30691529188579
