#Digilent WaveForms Network Analyzer - Bode
#Device Name: Discovery2
#Serial Number: SN:210321A35FCC
#Date Time: 2019-11-11 16:42:07.681
#Start: 40000 Hz
#Stop: 70000 Hz
#Steps: 151
#Wavegen: Wavegen1
#Amplification: 1 X
#Settle: 10 ms
#MinPeriods: 16 
#Channel: Channel 1
#Range: 5.42537 V
#Offset: 0.000183761 V
#Relative: no
#Channel: Channel 2
#Range: 5.47028 V
#Offset: -7.92091e-07 V
#Relative: yes

Frequency (Hz),Channel 1 Magnitude (dB),Channel 2 Magnitude (dB),Channel 2 Phase (*)
40000.00000000001,0.0103912362126193,-16.75229915223026,-98.13207670367574
40149.5095964705,0.004350786533892299,-16.66257077158726,-98.21472348277247
40299.57802092693,-0.002858246318107198,-16.56075062197213,-98.29226176449342
40450.20736212294,0.008005941840016118,-16.45423451389613,-98.41365544223578
40601.39971661942,0.01140364553048728,-16.35738667813379,-98.47456903375206
40753.15718881365,0.01449699808077618,-16.25413981875755,-98.59306117367942
40905.48189096861,0.01645429430185459,-16.14820526110748,-98.66481263463857
41058.37594324237,0.01453247393127038,-16.04246114642863,-98.78954863664939
41211.84147371758,0.01449128645174109,-15.93534342571062,-98.88867214054088
41365.88061843113,0.01396360380958027,-15.8330313673009,-98.95572303351287
41520.49552140384,0.01461142773605411,-15.7199901351614,-99.07015403949023
41675.68833467035,0.01519039607152057,-15.61527139937078,-99.19386284294745
41831.46121830903,0.01436625180878589,-15.5063262239257,-99.34051148135858
41987.81634047205,0.01615458439129827,-15.38644003582691,-99.44240565838896
42144.75587741559,0.01662482144568212,-15.27641834845674,-99.55213870790828
42302.28201353009,0.01325782185035762,-15.16178963850093,-99.67132017434736
42460.3969413707,0.0124295009218509,-15.04906226998742,-99.80827921661643
42619.10286168774,0.006943564842680635,-14.93112378901355,-99.92518760732435
42778.40198345739,0.002020781859664978,-14.80939874473511,-100.0499515827773
42938.29652391238,0.008318534150145291,-14.68788390974075,-100.1853575666519
43098.7887085729,0.01504759093042402,-14.56735864413791,-100.3493342394572
43259.88077127756,0.017530570169318,-14.4455247083103,-100.4961709586875
43421.57495421446,0.0179671565456031,-14.31902037997906,-100.5990750943899
43583.87350795241,0.01651468411047475,-14.19318953467979,-100.7714162355559
43746.7786914723,0.01683702565814491,-14.0661767098812,-100.9524835701533
43910.29277219846,0.01674396800594048,-13.93677103192243,-101.0564131768673
44074.41802603028,0.01942370195379738,-13.80480314021319,-101.2607945168531
44239.15673737389,0.01665283633032965,-13.67117879832112,-101.4406518190235
44404.51119917389,0.0188848675150714,-13.53353497499983,-101.5903115615854
44570.48371294535,0.01668843386613817,-13.39668462993559,-101.7470688909354
44737.07658880579,0.01723806090951,-13.25412692564975,-101.9434771916216
44904.29214550735,0.01220548547094774,-13.11453796581554,-102.1281332475343
45072.13271046906,0.007280095706976179,-12.97004512773776,-102.3589153733182
45240.60061980924,0.005831015572304282,-12.82216119067207,-102.5717472029113
45409.69821837801,0.01421083443569769,-12.67759145169498,-102.7627616522176
45579.42785978994,0.017646211802363,-12.52450708619015,-102.9870664325144
45749.79190645678,0.01945325140832003,-12.37355203123019,-103.2135583206175
45920.79272962037,0.0199682907125687,-12.22057491252845,-103.457313032364
46092.43270938566,0.0183376554877808,-12.05914367279695,-103.713109670316
46264.71423475374,0.01975934949111708,-11.89756506617206,-103.9387836177932
46437.63970365527,0.01847110301080101,-11.7356324062961,-104.2239641772808
46611.21152298368,0.01994779204685913,-11.56469432915562,-104.4947459674046
46785.43210862875,0.01938705053008872,-11.40124109153686,-104.7553140917638
46960.30388551022,0.02182090658662714,-11.23099772500762,-105.0583390478237
47135.8292876116,0.01877880775903225,-11.0512264675852,-105.3428988539157
47312.01075801394,0.01864188770187735,-10.87549371644182,-105.6932048759094
47488.85074892989,0.01204567740459837,-10.69222286682884,-106.0207658493577
47666.35172173791,0.008506344267187344,-10.50511749059028,-106.3607970174951
47844.51614701636,0.01615667766293014,-10.31803384199362,-106.7332915430489
48023.34650457803,0.01879731964025737,-10.12446292281916,-107.0923374770667
48202.8452835046,0.02134732031025523,-9.928840686470522,-107.4711926941003
48383.01498218127,0.02152176767884824,-9.723033108589801,-107.9146782977906
48563.85810833158,0.02162573794605213,-9.525594197794302,-108.3474505484302
48745.37717905226,0.02152209249534324,-9.313590242659705,-108.7884103821606
48927.57472084833,0.01914316840059124,-9.100629145608284,-109.2654433152303
49110.45326966819,0.02157111867381311,-8.882110028399271,-109.7759649691688
49294.01537093898,0.02020325564095912,-8.658410147559918,-110.3071589408915
49478.26357960198,0.02326446321550034,-8.43313763191423,-110.8645755386159
49663.20046014816,0.02172885009997079,-8.199138872473329,-111.428746503545
49848.82858665393,0.02089458828389047,-7.959641931840712,-112.0448639364753
50035.15054281687,0.0194049332775233,-7.715331128379744,-112.7037551874936
50222.16892199181,0.0120768300786506,-7.465932349879338,-113.4078845477132
50409.88632722681,0.009636267970322755,-7.212364448350103,-114.1313069528554
50598.30537129951,0.01712521148517942,-6.949189483770617,-114.8902993281385
50787.42867675336,0.02056665700152909,-6.678055580675961,-115.7246780033959
50977.25887593426,0.02243757737285274,-6.404617566864691,-116.5994566341258
51167.79861102709,0.02379875919887068,-6.123180350631452,-117.5391191327985
51359.05053409256,0.02317255500308064,-5.832947156796214,-118.5485410864772
51551.01730710407,0.02368273948405335,-5.537618576993305,-119.6424762052139
51743.70160198479,0.02352523805190852,-5.235064972171283,-120.767771213999
51937.10610064487,0.02354885296981474,-4.927564315337991,-122.011862484194
52131.2334950187,0.02301314451288972,-4.608858285017224,-123.3499550328848
52326.08648710244,0.02462312293362498,-4.290169348278912,-124.7794593500144
52521.66778899162,0.02398927125419415,-3.958981239531403,-126.3174323882277
52717.98012291888,0.02272782039695872,-3.622842057092352,-127.9806929429649
52915.02622129182,0.02205332693452385,-3.281205191816451,-129.7928411113522
53112.8088267311,0.0199241149682005,-2.938030919206321,-131.7499658271043
53311.33069210859,0.01387779106568594,-2.590489575060336,-133.8639675203471
53510.59458058565,0.01493864729283647,-2.240526497881903,-136.1593023630604
53710.60326565165,0.02053584006288786,-1.894617612574695,-138.6578385761512
53911.35953116252,0.02316386385866422,-1.550834999089588,-141.3491526678487
54112.86617137954,0.02497568066457137,-1.21299606309162,-144.2752581600205
54315.12599100816,0.0255395161513508,-0.8905565522129901,-147.4240272911329
54518.14180523717,0.02637447718450643,-0.5822922827221191,-150.8105513176385
54721.91643977774,0.02613095077538832,-0.2973652963278007,-154.4436940673838
54926.45273090283,0.02619561996588044,-0.04127116867714327,-158.2955398613063
55131.75352548667,0.0263707816277671,0.180796878995187,-162.3507007855773
55337.82168104434,0.02617390117100965,0.3613542864429217,-166.6032226339825
55544.66006577158,0.0275927234116847,0.4956440556100682,-170.9884321866676
55752.2715585847,0.02599876494267047,0.5806215818898429,-175.4940763620494
55960.65904916064,0.02522101306151483,0.6097342087300532,179.9734513905537
56169.82543797723,0.02135777627143326,0.5903588479375049,175.4450373301059
56379.7736363535,0.01444349425257525,0.5154184117385919,170.9685477137862
56590.50656649024,0.01809196481216479,0.3918424466141213,166.6085599377491
56802.02716151067,0.02401438525094198,0.2241909368060292,162.4060455025801
57014.33836550126,0.02716979381112778,0.01629872925370178,158.3816335600892
57227.44313355273,0.02851451022992488,-0.2254764254233169,154.5821723091227
57441.34443180114,0.02792466894578779,-0.4948136345155248,150.9864973567363
57656.04523746918,0.02858601574033317,-0.7879136759287968,147.6102958145801
57871.54853890766,0.02743262877963185,-1.09689272500937,144.4832458361483
58087.85733563704,0.02872167007844711,-1.418176023529903,141.5612840256485
58304.97463838923,0.0290830227999307,-1.751193663830384,138.8500521314611
58522.90346914944,0.02839597731346511,-2.08686338923694,136.3489589194928
58741.6468611983,0.02957736763973579,-2.424100455962104,134.0391436660298
58961.20785915406,0.02732586200291244,-2.76300351071872,131.8856231291169
59181.58951901495,0.02534316153619299,-3.100528832655097,129.8935015269237
59402.79490820173,0.01913864618935269,-3.435149763559979,128.0690123567188
59624.82710560037,0.01852566549855756,-3.76489171615268,126.3395619789103
59847.68920160491,0.02686374559464409,-4.092609166613943,124.7728485022092
60071.3842981605,0.02943528271156538,-4.410886029923256,123.3008473982162
60295.91550880657,0.0306713455063887,-4.725080508314329,121.9353240127064
60521.2859587201,0.02908501611492787,-5.031320695654329,120.6621014999247
60747.49878475921,0.03144386556055015,-5.332409667530169,119.4873668904164
60974.55713550674,0.03100569064892173,-5.62802900824135,118.355529549907
61202.46417131418,0.03016448982880156,-5.916773273821175,117.3175596302815
61431.22306434552,0.03159192902666242,-6.19421091154657,116.3615667258059
61660.83699862152,0.03330782683764143,-6.475692404974055,115.44237583914
61891.30917006395,0.03052789933456646,-6.742068189339308,114.5835449884916
62122.64278654013,0.02921541860266288,-7.001659395916313,113.7937358970313
62354.84106790755,0.02429287298050104,-7.258152773487325,113.0258763314178
62587.90724605868,0.01720886811502999,-7.510984578708799,112.2963968079396
62821.84456496597,0.02641645138215395,-7.758717250684494,111.6171740238092
63056.65628072699,0.03079317917051512,-8.000109831621195,110.9763665594715
63292.34566160976,0.03330114972709194,-8.234534620022359,110.3534147846086
63528.91598809823,0.0342680130219289,-8.464321195477604,109.7964331756879
63766.37055293796,0.03366444918268833,-8.687512411401672,109.24898704326
64004.71266118192,0.03287704366292463,-8.908129418459952,108.7373211816882
64243.94563023651,0.03510139480443097,-9.123739970517367,108.2468339962415
64484.07278990775,0.03399496403238231,-9.332239297153656,107.7705183455453
64725.09748244759,0.03532184779150591,-9.542383000138503,107.3391363368025
64967.02306260046,0.03370114242348297,-9.744032464828846,106.9059977493186
65209.85289764994,0.03387046928660981,-9.944652395683285,106.4833148899676
65453.59036746565,0.03434548527545193,-10.13545135904489,106.0953998353654
65698.23886455029,0.0341738860465861,-10.3217786930061,105.7373378265299
65943.80179408683,0.03534847065132318,-10.51503600774795,105.3886377463682
66190.28257398595,0.0350303579579871,-10.69898045920717,105.0295974774191
66437.68463493358,0.0331533941139864,-10.87958028119251,104.7027270117268
66686.01142043866,0.03206549781209615,-11.05454168116443,104.3788575349537
66935.26638688109,0.02660279293730829,-11.23082781490367,104.0885736309239
67185.4530035598,0.02021912970673882,-11.39855835925199,103.7817115261582
67436.57475274106,0.02930633555283782,-11.56319616768051,103.523633938695
67688.63512970693,0.03398314105742702,-11.72969356427476,103.2590168904252
67941.63764280398,0.03641540387657933,-11.89165915499752,103.0078422751382
68195.585813492,0.03726651623212014,-12.05282509838803,102.7319490336572
68450.48317639311,0.03877568433433564,-12.21150925471385,102.4771249770547
68706.33327934095,0.03763348398000144,-12.36388191492183,102.2570337058511
68963.13968343001,0.0357387425792908,-12.51220894526369,102.0330534869358
69220.90596306522,0.03720833691106601,-12.66340897509506,101.8127103149478
69479.63570601173,0.0380616677057122,-12.81280121644771,101.6098030623633
69739.33251344482,0.03800469133892406,-12.95057381432428,101.4179104788545
70000,0.04104838533445836,-13.09354947633258,101.1925857143639
