#Digilent WaveForms Network Analyzer - Bode
#Device Name: Discovery2
#Serial Number: SN:210321A35FCC
#Date Time: 2019-11-11 16:41:04.415
#Start: 40000 Hz
#Stop: 70000 Hz
#Steps: 151
#Wavegen: Wavegen1
#Amplification: 1 X
#Settle: 10 ms
#MinPeriods: 16 
#Channel: Channel 1
#Range: 5.42537 V
#Offset: 0.000183761 V
#Relative: no
#Channel: Channel 2
#Range: 5.47028 V
#Offset: -7.92091e-07 V
#Relative: yes

Frequency (Hz),Channel 1 Magnitude (dB),Channel 2 Magnitude (dB),Channel 2 Phase (*)
40000.00000000001,0.009558315694308601,-36.05861547825599,166.1020829072172
40149.5095964705,0.00317226821416373,-35.85473207524635,165.9739397130505
40299.57802092693,-0.003230529230516288,-35.65541309596212,166.0631956703011
40450.20736212294,0.002875656083547258,-35.43969680904519,166.0308698543575
40601.39971661942,0.007577761043895006,-35.24668704152096,165.7123648311632
40753.15718881365,0.01340482453543416,-35.11940520730518,165.4917704402933
40905.48189096861,0.01253788019681754,-34.92342234681501,165.0498060461148
41058.37594324237,0.01410323100111048,-34.77271790888817,165.3224225490454
41211.84147371758,0.01376159030725719,-34.5488625988942,165.1451081225728
41365.88061843113,0.01243349418264176,-34.32993589510264,165.3521960177951
41520.49552140384,0.0131503206914919,-34.1872657532594,164.6824207932607
41675.68833467035,0.01331756630582194,-34.02527321541686,164.7532057512686
41831.46121830903,0.01248998185386272,-33.81678707652929,164.4046097445192
41987.81634047205,0.01475352271964031,-33.58012828819256,164.1761990895504
42144.75587741559,0.01362396024240406,-33.46347245772221,164.0612821614694
42302.28201353009,0.01092006899312945,-33.2164975393392,163.8304306456346
42460.3969413707,0.01080535137006221,-33.00280803962083,163.3525710288475
42619.10286168774,0.006459665912128299,-32.76741685615897,163.4660117358364
42778.40198345739,0.0007934186100950104,-32.60988971257603,163.298599797612
42938.29652391238,0.01050565533349995,-32.39679443570188,162.814229405537
43098.7887085729,0.01545046951449652,-32.20227479213699,162.8534323654433
43259.88077127756,0.01621982549050632,-31.92134557976362,162.7235085397247
43421.57495421446,0.01401084130445561,-31.7765167058373,162.409264849499
43583.87350795241,0.01681545121107607,-31.51166636045588,162.0521329852702
43746.7786914723,0.01364331364996657,-31.32412393210057,161.8050100662403
43910.29277219846,0.01522219125245814,-31.12740586264956,161.6671052723103
44074.41802603028,0.01700897034753935,-30.88122891669065,161.3669856923477
44239.15673737389,0.01575212046449214,-30.63883587270564,161.1626595500548
44404.51119917389,0.01642336978072034,-30.41230690333333,161.0281596165462
44570.48371294535,0.01663739362012585,-30.20420210330372,160.7434314590072
44737.07658880579,0.01437299374532054,-29.94885254677701,160.463688344974
44904.29214550735,0.01122129212073103,-29.69611470175476,160.1009812045158
45072.13271046906,0.004038049352633665,-29.45543396154029,159.8087800261282
45240.60061980924,0.00469906686947911,-29.2296715774232,159.5383525012705
45409.69821837801,0.01205755004576378,-28.98825411479411,159.1168657603738
45579.42785978994,0.01742351356772238,-28.72481571522118,158.8774689996042
45749.79190645678,0.01731448659248409,-28.4766773015447,158.5259611956653
45920.79272962037,0.01772839147489525,-28.21428200063717,158.2839591243918
46092.43270938566,0.01721371288554151,-27.95454174399068,157.7629184493605
46264.71423475374,0.01749985257029355,-27.69639830682577,157.6315694006499
46437.63970365527,0.01519430234131824,-27.41398779100167,157.216312283573
46611.21152298368,0.01602913142409141,-27.13152697823034,156.7691371418038
46785.43210862875,0.02111845027298219,-26.83610380912105,156.3688500344903
46960.30388551022,0.01887143054579345,-26.57733109994659,155.9540170985558
47135.8292876116,0.01648221687241698,-26.26688279093833,155.5758927868392
47312.01075801394,0.01661279787115056,-26.00337992966775,155.0915516921619
47488.85074892989,0.007484972708318677,-25.67806315559308,154.5967941081018
47666.35172173791,0.005286666178418573,-25.39970505979415,154.194617692167
47844.51614701636,0.0134470481249166,-25.08158980231157,153.561090233261
48023.34650457803,0.01805296952735443,-24.77353485686124,153.1614013514954
48202.8452835046,0.01957244172985506,-24.45799152479425,152.6313880093082
48383.01498218127,0.02107709767558953,-24.13901743197523,152.0333979867958
48563.85810833158,0.01990092077537386,-23.79839217576533,151.496205320345
48745.37717905226,0.01841354525010141,-23.46187692902969,150.8287016650747
48927.57472084833,0.01904636527327888,-23.12159364862027,150.3165910544643
49110.45326966819,0.01931213962135361,-22.77977400670029,149.6078211462598
49294.01537093898,0.01955459860868274,-22.43843347254009,148.8031489434171
49478.26357960198,0.02157182577347582,-22.07442426843873,148.2096208457311
49663.20046014816,0.02191859538414671,-21.70297451662392,147.4242823634123
49848.82858665393,0.01924602514057449,-21.32306241376892,146.6166297477218
50035.15054281687,0.01609686829814535,-20.94369471746271,145.7882475062235
50222.16892199181,0.01126931877924691,-20.55318636545845,144.8673162973818
50409.88632722681,0.008349442182521222,-20.14923648915327,143.9449857650581
50598.30537129951,0.01405592969448534,-19.74692139628217,142.9757339373515
50787.42867675336,0.02065776512845361,-19.34203272285299,141.8606721521974
50977.25887593426,0.02229568894530902,-18.91933837453424,140.8244177366158
51167.79861102709,0.02179309472461604,-18.47101192220719,139.6604993814051
51359.05053409256,0.02267446423518607,-18.04276372678019,138.4649240674656
51551.01730710407,0.02102597545929918,-17.5922116998617,137.0936970712278
51743.70160198479,0.02062005058515896,-17.11891410944329,135.7083746051942
51937.10610064487,0.02181751536683259,-16.65831601619907,134.2416358978539
52131.2334950187,0.02071345236440619,-16.17455293325192,132.6842132215788
52326.08648710244,0.02173791169623329,-15.68930899060615,130.8747570791278
52521.66778899162,0.02261333368311918,-15.18657279266319,129.0770855777099
52717.98012291888,0.02413614698744755,-14.6806307756603,127.0924965727748
52915.02622129182,0.02086008446009892,-14.17069713251225,124.959795098725
53112.8088267311,0.01804298298229172,-13.63335471427752,122.7055010842901
53311.33069210859,0.01280896653560002,-13.11049385926221,120.2327582320335
53510.59458058565,0.0132519391501759,-12.57335610383127,117.6132750280102
53710.60326565165,0.02051807844985385,-12.03810451269939,114.7755611489038
53911.35953116252,0.02321163643278442,-11.49410473419471,111.664134336511
54112.86617137954,0.02420488235395118,-10.95913376844583,108.3537578802831
54315.12599100816,0.02405317333882242,-10.43462247628977,104.7801400328308
54518.14180523717,0.02447280769123172,-9.918593180415826,100.9346472989465
54721.91643977774,0.02360957418644588,-9.422344259099976,96.87171807996933
54926.45273090283,0.02507688866814585,-8.950551362320629,92.52428171949416
55131.75352548667,0.02540935058665508,-8.505556237222281,87.95775547352468
55337.82168104434,0.0251380879442734,-8.096941618276578,83.17928446878544
55544.66006577158,0.02633852551077438,-7.734085476593526,78.19516630519523
55752.2715585847,0.02625563230191533,-7.407407711646953,73.0990765624078
55960.65904916064,0.02485739854322809,-7.133309874903785,67.92590104146518
56169.82543797723,0.01962701224054287,-6.903800873937005,62.70421071905253
56379.7736363535,0.0130371310286938,-6.727133193444433,57.48615146641923
56590.50656649024,0.01828812812340733,-6.59066664483166,52.34276688947659
56802.02716151067,0.0228146158622396,-6.494166341967277,47.32927459026551
57014.33836550126,0.02450679051619166,-6.42708751887474,42.42129631591226
57227.44313355273,0.02617814765291132,-6.39432898832489,37.66178769351129
57441.34443180114,0.02824012727527077,-6.382913887647401,33.07047645803817
57656.04523746918,0.02866956196164298,-6.389187439486538,28.63851945456621
57871.54853890766,0.02580603989593045,-6.400114641105067,24.36517958405699
58087.85733563704,0.02917660358622158,-6.424902175166599,20.22376931807437
58304.97463838923,0.02806594295709405,-6.450472279381591,16.21742511487578
58522.90346914944,0.02719081543918785,-6.471178041875769,12.32943544714031
58741.6468611983,0.02645440262037019,-6.492476000710763,8.504001748393616
58961.20785915406,0.02937619097917708,-6.506840874721921,4.744915665584941
59181.58951901495,0.02563847956423274,-6.515306386730455,1.040180295064125
59402.79490820173,0.01913876516821764,-6.514170757012741,-2.670633673885163
59624.82710560037,0.01935920990918525,-6.510478925313762,-6.404641148907793
59847.68920160491,0.02442838002886751,-6.499890365969564,-10.15347814298403
60071.3842981605,0.02905090222060225,-6.481982281306737,-13.97322184142264
60295.91550880657,0.0300209640410656,-6.460616423881911,-17.88423651689448
60521.2859587201,0.0303524390062557,-6.44088683852979,-21.90383015682926
60747.49878475921,0.03071113751148933,-6.422969974834186,-26.01862252545563
60974.55713550674,0.0296918253055117,-6.410183036022898,-30.30724971936601
61202.46417131418,0.0290318241343751,-6.408810743349368,-34.74625766679185
61431.22306434552,0.03144655998308404,-6.426860142208644,-39.32868103747607
61660.83699862152,0.03175034781640604,-6.471226253465529,-44.05454956511697
61891.30917006395,0.02962336626068487,-6.537281198245283,-48.95319056839941
62122.64278654013,0.02850080734195114,-6.642386552728574,-53.93546162659446
62354.84106790755,0.02423156082215547,-6.78732331267706,-59.02608749052867
62587.90724605868,0.01795559187795105,-6.972054437845147,-64.1687522755723
62821.84456496597,0.02682889064665094,-7.210265535083274,-69.27865308498245
63056.65628072699,0.02930075354021628,-7.49070628360598,-74.36996673250783
63292.34566160976,0.0322852962604501,-7.815032814009405,-79.35677648109099
63528.91598809823,0.03323286547806666,-8.188426136721391,-84.16358262339686
63766.37055293796,0.03186465745268077,-8.589794440056966,-88.82553006616722
64004.71266118192,0.0307055186492418,-9.032451186575928,-93.23663448193813
64243.94563023651,0.03122803260271444,-9.497951343611577,-97.46490908402544
64484.07278990775,0.03306396995904787,-9.989953479006866,-101.4182563536721
64725.09748244759,0.03282667061385101,-10.49375639361884,-105.1143817626744
64967.02306260046,0.03352717374675128,-11.01490197135337,-108.5852643332378
65209.85289764994,0.03174568844936108,-11.53941671104184,-111.8230115673723
65453.59036746565,0.03300617448058901,-12.0643472935969,-114.8188309915325
65698.23886455029,0.03392253942797568,-12.58918841985717,-117.6570959663134
65943.80179408683,0.03350652600522587,-13.1082969347747,-120.2076121880734
66190.28257398595,0.03597329600481208,-13.63591196755754,-122.6398288617882
66437.68463493358,0.03288305468083252,-14.15152272155291,-124.8926682060331
66686.01142043866,0.03010408559914123,-14.65974867942652,-127.0241999266762
66935.26638688109,0.02507506672563948,-15.16277898486176,-128.9250524290492
67185.4530035598,0.02021145002406581,-15.64937042177583,-130.778950245791
67436.57475274106,0.02843874204181758,-16.13126839719599,-132.4664075164559
67688.63512970693,0.03020410562042178,-16.60924793556241,-134.0592358628721
67941.63764280398,0.03462089598016221,-17.07027928839538,-135.4722983664506
68195.585813492,0.03617080326854949,-17.52734556669288,-136.9662324722071
68450.48317639311,0.03469674103428748,-17.96179423588285,-138.2414529397796
68706.33327934095,0.03706968992282566,-18.41096539803744,-139.4984452025847
68963.13968343001,0.03505112221143059,-18.83265906442981,-140.7535160511158
69220.90596306522,0.03510810389569557,-19.26251119490104,-141.8179759260557
69479.63570601173,0.0362367828752361,-19.67781929618443,-142.8252327328332
69739.33251344482,0.03657122891509668,-20.06638721423069,-143.9303617133554
70000,0.03789342143735354,-20.46434855559477,-144.83549087963
