#Digilent WaveForms Impedance Analyzer
#Device Name: Discovery2
#Serial Number: SN:210321A35FCC
#Date Time: 2019-11-11 16:50:07.959
#Trace: Trace
#Start: 10000 Hz
#Stop: 100000 Hz
#Steps: 151
#Order: W1-C1-R-C2-DUT-GND
#Resistor: 100000 O
#Average: 1
#ProbeResistance: 1.04e+06 O
#ProbeCapacitance: 4.3e-11 F
#Compensation:none
#Wavegen: Wavegen1
#Amplitude: 1 V
#Offset: 0 V
#Amplification: 1 X
#Settle: 0.01 s
#MinPeriods: 16
#Scale: Logarithmic
#Channel: Channel 1
#Range: 5.42537 V
#Offset: 0.000183761 V
#Attenuation: 1 X
#Channel: Channel 2
#Range: 5.47028 V
#Offset: -7.92091e-07 V
#Attenuation: 1 X

Frequency (Hz),Trace th (*),Trace |Z| (Ohm)
10000,3.194523602448248,79106.11056894604
10154.6899243308,3.244898068907912,79082.6218579774
10311.77274593055,3.284067813252719,79081.06708017744
10471.285480509,3.327314488300367,79078.45233750163
10633.26571637161,3.377078055447305,79058.59373841557
10797.7516232771,3.413215656121365,79068.64795710133
10964.78196143185,3.474049883547999,79047.43510821214
11134.39609062361,3.525790819420807,79028.7978388659
11306.63397949639,3.566975038541513,79013.9750055639
11481.53621496883,3.627230189459851,79002.69711960023
11659.14401179832,3.665945032061245,78979.57908770342
11839.49922229302,3.717530225613067,78976.93830849594
12022.64434617413,3.773266814185537,78956.72877362461
12208.62254059071,3.825346059520251,78917.18813480088
12397.47763028944,3.882354322264507,78920.87065061166
12589.25411794167,3.920721999499204,78908.30497905715
12783.99719463024,4.002780082658767,78908.72877923583
12981.75275049849,4.047789298188547,78866.54856667783
13182.56738556407,4.10896344726117,78830.18603010035
13386.48842069993,4.164721711368612,78834.33225471601
13593.56390878526,4.217223072548901,78806.88055727439
13803.84264602885,4.285395643793348,78789.87365593648
14017.3741834677,4.351201415538915,78775.44413511983
14234.20883864342,4.422417413125831,78734.48715659096
14454.39770745928,4.476080459484778,78708.75793455067
14677.99267622069,4.55084517003538,78659.18088456769
14905.04643386196,4.600744534430547,78657.66422622485
15135.61248436208,4.660222008588259,78619.3224829855
15369.74515935271,4.712108512799396,78613.02782465532
15607.49963092111,4.8066584626642,78545.54506564677
15848.93192461113,4.876882910741622,78534.65163846371
16094.09893262535,4.949731218651998,78517.40581284037
16343.05842723138,4.995748168782392,78490.5988796836
16595.86907437561,5.084722589989096,78461.23413766852
16852.59044750751,5.151578216477891,78400.73822487378
17113.28304161781,5.220358325578946,78362.79603803543
17378.00828749375,5.295321722457221,78327.32928547062
17646.828566195,5.38024809536624,78318.70125791666
17919.80722375334,5.453782020855532,78254.49722758579
18197.00858609984,5.540852650623592,78247.333767929
18478.49797422291,5.612214234589897,78174.73694580214
18764.34171956085,5.701611554131556,78131.16611305535
19054.60717963247,5.758139992800952,78107.63386188148
19349.36275390952,5.851281761582785,78049.39437279034
19648.67789993468,5.942101000974294,77994.45546550665
19952.6231496888,6.00854810905786,77949.00340938853
20261.27012621144,6.110643164396013,77936.73100929886
20574.69156047839,6.205437484860211,77865.86703128109
20892.9613085404,6.272525284102414,77784.01788975879
21216.15436892685,6.36646220781247,77769.18493787083
21544.34690031883,6.488955232292291,77713.99537539933
21877.61623949553,6.538350198262751,77661.80623788333
22216.04091955812,6.664479432372378,77605.65568828765
22559.70068843576,6.73833157190498,77511.16545931835
22908.67652767773,6.860634540593957,77457.18477745073
23263.05067153626,6.924905351443237,77419.46061331825
23622.90662634462,7.032634535170795,77350.2381167914
23988.32919019491,7.125499012773942,77268.58366963363
24359.40447292027,7.253569409842908,77188.57323442319
24736.21991638621,7.338746564162806,77143.19304517243
25118.8643150958,7.431553846805581,77083.25106023792
25507.4278371136,7.544490994382072,76994.43833460451
25902.00204531324,7.656190482818276,76917.29464167732
26302.67991895381,7.758023628267773,76833.3183416586
26709.55587558985,7.874096713029985,76757.5569194886
27122.72579332029,7.962377558570455,76692.61761701613
27542.28703338166,8.08564367860448,76600.82452265962
27968.33846309077,8.17818082674904,76496.52675161646
28400.98047914215,8.304561385223913,76444.2533878212
28840.31503126605,8.405552611723451,76326.53524594753
29286.44564625237,8.535560848990078,76264.11431379356
29739.47745234606,8.646536553314142,76169.30222896337
30199.51720402016,8.774188103435153,76076.60289005673
30666.67330713183,8.921247163169278,75955.44536500302
31141.0558444676,8.995372565815277,75880.91709472692
31622.7766016838,9.118282631589661,75753.83932447547
32111.94909364823,9.247418899916362,75669.62104751794
32608.68859118933,9.33120123899757,75595.88060600676
33113.11214825911,9.465686409079575,75442.69623411034
33625.33862951626,9.573317884772671,75380.93649821919
34145.48873833602,9.709446935930666,75239.23571669469
34673.68504525317,9.817035865424366,75199.93459435164
35210.05201684519,9.966696074766121,75018.27181919845
35754.71604506214,10.04609029999157,74895.76136660764
36307.80547701014,10.17658351017849,74837.51064219084
36869.45064519575,10.26901750668663,74707.47549265898
37439.78389823811,10.38416990560959,74627.25792980232
38018.93963205611,10.530349387571,74524.27677127573
38607.05432153813,10.63203320476026,74401.79298116051
39204.26655270153,10.71077888359011,74222.36484591926
39810.71705534972,10.81146754590391,74185.91654424986
40426.54873623443,10.88661303989237,74077.54591649657
41051.90671273079,11.04601959379153,74030.10443675359
41686.93834703355,11.07799541803583,73875.09026096715
42331.79328088209,11.11104062075664,73761.38126502583
42986.62347082276,11.16762925752351,73657.18425903462
43651.5832240166,11.29770945548431,73621.74989074284
44326.82923460088,11.25846751539315,73606.54896044228
45012.52062061337,11.16375825632702,73334.05580521301
45708.81896148751,11.17234850585711,73451.74810872364
46415.88833612778,11.10809626664772,73408.89230593313
47133.89536157405,10.98791142751302,73424.46015030603
47863.00923226384,10.81967663165176,73411.72322729041
48603.40175990217,10.59690510828242,73561.76562928392
49355.24741394807,10.15459982820844,73453.99704965804
50118.72336272722,9.41550881054804,73516.15462890589
50894.00951518089,8.751450350667605,73418.47368052146
51681.28856326035,7.569237632171483,73265.84624808059
52480.74602497726,5.953508238755082,72369.69510833363
53292.57028812004,3.952662325818178,70828.80405390951
54116.95265464637,1.930307307124113,67864.94138019672
54954.08738576245,0.6938699598983709,62936.81441306236
55804.17174769965,1.968126452604436,57747.5007904732
56667.40605819912,5.60129053458243,54279.56314958789
57543.9937337157,9.824178377565909,53177.27285916411
58434.14133735176,12.9757923773771,53525.66816249513
59338.0586275328,15.05631741648252,54318.25016711912
60255.95860743578,16.4933583408993,55227.01078066437
61188.05757518219,17.51541396187395,55968.2531452183
62134.57517480757,18.12726698540299,56410.10253376043
63095.73444801934,18.599891008253,56748.5476133792
64071.76188675538,18.9350608967294,57176.24579592581
65062.88748655572,19.39815890284612,57287.31247251816
66069.34480075959,19.62641279195434,57390.30997260536
67091.37099554112,19.89655162434179,57400.69622278764
68129.20690579613,20.12360872728825,57257.09409598378
69183.09709189364,20.39411074269292,57220.39978330662
70253.28989730522,20.5649429077171,57064.64196494201
71340.03750712563,20.91190109346756,56891.38558837266
72443.596007499,21.02537447123374,56631.21760736765
73564.22544596414,21.34909726578268,56355.02722122831
74702.18989273315,21.63197397992914,56043.61500684075
75857.75750291838,21.77518849826278,55710.30398621382
77031.20057972147,22.05663895373772,55444.28553420881
78222.79563860025,22.21714603153595,54895.36841121148
79432.82347242815,22.44374576496573,54875.19789785991
80661.56921766134,22.74265738023562,54426.18261748951
81909.32242152972,22.86886398902086,54038.10303468419
83176.3771102671,23.18007184212576,53629.94174430044
84463.03185839685,23.40084735318712,53321.27465586835
85769.58985908941,23.72498172339463,52785.64348123018
87096.35899560805,23.89301783218912,52330.46338704761
88443.65191385997,24.15654981813286,51977.59772238298
89811.78609606945,24.38769450285974,51555.41756920621
91201.08393559097,24.73977126796761,51037.54647465704
92611.87281287934,24.86213042900579,50732.93757821761
94044.48517263518,25.29990838792403,50226.41848337951
95499.25860214359,25.4410644828697,49785.45467909604
96976.53591082494,25.77743651738941,49235.49462749509
98476.66521101582,25.48081311836894,48570.25255510463
100000,26.11178531913477,48335.19371230973
