Freq.	V(n006)/V(n015)
1.00000000000000e+003	(-4.08561475594725e+001dB,-2.30093563213933e+000°)
1.02329299228075e+003	(-4.08683580929708e+001dB,-2.35430824357849e+000°)
1.04712854805090e+003	(-4.08811589350906e+001dB,-2.40890728860471e+000°)
1.07151930523761e+003	(-4.08945793104864e+001dB,-2.46476002366547e+000°)
1.09647819614319e+003	(-4.09086498149163e+001dB,-2.52189421538673e+000°)
1.12201845430196e+003	(-4.09234032420379e+001dB,-2.58033822614994e+000°)
1.14815362149688e+003	(-4.09388733682302e+001dB,-2.64012087046908e+000°)
1.17489755493953e+003	(-4.09550963752105e+001dB,-2.70127156524615e+000°)
1.20226443461741e+003	(-4.09721096751191e+001dB,-2.76382018058942e+000°)
1.23026877081238e+003	(-4.09899537890602e+001dB,-2.82779725113945e+000°)
1.25892541179417e+003	(-4.10086701407894e+001dB,-2.89323368934109e+000°)
1.28824955169313e+003	(-4.10283034547205e+001dB,-2.96016106211971e+000°)
1.31825673855641e+003	(-4.10489000384831e+001dB,-3.02861134970532e+000°)
1.34896288259165e+003	(-4.10705094528550e+001dB,-3.09861713511324e+000°)
1.38038426460288e+003	(-4.10931836139536e+001dB,-3.17021145508220e+000°)
1.41253754462275e+003	(-4.11169772383494e+001dB,-3.24342782088627e+000°)
1.44543977074593e+003	(-4.11419484515170e+001dB,-3.31830026383837e+000°)
1.47910838816821e+003	(-4.11681583588628e+001dB,-3.39486322633552e+000°)
1.51356124843621e+003	(-4.11956716791014e+001dB,-3.47315159898294e+000°)
1.54881661891248e+003	(-4.12245567571534e+001dB,-3.55320066070845e+000°)
1.58489319246111e+003	(-4.12548859214994e+001dB,-3.63504606243766e+000°)
1.62181009735893e+003	(-4.12867360000664e+001dB,-3.71872383082552e+000°)
1.65958690743756e+003	(-4.13201881432769e+001dB,-3.80427024897172e+000°)
1.69824365246174e+003	(-4.13553276029737e+001dB,-3.89172170651727e+000°)
1.73780082874937e+003	(-4.13922463456856e+001dB,-3.98111503304105e+000°)
1.77827941003892e+003	(-4.14310403927291e+001dB,-4.07248690224510e+000°)
1.81970085860998e+003	(-4.14718130639733e+001dB,-4.16587425562698e+000°)
1.86208713666287e+003	(-4.15146729130525e+001dB,-4.26131375486371e+000°)
1.90546071796325e+003	(-4.15597355074081e+001dB,-4.35884190581707e+000°)
1.94984459975804e+003	(-4.16071247122315e+001dB,-4.45849509216203e+000°)
1.99526231496888e+003	(-4.16569711156752e+001dB,-4.56030900691471e+000°)
2.04173794466953e+003	(-4.17094156000020e+001dB,-4.66431908460579e+000°)
2.08929613085404e+003	(-4.17646062928295e+001dB,-4.77055953614005e+000°)
2.13796208950223e+003	(-4.18227028090906e+001dB,-4.87906385579153e+000°)
2.18776162394955e+003	(-4.18838757851680e+001dB,-4.98986430554754e+000°)
2.23872113856834e+003	(-4.19483064729613e+001dB,-5.10299131058429e+000°)
2.29086765276777e+003	(-4.20161904139259e+001dB,-5.21847372322848e+000°)
2.34422881531992e+003	(-4.20877362805622e+001dB,-5.33633789966114e+000°)
2.39883291901949e+003	(-4.21631685150155e+001dB,-5.45660756161241e+000°)
2.45470891568503e+003	(-4.22427288294080e+001dB,-5.57930329766977e+000°)
2.51188643150958e+003	(-4.23266763563561e+001dB,-5.70444157293733e+000°)
2.57039578276886e+003	(-4.24152913079715e+001dB,-5.83203448393246e+000°)
2.63026799189538e+003	(-4.25088759342337e+001dB,-5.96208864028871e+000°)
2.69153480392691e+003	(-4.26077572274856e+001dB,-6.09460428123707e+000°)
2.75422870333816e+003	(-4.27122887357845e+001dB,-6.22957387587324e+000°)
2.81838293126445e+003	(-4.28228565004530e+001dB,-6.36698161792885e+000°)
2.88403150312660e+003	(-4.29398779104008e+001dB,-6.50680045695713e+000°)
2.95120922666638e+003	(-4.30638085147594e+001dB,-6.64899098924357e+000°)
3.01995172040201e+003	(-4.31951470963327e+001dB,-6.79349933789266e+000°)
3.09029543251359e+003	(-4.33344401077032e+001dB,-6.94025414005019e+000°)
3.16227766016838e+003	(-4.34822858574024e+001dB,-7.08916253354838e+000°)
3.23593656929628e+003	(-4.36393444219514e+001dB,-7.24010699556741e+000°)
3.31131121482591e+003	(-4.38063456499106e+001dB,-7.39294028255891e+000°)
3.38844156139202e+003	(-4.39840980898117e+001dB,-7.54747899608846e+000°)
3.46736850452531e+003	(-4.41735001595982e+001dB,-7.70349579829475e+000°)
3.54813389233575e+003	(-4.43755568242764e+001dB,-7.86071101962133e+000°)
3.63078054770101e+003	(-4.45913921971273e+001dB,-8.01877920413124e+000°)
3.71535229097172e+003	(-4.48222748895147e+001dB,-8.17727609755267e+000°)
3.80189396320561e+003	(-4.50696379852463e+001dB,-8.33567753580529e+000°)
3.89045144994280e+003	(-4.53351161937486e+001dB,-8.49333751723683e+000°)
3.98107170553497e+003	(-4.56205815264791e+001dB,-8.64945514044218e+000°)
4.07380277804112e+003	(-4.59281826032442e+001dB,-8.80302814815138e+000°)
4.16869383470335e+003	(-4.62604198813357e+001dB,-8.95280260449371e+000°)
4.26579518801592e+003	(-4.66202190974393e+001dB,-9.09719381524806e+000°)
4.36515832240165e+003	(-4.70110270440458e+001dB,-9.23417681809174e+000°)
4.46683592150962e+003	(-4.74369614304629e+001dB,-9.36114445898646e+000°)
4.57088189614874e+003	(-4.79029758196389e+001dB,-9.47468457168517e+000°)
4.67735141287197e+003	(-4.84151254908660e+001dB,-9.57027427834696e+000°)
4.78630092322637e+003	(-4.89809120598384e+001dB,-9.64180411135392e+000°)
4.89778819368445e+003	(-4.96097900447766e+001dB,-9.68084535337196e+000°)
5.01187233627271e+003	(-5.03139155757192e+001dB,-9.67547143443417e+000°)
5.12861383991364e+003	(-5.11092807673448e+001dB,-9.60827506778288e+000°)
5.24807460249772e+003	(-5.20175425733716e+001dB,-9.45289035550636e+000°)
5.37031796370252e+003	(-5.30690486419533e+001dB,-9.16746581443747e+000°)
5.49540873857624e+003	(-5.43082134979567e+001dB,-8.68150861854227e+000°)
5.62341325190348e+003	(-5.58037383295762e+001dB,-7.86663334647976e+000°)
5.75439937337156e+003	(-5.76700138086697e+001dB,-6.46264273255122e+000°)
5.88843655355588e+003	(-6.01177296045382e+001dB,-3.85362089044591e+000°)
6.02559586074357e+003	(-6.35929117830521e+001dB,1.82470254217227e+000°)
6.16595001861481e+003	(-6.91441298703584e+001dB,1.92688018964605e+001°)
6.30957344480192e+003	(-7.32910094540401e+001dB,9.25768311508887e+001°)
6.45654229034654e+003	(-6.63414390780110e+001dB,1.37646264856083e+002°)
6.60693448007595e+003	(-6.15689576893082e+001dB,1.48153367059225e+002°)
6.76082975391980e+003	(-5.83609659692633e+001dB,1.52166044051883e+002°)
6.91830970918935e+003	(-5.59631829783622e+001dB,1.54107425688778e+002°)
7.07945784384136e+003	(-5.40511052084174e+001dB,1.55137292162095e+002°)
7.24435960074989e+003	(-5.24626384916273e+001dB,1.55684294530934e+002°)
7.41310241300916e+003	(-5.11064558305787e+001dB,1.55942422513879e+002°)
7.58577575029182e+003	(-4.99265291115122e+001dB,1.56011993381686e+002°)
7.76247116628690e+003	(-4.88864250635258e+001dB,1.55949968880352e+002°)
7.94328234724280e+003	(-4.79614012068289e+001dB,1.55791153640421e+002°)
8.12830516164097e+003	(-4.71342888209684e+001dB,1.55557974036216e+002°)
8.31763771102669e+003	(-4.63930239852135e+001dB,1.55265647066444e+002°)
8.51138038202374e+003	(-4.57292299233175e+001dB,1.54924973898496e+002°)
8.70963589956079e+003	(-4.51373648854735e+001dB,1.54543976938686e+002°)
8.91250938133744e+003	(-4.46141811150915e+001dB,1.54129004405108e+002°)
9.12010839355908e+003	(-4.41584575202875e+001dB,1.53685468821150e+002°)
9.33254300796989e+003	(-4.37709470102957e+001dB,1.53218373389778e+002°)
9.54992586021434e+003	(-4.34544242896606e+001dB,1.52732955754943e+002°)
9.77237220955809e+003	(-4.32139907894417e+001dB,1.52235279502230e+002°)
9.99999999999998e+003	(-4.30576180431646e+001dB,1.51733050942800e+002°)
1.02329299228075e+004	(-4.29970622461861e+001dB,1.51236846868925e+002°)
1.04712854805090e+004	(-4.30492609695941e+001dB,1.50762558642844e+002°)
1.07151930523760e+004	(-4.32390366293853e+001dB,1.50334691582317e+002°)
1.09647819614318e+004	(-4.36033654470157e+001dB,1.49994569313105e+002°)
1.12201845430196e+004	(-4.41999309617532e+001dB,1.49816070811439e+002°)
1.14815362149688e+004	(-4.51243746284329e+001dB,1.49945218337049e+002°)
1.17489755493953e+004	(-4.65505711864784e+001dB,1.50713099101676e+002°)
1.20226443461741e+004	(-4.88426683257227e+001dB,1.53048515198837e+002°)
1.23026877081238e+004	(-5.29532186991845e+001dB,1.60807986644515e+002°)
1.25892541179416e+004	(-6.08390999275969e+001dB,-1.50438748308298e+002°)
1.28824955169313e+004	(-5.33238601350610e+001dB,-6.77050823062442e+001°)
1.31825673855640e+004	(-4.63127639747726e+001dB,-5.56036906529545e+001°)
1.34896288259165e+004	(-4.17030292096801e+001dB,-5.26793190123329e+001°)
1.38038426460288e+004	(-3.81419946574015e+001dB,-5.20936820462292e+001°)
1.41253754462275e+004	(-3.51507975254490e+001dB,-5.24960205025861e+001°)
1.44543977074592e+004	(-3.25113062424213e+001dB,-5.34564031693975e+001°)
1.47910838816820e+004	(-3.01057898207675e+001dB,-5.48058848475451e+001°)
1.51356124843620e+004	(-2.78629771931689e+001dB,-5.64744097383738e+001°)
1.54881661891248e+004	(-2.57359050237504e+001dB,-5.84393232858312e+001°)
1.58489319246111e+004	(-2.36916113524849e+001dB,-6.07048636752226e+001°)
1.62181009735893e+004	(-2.17056677615369e+001dB,-6.32966864775310e+001°)
1.65958690743756e+004	(-1.97594661448844e+001dB,-6.62580445845253e+001°)
1.69824365246174e+004	(-1.78386170563954e+001dB,-6.96528372672179e+001°)
1.73780082874937e+004	(-1.59325979488255e+001dB,-7.35674723356393e+001°)
1.77827941003892e+004	(-1.40349535447336e+001dB,-7.81188554155188e+001°)
1.81970085860998e+004	(-1.21451538006395e+001dB,-8.34564617108222e+001°)
1.86208713666286e+004	(-1.02716588168950e+001dB,-8.97654194203532e+001°)
1.90546071796324e+004	(-8.43710028693068e+000dB,-9.72561574570485e+001°)
1.94984459975804e+004	(-6.68485155341081e+000dB,-1.06130188931465e+002°)
1.99526231496887e+004	(-5.08416790961431e+000dB,-1.16486128292990e+002°)
2.04173794466952e+004	(-3.72407542435309e+000dB,-1.28181496310267e+002°)
2.08929613085403e+004	(-2.68636650139666e+000dB,-1.40717060435605e+002°)
2.13796208950222e+004	(-2.00443749269140e+000dB,-1.53303359176871e+002°)
2.18776162394954e+004	(-1.64177321459593e+000dB,-1.65150319918362e+002°)
2.23872113856833e+004	(-1.51356871623404e+000dB,-1.75760696784904e+002°)
2.29086765276777e+004	(-1.52786739186151e+000dB,1.75005629890268e+002°)
2.34422881531991e+004	(-1.61203518386721e+000dB,1.67049448629602e+002°)
2.39883291901948e+004	(-1.71915289303779e+000dB,1.60169716915053e+002°)
2.45470891568502e+004	(-1.82232760376174e+000dB,1.54154825199781e+002°)
2.51188643150957e+004	(-1.90815160213777e+000dB,1.48818576266389e+002°)
2.57039578276885e+004	(-1.97110026429515e+000dB,1.44010225714439e+002°)
2.63026799189537e+004	(-2.01016540924435e+000dB,1.39611824871635e+002°)
2.69153480392691e+004	(-2.02660073874961e+000dB,1.35532801140526e+002°)
2.75422870333816e+004	(-2.02286029393750e+000dB,1.31703836085874e+002°)
2.81838293126444e+004	(-2.00169376445625e+000dB,1.28072243550844e+002°)
2.88403150312660e+004	(-1.96620851898794e+000dB,1.24597572055328e+002°)
2.95120922666637e+004	(-1.91922172302473e+000dB,1.21249235859909e+002°)
3.01995172040200e+004	(-1.86333945292181e+000dB,1.18004066941813e+002°)
3.09029543251358e+004	(-1.80111615292250e+000dB,1.14844521010211e+002°)
3.16227766016837e+004	(-1.73474882479589e+000dB,1.11757686674242e+002°)
3.23593656929627e+004	(-1.66617704391295e+000dB,1.08734227298161e+002°)
3.31131121482590e+004	(-1.59713708739322e+000dB,1.05767608463697e+002°)
3.38844156139201e+004	(-1.52904559936312e+000dB,1.02853577171635e+002°)
3.46736850452530e+004	(-1.46322577809914e+000dB,9.99895673235358e+001°)
3.54813389233574e+004	(-1.40072307481275e+000dB,9.71744114197870e+001°)
3.63078054770100e+004	(-1.34217240396484e+000dB,9.44080513797541e+001°)
3.71535229097171e+004	(-1.28842978933472e+000dB,9.16910152131339e+001°)
3.80189396320560e+004	(-1.23991881078404e+000dB,8.90244563446235e+001°)
3.89045144994279e+004	(-1.19690882885149e+000dB,8.64098415241064e+001°)
3.98107170553496e+004	(-1.15959924515507e+000dB,8.38487699284132e+001°)
4.07380277804111e+004	(-1.12805866013328e+000dB,8.13428672037190e+001°)
4.16869383470334e+004	(-1.10224343647439e+000dB,7.88936778327846e+001°)
4.26579518801591e+004	(-1.08192526871473e+000dB,7.65026030150409e+001°)
4.36515832240164e+004	(-1.06698582146492e+000dB,7.41707773648919e+001°)
4.46683592150961e+004	(-1.05717611878043e+000dB,7.18990928181287e+001°)
4.57088189614873e+004	(-1.05222375853426e+000dB,6.96881541741025e+001°)
4.67735141287196e+004	(-1.05165888175082e+000dB,6.75383038791295e+001°)
4.78630092322636e+004	(-1.05520666409973e+000dB,6.54495561905039e+001°)
4.89778819368444e+004	(-1.06249341727746e+000dB,6.34216664949600e+001°)
5.01187233627270e+004	(-1.07321048952335e+000dB,6.14541239940243e+001°)
5.12861383991362e+004	(-1.08683507551973e+000dB,5.95462159070065e+001°)
5.24807460249770e+004	(-1.10320246568925e+000dB,5.76969745260627e+001°)
5.37031796370250e+004	(-1.12189746929944e+000dB,5.59052899465939e+001°)
5.49540873857622e+004	(-1.14256795831006e+000dB,5.41698935996190e+001°)
5.62341325190346e+004	(-1.16496092369173e+000dB,5.24893832555149e+001°)
5.75439937337154e+004	(-1.18883339545999e+000dB,5.08622597103773e+001°)
5.88843655355586e+004	(-1.21380154106782e+000dB,4.92869640286799e+001°)
6.02559586074355e+004	(-1.23980887281655e+000dB,4.77618527974962e+001°)
6.16595001861479e+004	(-1.26647038607746e+000dB,4.62852801409852e+001°)
6.30957344480190e+004	(-1.29369791991065e+000dB,4.48555557941658e+001°)
6.45654229034652e+004	(-1.32128707665605e+000dB,4.34709970955527e+001°)
6.60693448007593e+004	(-1.34908325633291e+000dB,4.21299261827114e+001°)
6.76082975391979e+004	(-1.37694409583404e+000dB,4.08306833860771e+001°)
6.91830970918933e+004	(-1.40473886494710e+000dB,3.95716355348866e+001°)
7.07945784384134e+004	(-1.43240868760884e+000dB,3.83511788006591e+001°)
7.24435960074987e+004	(-1.45980946002395e+000dB,3.71677543642355e+001°)
7.41310241300914e+004	(-1.48686773007597e+000dB,3.60198420091246e+001°)
7.58577575029180e+004	(-1.51351586500388e+000dB,3.49059675070230e+001°)
7.76247116628688e+004	(-1.53971891268216e+000dB,3.38247031534194e+001°)
7.94328234724277e+004	(-1.56547055565747e+000dB,3.27746694793308e+001°)
8.12830516164095e+004	(-1.59065971068425e+000dB,3.17545425475131e+001°)
8.31763771102667e+004	(-1.61521026994339e+000dB,3.07630462879027e+001°)
8.51138038202372e+004	(-1.63917551392385e+000dB,2.97989481993378e+001°)
8.70963589956076e+004	(-1.66255384400924e+000dB,2.88610677049806e+001°)
8.91250938133741e+004	(-1.68531868725385e+000dB,2.79482732892947e+001°)
9.12010839355905e+004	(-1.70742147953035e+000dB,2.70594808718612e+001°)
9.33254300796986e+004	(-1.72886106633660e+000dB,2.61936495274592e+001°)
9.54992586021431e+004	(-1.74965618264020e+000dB,2.53497813030862e+001°)
9.77237220955805e+004	(-1.76980056279160e+000dB,2.45269212991910e+001°)
9.99999999999995e+004	(-1.78926579206648e+000dB,2.37241556940664e+001°)
1.02329299228075e+005	(-1.80814459558297e+000dB,2.29406051295523e+001°)
1.04712854805089e+005	(-1.82636151628680e+000dB,2.21754329747473e+001°)
1.07151930523760e+005	(-1.84397973381850e+000dB,2.14278331372903e+001°)
1.09647819614318e+005	(-1.86096054075856e+000dB,2.06970363351542e+001°)
1.12201845430196e+005	(-1.87737548184319e+000dB,1.99823017771518e+001°)
1.14815362149688e+005	(-1.89323324047674e+000dB,1.92829209360883e+001°)
1.17489755493952e+005	(-1.90841748013459e+000dB,1.85982173503632e+001°)
1.20226443461741e+005	(-1.92312442554666e+000dB,1.79275331437236e+001°)
1.23026877081237e+005	(-1.93728125688812e+000dB,1.72702436359389e+001°)
1.25892541179416e+005	(-1.95093157230517e+000dB,1.66257453694142e+001°)
1.28824955169313e+005	(-1.96403311726244e+000dB,1.59934600496250e+001°)
1.31825673855640e+005	(-1.97668247649249e+000dB,1.53728277841600e+001°)
1.34896288259165e+005	(-1.98879917605908e+000dB,1.47633134085876e+001°)
1.38038426460288e+005	(-2.00052619276262e+000dB,1.41643960580429e+001°)
1.41253754462275e+005	(-2.01174713889568e+000dB,1.35755789284651e+001°)
1.44543977074592e+005	(-2.02257588173077e+000dB,1.29963774382068e+001°)
1.47910838816820e+005	(-2.03300339956075e+000dB,1.24263259198310e+001°)
1.51356124843620e+005	(-2.04301786674969e+000dB,1.18649739992674e+001°)
1.54881661891247e+005	(-2.05263087201863e+000dB,1.13118852102569e+001°)
1.58489319246110e+005	(-2.06195058406581e+000dB,1.07666348911920e+001°)
1.62181009735892e+005	(-2.07084888630750e+000dB,1.02288154689463e+001°)
1.65958690743755e+005	(-2.07942300803240e+000dB,9.69802722093055e+000°)
1.69824365246173e+005	(-2.08771035843307e+000dB,9.17388284165345e+000°)
1.73780082874937e+005	(-2.09564892668205e+000dB,8.65600724318932e+000°)
1.77827941003891e+005	(-2.10329096947428e+000dB,8.14403333112959e+000°)
1.81970085860997e+005	(-2.11068011682586e+000dB,7.63760351857826e+000°)
1.86208713666286e+005	(-2.11778771283314e+000dB,7.13637006254144e+000°)
1.90546071796324e+005	(-2.12464659228753e+000dB,6.63999242967681e+000°)
1.94984459975803e+005	(-2.13124171975419e+000dB,6.14813843159303e+000°)
1.99526231496887e+005	(-2.13761539922612e+000dB,5.66048219437791e+000°)
2.04173794466952e+005	(-2.14380207071686e+000dB,5.17670465986233e+000°)
2.08929613085403e+005	(-2.14973364649906e+000dB,4.69649434616206e+000°)
2.13796208950222e+005	(-2.15549315220267e+000dB,4.21954353882270e+000°)
2.18776162394954e+005	(-2.16104291227762e+000dB,3.74555148525657e+000°)
2.23872113856833e+005	(-2.16641565210528e+000dB,3.27422151641812e+000°)
2.29086765276776e+005	(-2.17168910770834e+000dB,2.80526108704565e+000°)
2.34422881531991e+005	(-2.17674332175337e+000dB,2.33838425346824e+000°)
2.39883291901948e+005	(-2.18166379323805e+000dB,1.87330657034684e+000°)
2.45470891568501e+005	(-2.18645951694104e+000dB,1.40974812097173e+000°)
2.51188643150956e+005	(-2.19107132096520e+000dB,9.47433013107119e-001°)
2.57039578276885e+005	(-2.19562652820486e+000dB,4.86086375330402e-001°)
2.63026799189536e+005	(-2.20005585130023e+000dB,2.54381659342264e-002°)
2.69153480392690e+005	(-2.20442462689608e+000dB,-4.34780590987269e-001°)
2.75422870333815e+005	(-2.20861544473934e+000dB,-8.94834863600924e-001°)
2.81838293126444e+005	(-2.21277045780611e+000dB,-1.35499019837930e+000°)
2.88403150312659e+005	(-2.21685007931296e+000dB,-1.81550864167434e+000°)
2.95120922666637e+005	(-2.22086775320373e+000dB,-2.27665125942152e+000°)
3.01995172040200e+005	(-2.22483155937944e+000dB,-2.73867779072541e+000°)
3.09029543251357e+005	(-2.22871909244024e+000dB,-3.20184665223766e+000°)
3.16227766016836e+005	(-2.23258092080882e+000dB,-3.66641602571401e+000°)
3.23593656929626e+005	(-2.23638561066690e+000dB,-4.13264273218825e+000°)
3.31131121482589e+005	(-2.24019596426884e+000dB,-4.60078388748446e+000°)
3.38844156139200e+005	(-2.24397167697901e+000dB,-5.07109547971359e+000°)
3.46736850452529e+005	(-2.24771754329813e+000dB,-5.54383375261026e+000°)
3.54813389233573e+005	(-2.25147841301622e+000dB,-6.01925529686926e+000°)
3.63078054770099e+005	(-2.25522575352044e+000dB,-6.49761636909271e+000°)
3.71535229097170e+005	(-2.25899329707164e+000dB,-6.97917406137364e+000°)
3.80189396320558e+005	(-2.26280768960646e+000dB,-7.46418593007107e+000°)
3.89045144994278e+005	(-2.26658767503710e+000dB,-7.95290947940913e+000°)
3.98107170553494e+005	(-2.27043371512324e+000dB,-8.44560427579101e+000°)
4.07380277804110e+005	(-2.27433644297163e+000dB,-8.94253009253137e+000°)
4.16869383470332e+005	(-2.27828329391997e+000dB,-9.44394779157334e+000°)
4.26579518801589e+005	(-2.28227735011512e+000dB,-9.95011957020031e+000°)
4.36515832240163e+005	(-2.28631751008058e+000dB,-1.04613089579259e+001°)
4.46683592150960e+005	(-2.29045181556527e+000dB,-1.09777812507910e+001°)
4.57088189614872e+005	(-2.29465116448581e+000dB,-1.14998028797159e+001°)
4.67735141287195e+005	(-2.29895255377965e+000dB,-1.20276423693952e+001°)
4.78630092322635e+005	(-2.30335292465852e+000dB,-1.25615698293107e+001°)
4.89778819368442e+005	(-2.30789386839714e+000dB,-1.31018575333020e+001°)
5.01187233627268e+005	(-2.31248384479023e+000dB,-1.36487790710208e+001°)
5.12861383991361e+005	(-2.31725055892683e+000dB,-1.42026113100187e+001°)
5.24807460249768e+005	(-2.32214171129997e+000dB,-1.47636323806014e+001°)
5.37031796370248e+005	(-2.32716453664404e+000dB,-1.53321230276652e+001°)
5.49540873857620e+005	(-2.33230772267455e+000dB,-1.59083662894949e+001°)
