Freq.	V(vout)
1.00000000000000e+004	(-3.42132525172568e-001dB,1.75022455461317e+002°)
1.00230523807790e+004	(-3.42017560505145e-001dB,1.75010519316433e+002°)
1.00461579027840e+004	(-3.41902016710093e-001dB,1.74998552286871e+002°)
1.00693166885180e+004	(-3.41785890636431e-001dB,1.74986554276036e+002°)
1.00925288607668e+004	(-3.41669179113938e-001dB,1.74974525186910e+002°)
1.01157945425990e+004	(-3.41551878952686e-001dB,1.74962464922048e+002°)
1.01391138573668e+004	(-3.41433986943218e-001dB,1.74950373383576e+002°)
1.01624869287070e+004	(-3.41315499856147e-001dB,1.74938250473187e+002°)
1.01859138805412e+004	(-3.41196414442243e-001dB,1.74926096092139e+002°)
1.02093948370768e+004	(-3.41076727431970e-001dB,1.74913910141254e+002°)
1.02329299228075e+004	(-3.40956435535745e-001dB,1.74901692520912e+002°)
1.02565192625141e+004	(-3.40835535443442e-001dB,1.74889443131050e+002°)
1.02801629812647e+004	(-3.40714023824416e-001dB,1.74877161871159e+002°)
1.03038612044162e+004	(-3.40591897327336e-001dB,1.74864848640280e+002°)
1.03276140576140e+004	(-3.40469152579987e-001dB,1.74852503337005e+002°)
1.03514216667934e+004	(-3.40345786189116e-001dB,1.74840125859468e+002°)
1.03752841581801e+004	(-3.40221794740371e-001dB,1.74827716105346e+002°)
1.03992016582906e+004	(-3.40097174798011e-001dB,1.74815273971855e+002°)
1.04231742939330e+004	(-3.39971922904833e-001dB,1.74802799355749e+002°)
1.04472021922080e+004	(-3.39846035581990e-001dB,1.74790292153314e+002°)
1.04712854805090e+004	(-3.39719509328855e-001dB,1.74777752260365e+002°)
1.04954242865232e+004	(-3.39592340622801e-001dB,1.74765179572245e+002°)
1.05196187382322e+004	(-3.39464525919042e-001dB,1.74752573983821e+002°)
1.05438689639126e+004	(-3.39336061650638e-001dB,1.74739935389482e+002°)
1.05681750921366e+004	(-3.39206944228013e-001dB,1.74727263683132e+002°)
1.05925372517729e+004	(-3.39077170039084e-001dB,1.74714558758192e+002°)
1.06169555719872e+004	(-3.38946735448923e-001dB,1.74701820507593e+002°)
1.06414301822431e+004	(-3.38815636799671e-001dB,1.74689048823774e+002°)
1.06659612123026e+004	(-3.38683870410212e-001dB,1.74676243598679e+002°)
1.06905487922266e+004	(-3.38551432576318e-001dB,1.74663404723755e+002°)
1.07151930523760e+004	(-3.38418319570079e-001dB,1.74650532089943e+002°)
1.07398941234124e+004	(-3.38284527640029e-001dB,1.74637625587683e+002°)
1.07646521362983e+004	(-3.38150053010816e-001dB,1.74624685106906e+002°)
1.07894672222983e+004	(-3.38014891883040e-001dB,1.74611710537028e+002°)
1.08143395129794e+004	(-3.37879040433177e-001dB,1.74598701766952e+002°)
1.08392691402120e+004	(-3.37742494813219e-001dB,1.74585658685062e+002°)
1.08642562361706e+004	(-3.37605251150606e-001dB,1.74572581179219e+002°)
1.08893009333343e+004	(-3.37467305548054e-001dB,1.74559469136758e+002°)
1.09144033644875e+004	(-3.37328654083272e-001dB,1.74546322444486e+002°)
1.09395636627209e+004	(-3.37189292808880e-001dB,1.74533140988674e+002°)
1.09647819614318e+004	(-3.37049217752075e-001dB,1.74519924655060e+002°)
1.09900583943252e+004	(-3.36908424914661e-001dB,1.74506673328838e+002°)
1.10153930954141e+004	(-3.36766910272572e-001dB,1.74493386894661e+002°)
1.10407861990207e+004	(-3.36624669775907e-001dB,1.74480065236632e+002°)
1.10662378397766e+004	(-3.36481699348595e-001dB,1.74466708238305e+002°)
1.10917481526240e+004	(-3.36337994888309e-001dB,1.74453315782675e+002°)
1.11173172728159e+004	(-3.36193552266095e-001dB,1.74439887752182e+002°)
1.11429453359173e+004	(-3.36048367326370e-001dB,1.74426424028701e+002°)
1.11686324778056e+004	(-3.35902435886561e-001dB,1.74412924493539e+002°)
1.11943788346715e+004	(-3.35755753736919e-001dB,1.74399389027435e+002°)
1.12201845430196e+004	(-3.35608316640411e-001dB,1.74385817510551e+002°)
1.12460497396692e+004	(-3.35460120332345e-001dB,1.74372209822472e+002°)
1.12719745617551e+004	(-3.35311160520355e-001dB,1.74358565842199e+002°)
1.12979591467279e+004	(-3.35161432883967e-001dB,1.74344885448147e+002°)
1.13240036323555e+004	(-3.35010933074489e-001dB,1.74331168518140e+002°)
1.13501081567231e+004	(-3.34859656714902e-001dB,1.74317414929407e+002°)
1.13762728582343e+004	(-3.34707599399388e-001dB,1.74303624558578e+002°)
1.14024978756117e+004	(-3.34554756693356e-001dB,1.74289797281678e+002°)
1.14287833478977e+004	(-3.34401124132940e-001dB,1.74275932974127e+002°)
1.14551294144553e+004	(-3.34246697225123e-001dB,1.74262031510732e+002°)
1.14815362149688e+004	(-3.34091471447200e-001dB,1.74248092765683e+002°)
1.15080038894443e+004	(-3.33935442246598e-001dB,1.74234116612550e+002°)
1.15345325782109e+004	(-3.33778605040874e-001dB,1.74220102924278e+002°)
1.15611224219210e+004	(-3.33620955217121e-001dB,1.74206051573184e+002°)
1.15877735615512e+004	(-3.33462488132014e-001dB,1.74191962430948e+002°)
1.16144861384034e+004	(-3.33303199111426e-001dB,1.74177835368614e+002°)
1.16412602941049e+004	(-3.33143083450160e-001dB,1.74163670256582e+002°)
1.16680961706096e+004	(-3.32982136411923e-001dB,1.74149466964605e+002°)
1.16949939101987e+004	(-3.32820353228767e-001dB,1.74135225361783e+002°)
1.17219536554813e+004	(-3.32657729101015e-001dB,1.74120945316561e+002°)
1.17489755493953e+004	(-3.32494259196965e-001dB,1.74106626696719e+002°)
1.17760597352080e+004	(-3.32329938652683e-001dB,1.74092269369374e+002°)
1.18032063565173e+004	(-3.32164762571712e-001dB,1.74077873200969e+002°)
1.18304155572516e+004	(-3.31998726024710e-001dB,1.74063438057272e+002°)
1.18576874816716e+004	(-3.31831824049372e-001dB,1.74048963803371e+002°)
1.18850222743701e+004	(-3.31664051650002e-001dB,1.74034450303667e+002°)
1.19124200802737e+004	(-3.31495403797385e-001dB,1.74019897421869e+002°)
1.19398810446427e+004	(-3.31325875428388e-001dB,1.74005305020991e+002°)
1.19674053130724e+004	(-3.31155461445701e-001dB,1.73990672963347e+002°)
1.19949930314937e+004	(-3.30984156717673e-001dB,1.73976001110543e+002°)
1.20226443461741e+004	(-3.30811956077875e-001dB,1.73961289323474e+002°)
1.20503594037179e+004	(-3.30638854324978e-001dB,1.73946537462319e+002°)
1.20781383510678e+004	(-3.30464846222293e-001dB,1.73931745386534e+002°)
1.21059813355048e+004	(-3.30289926497672e-001dB,1.73916912954848e+002°)
1.21338885046497e+004	(-3.30114089843057e-001dB,1.73902040025258e+002°)
1.21618600064636e+004	(-3.29937330914245e-001dB,1.73887126455022e+002°)
1.21898959892486e+004	(-3.29759644330622e-001dB,1.73872172100654e+002°)
1.22179966016487e+004	(-3.29581024674777e-001dB,1.73857176817920e+002°)
1.22461619926504e+004	(-3.29401466492356e-001dB,1.73842140461832e+002°)
1.22743923115840e+004	(-3.29220964291573e-001dB,1.73827062886638e+002°)
1.23026877081238e+004	(-3.29039512543011e-001dB,1.73811943945824e+002°)
1.23310483322890e+004	(-3.28857105679247e-001dB,1.73796783492101e+002°)
1.23594743344450e+004	(-3.28673738094655e-001dB,1.73781581377405e+002°)
1.23879658653036e+004	(-3.28489404144936e-001dB,1.73766337452887e+002°)
1.24165230759241e+004	(-3.28304098146873e-001dB,1.73751051568907e+002°)
1.24451461177138e+004	(-3.28117814377991e-001dB,1.73735723575033e+002°)
1.24738351424294e+004	(-3.27930547076285e-001dB,1.73720353320029e+002°)
1.25025903021771e+004	(-3.27742290439792e-001dB,1.73704940651853e+002°)
1.25314117494141e+004	(-3.27553038626316e-001dB,1.73689485417647e+002°)
1.25602996369487e+004	(-3.27362785753058e-001dB,1.73673987463736e+002°)
1.25892541179416e+004	(-3.27171525896353e-001dB,1.73658446635617e+002°)
1.26182753459066e+004	(-3.26979253091214e-001dB,1.73642862777955e+002°)
1.26473634747114e+004	(-3.26785961331022e-001dB,1.73627235734575e+002°)
1.26765186585784e+004	(-3.26591644567229e-001dB,1.73611565348459e+002°)
1.27057410520853e+004	(-3.26396296708933e-001dB,1.73595851461735e+002°)
1.27350308101665e+004	(-3.26199911622543e-001dB,1.73580093915674e+002°)
1.27643880881134e+004	(-3.26002483131442e-001dB,1.73564292550680e+002°)
1.27938130415752e+004	(-3.25804005015603e-001dB,1.73548447206287e+002°)
1.28233058265601e+004	(-3.25604471011199e-001dB,1.73532557721150e+002°)
1.28528665994361e+004	(-3.25403874810158e-001dB,1.73516623933039e+002°)
1.28824955169313e+004	(-3.25202210060034e-001dB,1.73500645678829e+002°)
1.29121927361353e+004	(-3.24999470363315e-001dB,1.73484622794499e+002°)
1.29419584144998e+004	(-3.24795649277272e-001dB,1.73468555115120e+002°)
1.29717927098395e+004	(-3.24590740313406e-001dB,1.73452442474851e+002°)
1.30016957803328e+004	(-3.24384736937233e-001dB,1.73436284706928e+002°)
1.30316677845229e+004	(-3.24177632567650e-001dB,1.73420081643660e+002°)
1.30617088813183e+004	(-3.23969420576758e-001dB,1.73403833116422e+002°)
1.30918192299940e+004	(-3.23760094289325e-001dB,1.73387538955645e+002°)
1.31219989901919e+004	(-3.23549646982332e-001dB,1.73371198990811e+002°)
1.31522483219223e+004	(-3.23338071884844e-001dB,1.73354813050442e+002°)
1.31825673855640e+004	(-3.23125362177189e-001dB,1.73338380962098e+002°)
1.32129563418657e+004	(-3.22911510990760e-001dB,1.73321902552364e+002°)
1.32434153519466e+004	(-3.22696511407622e-001dB,1.73305377646844e+002°)
1.32739445772973e+004	(-3.22480356459977e-001dB,1.73288806070154e+002°)
1.33045441797808e+004	(-3.22263039129780e-001dB,1.73272187645913e+002°)
1.33352143216332e+004	(-3.22044552348201e-001dB,1.73255522196737e+002°)
1.33659551654643e+004	(-3.21824888995376e-001dB,1.73238809544227e+002°)
1.33967668742593e+004	(-3.21604041899708e-001dB,1.73222049508965e+002°)
1.34276496113785e+004	(-3.21382003837700e-001dB,1.73205241910502e+002°)
1.34586035405594e+004	(-3.21158767533131e-001dB,1.73188386567354e+002°)
1.34896288259164e+004	(-3.20934325656986e-001dB,1.73171483296988e+002°)
1.35207256319427e+004	(-3.20708670826643e-001dB,1.73154531915821e+002°)
1.35518941235103e+004	(-3.20481795605633e-001dB,1.73137532239201e+002°)
1.35831344658714e+004	(-3.20253692503052e-001dB,1.73120484081410e+002°)
1.36144468246594e+004	(-3.20024353973027e-001dB,1.73103387255646e+002°)
1.36458313658891e+004	(-3.19793772414446e-001dB,1.73086241574019e+002°)
1.36772882559584e+004	(-3.19561940170101e-001dB,1.73069046847540e+002°)
1.37088176616484e+004	(-3.19328849526628e-001dB,1.73051802886113e+002°)
1.37404197501250e+004	(-3.19094492713515e-001dB,1.73034509498526e+002°)
1.37720946889394e+004	(-3.18858861903039e-001dB,1.73017166492440e+002°)
1.38038426460287e+004	(-3.18621949209442e-001dB,1.72999773674382e+002°)
1.38356637897177e+004	(-3.18383746688482e-001dB,1.72982330849733e+002°)
1.38675582887188e+004	(-3.18144246337100e-001dB,1.72964837822721e+002°)
1.38995263121334e+004	(-3.17903440092501e-001dB,1.72947294396411e+002°)
1.39315680294529e+004	(-3.17661319831933e-001dB,1.72929700372693e+002°)
1.39636836105593e+004	(-3.17417877372087e-001dB,1.72912055552274e+002°)
1.39958732257261e+004	(-3.17173104468376e-001dB,1.72894359734669e+002°)
1.40281370456195e+004	(-3.16926992814589e-001dB,1.72876612718187e+002°)
1.40604752412990e+004	(-3.16679534042109e-001dB,1.72858814299927e+002°)
1.40928879842186e+004	(-3.16430719719603e-001dB,1.72840964275763e+002°)
1.41253754462274e+004	(-3.16180541352211e-001dB,1.72823062440332e+002°)
1.41579377995707e+004	(-3.15928990381049e-001dB,1.72805108587031e+002°)
1.41905752168908e+004	(-3.15676058182590e-001dB,1.72787102508000e+002°)
1.42232878712281e+004	(-3.15421736068246e-001dB,1.72769043994112e+002°)
1.42560759360218e+004	(-3.15166015283412e-001dB,1.72750932834965e+002°)
1.42889395851109e+004	(-3.14908887007196e-001dB,1.72732768818868e+002°)
1.43218789927353e+004	(-3.14650342351594e-001dB,1.72714551732834e+002°)
1.43548943335364e+004	(-3.14390372360923e-001dB,1.72696281362562e+002°)
1.43879857825583e+004	(-3.14128968011222e-001dB,1.72677957492434e+002°)
1.44211535152486e+004	(-3.13866120209624e-001dB,1.72659579905497e+002°)
1.44543977074592e+004	(-3.13601819793604e-001dB,1.72641148383455e+002°)
1.44877185354475e+004	(-3.13336057530460e-001dB,1.72622662706657e+002°)
1.45211161758773e+004	(-3.13068824116500e-001dB,1.72604122654082e+002°)
1.45545908058195e+004	(-3.12800110176516e-001dB,1.72585528003334e+002°)
1.45881426027534e+004	(-3.12529906263067e-001dB,1.72566878530621e+002°)
1.46217717445671e+004	(-3.12258202855777e-001dB,1.72548174010750e+002°)
1.46554784095590e+004	(-3.11984990360637e-001dB,1.72529414217112e+002°)
1.46892627764385e+004	(-3.11710259109271e-001dB,1.72510598921670e+002°)
1.47231250243271e+004	(-3.11433999358299e-001dB,1.72491727894945e+002°)
1.47570653327588e+004	(-3.11156201288656e-001dB,1.72472800906004e+002°)
1.47910838816819e+004	(-3.10876855004787e-001dB,1.72453817722450e+002°)
1.48251808514594e+004	(-3.10595950533832e-001dB,1.72434778110406e+002°)
1.48593564228699e+004	(-3.10313477825101e-001dB,1.72415681834500e+002°)
1.48936107771090e+004	(-3.10029426749232e-001dB,1.72396528657857e+002°)
1.49279440957898e+004	(-3.09743787097286e-001dB,1.72377318342083e+002°)
1.49623565609442e+004	(-3.09456548580206e-001dB,1.72358050647248e+002°)
1.49968483550236e+004	(-3.09167700827950e-001dB,1.72338725331878e+002°)
1.50314196609001e+004	(-3.08877233388670e-001dB,1.72319342152940e+002°)
1.50660706618673e+004	(-3.08585135727935e-001dB,1.72299900865824e+002°)
1.51008015416413e+004	(-3.08291397227991e-001dB,1.72280401224331e+002°)
1.51356124843619e+004	(-3.07996007186856e-001dB,1.72260842980663e+002°)
1.51705036745932e+004	(-3.07698954817607e-001dB,1.72241225885400e+002°)
1.52054752973248e+004	(-3.07400229247368e-001dB,1.72221549687492e+002°)
1.52405275379728e+004	(-3.07099819516704e-001dB,1.72201814134244e+002°)
1.52756605823806e+004	(-3.06797714578600e-001dB,1.72182018971295e+002°)
1.53108746168202e+004	(-3.06493903297671e-001dB,1.72162163942610e+002°)
1.53461698279928e+004	(-3.06188374449211e-001dB,1.72142248790461e+002°)
1.53815464030302e+004	(-3.05881116718437e-001dB,1.72122273255412e+002°)
1.54170045294954e+004	(-3.05572118699523e-001dB,1.72102237076302e+002°)
1.54525443953840e+004	(-3.05261368894702e-001dB,1.72082139990233e+002°)
1.54881661891247e+004	(-3.04948855713313e-001dB,1.72061981732549e+002°)
1.55238700995807e+004	(-3.04634567470965e-001dB,1.72041762036824e+002°)
1.55596563160506e+004	(-3.04318492388565e-001dB,1.72021480634843e+002°)
1.55955250282694e+004	(-3.04000618591318e-001dB,1.72001137256587e+002°)
1.56314764264094e+004	(-3.03680934107809e-001dB,1.71980731630214e+002°)
1.56675107010813e+004	(-3.03359426869123e-001dB,1.71960263482045e+002°)
1.57036280433354e+004	(-3.03036084707648e-001dB,1.71939732536545e+002°)
1.57398286446620e+004	(-3.02710895356336e-001dB,1.71919138516304e+002°)
1.57761126969933e+004	(-3.02383846447503e-001dB,1.71898481142023e+002°)
1.58124803927037e+004	(-3.02054925511859e-001dB,1.71877760132494e+002°)
1.58489319246110e+004	(-3.01724119977536e-001dB,1.71856975204583e+002°)
1.58854674859776e+004	(-3.01391417169034e-001dB,1.71836126073212e+002°)
1.59220872705115e+004	(-3.01056804306086e-001dB,1.71815212451336e+002°)
1.59587914723672e+004	(-3.00720268502690e-001dB,1.71794234049933e+002°)
1.59955802861465e+004	(-3.00381796765929e-001dB,1.71773190577977e+002°)
1.60324539069002e+004	(-3.00041375995025e-001dB,1.71752081742424e+002°)
1.60694125301286e+004	(-2.99698992980019e-001dB,1.71730907248191e+002°)
1.61064563517825e+004	(-2.99354634400815e-001dB,1.71709666798135e+002°)
1.61435855682647e+004	(-2.99008286826023e-001dB,1.71688360093035e+002°)
1.61808003764305e+004	(-2.98659936711731e-001dB,1.71666986831574e+002°)
1.62181009735891e+004	(-2.98309570400415e-001dB,1.71645546710313e+002°)
1.62554875575047e+004	(-2.97957174119739e-001dB,1.71624039423677e+002°)
1.62929603263970e+004	(-2.97602733981400e-001dB,1.71602464663928e+002°)
1.63305194789432e+004	(-2.97246235979716e-001dB,1.71580822121151e+002°)
1.63681652142779e+004	(-2.96887665990818e-001dB,1.71559111483226e+002°)
1.64058977319952e+004	(-2.96527009770898e-001dB,1.71537332435810e+002°)
1.64437172321491e+004	(-2.96164252955410e-001dB,1.71515484662318e+002°)
1.64816239152549e+004	(-2.95799381057484e-001dB,1.71493567843893e+002°)
1.65196179822900e+004	(-2.95432379466842e-001dB,1.71471581659392e+002°)
1.65576996346951e+004	(-2.95063233448360e-001dB,1.71449525785360e+002°)
1.65958690743754e+004	(-2.94691928140827e-001dB,1.71427399896005e+002°)
1.66341265037015e+004	(-2.94318448555544e-001dB,1.71405203663179e+002°)
1.66724721255104e+004	(-2.93942779575059e-001dB,1.71382936756353e+002°)
1.67109061431069e+004	(-2.93564905951752e-001dB,1.71360598842591e+002°)
1.67494287602642e+004	(-2.93184812306439e-001dB,1.71338189586531e+002°)
1.67880401812254e+004	(-2.92802483126867e-001dB,1.71315708650357e+002°)
1.68267406107045e+004	(-2.92417902766572e-001dB,1.71293155693774e+002°)
1.68655302538872e+004	(-2.92031055443158e-001dB,1.71270530373988e+002°)
1.69044093164324e+004	(-2.91641925236974e-001dB,1.71247832345673e+002°)
1.69433780044731e+004	(-2.91250496089545e-001dB,1.71225061260955e+002°)
1.69824365246172e+004	(-2.90856751802209e-001dB,1.71202216769377e+002°)
1.70215850839493e+004	(-2.90460676034454e-001dB,1.71179298517880e+002°)
1.70608238900310e+004	(-2.90062252302452e-001dB,1.71156306150773e+002°)
1.71001531509027e+004	(-2.89661463977510e-001dB,1.71133239309707e+002°)
1.71395730750840e+004	(-2.89258294284530e-001dB,1.71110097633648e+002°)
1.71790838715757e+004	(-2.88852726300288e-001dB,1.71086880758850e+002°)
1.72186857498599e+004	(-2.88444742951813e-001dB,1.71063588318826e+002°)
1.72583789199018e+004	(-2.88034327014990e-001dB,1.71040219944322e+002°)
1.72981635921508e+004	(-2.87621461112640e-001dB,1.71016775263287e+002°)
1.73380399775412e+004	(-2.87206127712834e-001dB,1.70993253900843e+002°)
1.73780082874935e+004	(-2.86788309127390e-001dB,1.70969655479259e+002°)
1.74180687339159e+004	(-2.86367987509960e-001dB,1.70945979617921e+002°)
1.74582215292048e+004	(-2.85945144854384e-001dB,1.70922225933297e+002°)
1.74984668862463e+004	(-2.85519762992836e-001dB,1.70898394038913e+002°)
1.75388050184174e+004	(-2.85091823594040e-001dB,1.70874483545321e+002°)
1.75792361395867e+004	(-2.84661308161519e-001dB,1.70850494060064e+002°)
1.76197604641161e+004	(-2.84228198031645e-001dB,1.70826425187650e+002°)
1.76603782068614e+004	(-2.83792474371847e-001dB,1.70802276529515e+002°)
1.77010895831740e+004	(-2.83354118178675e-001dB,1.70778047683994e+002°)
1.77418948089014e+004	(-2.82913110275856e-001dB,1.70753738246289e+002°)
1.77827941003890e+004	(-2.82469431312423e-001dB,1.70729347808431e+002°)
1.78237876744807e+004	(-2.82023061760542e-001dB,1.70704875959252e+002°)
1.78648757485203e+004	(-2.81573981913822e-001dB,1.70680322284348e+002°)
1.79060585403527e+004	(-2.81122171885018e-001dB,1.70655686366046e+002°)
1.79473362683250e+004	(-2.80667611604110e-001dB,1.70630967783367e+002°)
1.79887091512876e+004	(-2.80210280816125e-001dB,1.70606166111992e+002°)
1.80301774085955e+004	(-2.79750159079096e-001dB,1.70581280924228e+002°)
1.80717412601090e+004	(-2.79287225761886e-001dB,1.70556311788967e+002°)
1.81134009261958e+004	(-2.78821460041982e-001dB,1.70531258271655e+002°)
1.81551566277311e+004	(-2.78352840903478e-001dB,1.70506119934250e+002°)
1.81970085860996e+004	(-2.77881347134478e-001dB,1.70480896335185e+002°)
1.82389570231961e+004	(-2.77406957325182e-001dB,1.70455587029334e+002°)
1.82810021614272e+004	(-2.76929649865409e-001dB,1.70430191567968e+002°)
1.83231442237119e+004	(-2.76449402942297e-001dB,1.70404709498717e+002°)
1.83653834334832e+004	(-2.75966194537998e-001dB,1.70379140365532e+002°)
1.84077200146893e+004	(-2.75480002427171e-001dB,1.70353483708645e+002°)
1.84501541917945e+004	(-2.74990804174676e-001dB,1.70327739064524e+002°)
1.84926861897805e+004	(-2.74498577133061e-001dB,1.70301905965837e+002°)
1.85353162341479e+004	(-2.74003298439999e-001dB,1.70275983941405e+002°)
1.85780445509167e+004	(-2.73504945015909e-001dB,1.70249972516163e+002°)
1.86208713666284e+004	(-2.73003493561226e-001dB,1.70223871211116e+002°)
1.86637969083464e+004	(-2.72498920553861e-001dB,1.70197679543294e+002°)
1.87068214036577e+004	(-2.71991202246616e-001dB,1.70171397025709e+002°)
1.87499450806739e+004	(-2.71480314664436e-001dB,1.70145023167310e+002°)
1.87931681680324e+004	(-2.70966233601715e-001dB,1.70118557472938e+002°)
1.88364908948977e+004	(-2.70448934619461e-001dB,1.70091999443277e+002°)
1.88799134909627e+004	(-2.69928393042693e-001dB,1.70065348574810e+002°)
