Freq.	V(vout)
4.00000000000000e+004	(-1.52246144569929e+001dB,-9.57490451811011e+001°)
4.00922095231160e+004	(-1.51517715465075e+001dB,-9.57959554852507e+001°)
4.01846316111358e+004	(-1.50783643971158e+001dB,-9.58436238572815e+001°)
4.02772667540722e+004	(-1.50043835752465e+001dB,-9.58920691679672e+001°)
4.03701154430674e+004	(-1.49298194173267e+001dB,-9.59413109188517e+001°)
4.04631781703959e+004	(-1.48546620223375e+001dB,-9.59913692687512e+001°)
4.05564554294672e+004	(-1.47789012440705e+001dB,-9.60422650615668e+001°)
4.06499477148278e+004	(-1.47025266830701e+001dB,-9.60940198555320e+001°)
4.07436555221647e+004	(-1.46255276782460e+001dB,-9.61466559539757e+001°)
4.08375793483072e+004	(-1.45478932981418e+001dB,-9.62001964376628e+001°)
4.09317196912301e+004	(-1.44696123318405e+001dB,-9.62546651988431e+001°)
4.10260770500563e+004	(-1.43906732794899e+001dB,-9.63100869770824e+001°)
4.11206519250589e+004	(-1.43110643424308e+001dB,-9.63664873970196e+001°)
4.12154448176646e+004	(-1.42307734129036e+001dB,-9.64238930081482e+001°)
4.13104562304559e+004	(-1.41497880633181e+001dB,-9.64823313267337e+001°)
4.14056866671737e+004	(-1.40680955350589e+001dB,-9.65418308800500e+001°)
4.15011366327205e+004	(-1.39856827268056e+001dB,-9.66024212530405e+001°)
4.15968066331623e+004	(-1.39025361823424e+001dB,-9.66641331375780e+001°)
4.16926971757321e+004	(-1.38186420778297e+001dB,-9.67269983844940e+001°)
4.17888087688320e+004	(-1.37339862085111e+001dB,-9.67910500585550e+001°)
4.18851419220359e+004	(-1.36485539748240e+001dB,-9.68563224965809e+001°)
4.19816971460928e+004	(-1.35623303678843e+001dB,-9.69228513689265e+001°)
4.20784749529289e+004	(-1.34752999543110e+001dB,-9.69906737445263e+001°)
4.21754758556503e+004	(-1.33874468603535e+001dB,-9.70598281597967e+001°)
4.22727003685463e+004	(-1.32987547552873e+001dB,-9.71303546915976e+001°)
4.23701490070915e+004	(-1.32092068340353e+001dB,-9.72022950345873e+001°)
4.24678222879489e+004	(-1.31187857989726e+001dB,-9.72756925832589e+001°)
4.25657207289726e+004	(-1.30274738408708e+001dB,-9.73505925189823e+001°)
4.26638448492102e+004	(-1.29352526189332e+001dB,-9.74270419024281e+001°)
4.27621951689062e+004	(-1.28421032398685e+001dB,-9.75050897717587e+001°)
4.28607722095042e+004	(-1.27480062359518e+001dB,-9.75847872469857e+001°)
4.29595764936497e+004	(-1.26529415420111e+001dB,-9.76661876409874e+001°)
4.30586085451933e+004	(-1.25568884712814e+001dB,-9.77493465776518e+001°)
4.31578688891931e+004	(-1.24598256900594e+001dB,-9.78343221176838e+001°)
4.32573580519174e+004	(-1.23617311910877e+001dB,-9.79211748926945e+001°)
4.33570765608481e+004	(-1.22625822655972e+001dB,-9.80099682481479e+001°)
4.34570249446825e+004	(-1.21623554739261e+001dB,-9.81007683959232e+001°)
4.35572037333373e+004	(-1.20610266146328e+001dB,-9.81936445771683e+001°)
4.36576134579502e+004	(-1.19585706920110e+001dB,-9.82886692363520e+001°)
4.37582546508837e+004	(-1.18549618819121e+001dB,-9.83859182073394e+001°)
4.38591278457273e+004	(-1.17501734957737e+001dB,-9.84854709124871e+001°)
4.39602335773007e+004	(-1.16441779427431e+001dB,-9.85874105758435e+001°)
4.40615723816565e+004	(-1.15369466897813e+001dB,-9.86918244516008e+001°)
4.41631447960828e+004	(-1.14284502196210e+001dB,-9.87988040690849e+001°)
4.42649513591065e+004	(-1.13186579864488e+001dB,-9.89084454956951e+001°)
4.43669926104959e+004	(-1.12075383691694e+001dB,-9.90208496192875e+001°)
4.44692690912635e+004	(-1.10950586221000e+001dB,-9.91361224517759e+001°)
4.45717813436691e+004	(-1.09811848229347e+001dB,-9.92543754556870e+001°)
4.46745299112223e+004	(-1.08658818178095e+001dB,-9.93757258958523e+001°)
4.47775153386860e+004	(-1.07491131632823e+001dB,-9.95002972183339e+001°)
4.48807381720784e+004	(-1.06308410650343e+001dB,-9.96282194592027e+001°)
4.49841989586769e+004	(-1.05110263130860e+001dB,-9.97596296858102e+001°)
4.50878982470203e+004	(-1.03896282133065e+001dB,-9.98946724736441e+001°)
4.51918365869118e+004	(-1.02666045149823e+001dB,-1.00033500422056e+002°)
4.52960145294222e+004	(-1.01419113341949e+001dB,-1.00176274712628e+002°)
4.54004326268925e+004	(-1.00155030727438e+001dB,-1.00323165714261e+002°)
4.55050914329371e+004	(-9.88733233233472e+000dB,-1.00474353639534e+002°)
4.56099915024466e+004	(-9.75734982373672e+000dB,-1.00630029257460e+002°)
4.57151333915907e+004	(-9.62550427059642e+000dB,-1.00790394668225e+002°)
4.58205176578213e+004	(-9.49174230757772e+000dB,-1.00955664146281e+002°)
4.59261448598752e+004	(-9.35600837248742e+000dB,-1.01126065058706e+002°)
4.60320155577773e+004	(-9.21824459202220e+000dB,-1.01301838866822e+002°)
4.61381303128435e+004	(-9.07839066076336e+000dB,-1.01483242219704e+002°)
4.62444896876838e+004	(-8.93638371303599e+000dB,-1.01670548149522e+002°)
4.63510942462049e+004	(-8.79215818723291e+000dB,-1.01864047379665e+002°)
4.64579445536136e+004	(-8.64564568220334e+000dB,-1.02064049758107e+002°)
4.65650411764195e+004	(-8.49677480530193e+000dB,-1.02270885829852e+002°)
4.66723846824383e+004	(-8.34547101170366e+000dB,-1.02484908564241e+002°)
4.67799756407947e+004	(-8.19165643460011e+000dB,-1.02706495254758e+002°)
4.68878146219251e+004	(-8.03524970592463e+000dB,-1.02936049611308e+002°)
4.69959021975810e+004	(-7.87616576729440e+000dB,-1.03174004067615e+002°)
4.71042389408321e+004	(-7.71431567091546e+000dB,-1.03420822329292e+002°)
4.72128254260690e+004	(-7.54960637029421e+000dB,-1.03677002191621e+002°)
4.73216622290064e+004	(-7.38194050070759e+000dB,-1.03943078660025e+002°)
4.74307499266862e+004	(-7.21121614956008e+000dB,-1.04219627410691e+002°)
4.75400890974806e+004	(-7.03732661695356e+000dB,-1.04507268634118e+002°)
4.76496803210948e+004	(-6.86016016710403e+000dB,-1.04806671310161e+002°)
4.77595241785707e+004	(-6.67959977158177e+000dB,-1.05118557970316e+002°)
4.78696212522896e+004	(-6.49552284585640e+000dB,-1.05443710010651e+002°)
4.79799721259750e+004	(-6.30780098123057e+000dB,-1.05782973628244e+002°)
4.80905773846963e+004	(-6.11629967505252e+000dB,-1.06137266464424e+002°)
4.82014376148717e+004	(-5.92087806312082e+000dB,-1.06507585050293e+002°)
4.83125534042710e+004	(-5.72138865949819e+000dB,-1.06895013164357e+002°)
4.84239253420191e+004	(-5.51767711063762e+000dB,-1.07300731227989e+002°)
4.85355540185989e+004	(-5.30958197286383e+000dB,-1.07726026883511e+002°)
4.86474400258545e+004	(-5.09693452498544e+000dB,-1.08172306920855e+002°)
4.87595839569945e+004	(-4.87955863132494e+000dB,-1.08641110743529e+002°)
4.88719864065947e+004	(-4.65727067490981e+000dB,-1.09134125592590e+002°)
4.89846479706017e+004	(-4.42987958628725e+000dB,-1.09653203779118e+002°)
4.90975692463361e+004	(-4.19718700071840e+000dB,-1.10200382211173e+002°)
4.92107508324950e+004	(-3.95898758584951e+000dB,-1.10777904541077e+002°)
4.93241933291561e+004	(-3.71506959388769e+000dB,-1.11388246301869e+002°)
4.94378973377802e+004	(-3.46521570758431e+000dB,-1.12034143448056e+002°)
4.95518634612145e+004	(-3.20920426886497e+000dB,-1.12718624762770e+002°)
4.96660923036962e+004	(-2.94681100391680e+000dB,-1.13445048639507e+002°)
4.97805844708552e+004	(-2.67781139044898e+000dB,-1.14217144785514e+002°)
4.98953405697175e+004	(-2.40198385352505e+000dB,-1.15039061418788e+002°)
5.00103612087086e+004	(-2.11911402807980e+000dB,-1.15915418529682e+002°)
5.01256469976564e+004	(-1.82900039175979e+000dB,-1.16851367731419e+002°)
5.02411985477947e+004	(-1.53146165417555e+000dB,-1.17852659104536e+002°)
5.03570164717664e+004	(-1.22634639155800e+000dB,-1.18925715205641e+002°)
5.04731013836266e+004	(-9.13545542604318e-001dB,-1.20077711999697e+002°)
5.05894538988458e+004	(-5.93008534679974e-001dB,-1.21316665797548e+002°)
5.07060746343135e+004	(-2.64763990144141e-001dB,-1.22651524209379e+002°)
5.08229642083414e+004	(7.10538338204358e-002dB,-1.24092257483315e+002°)
5.09401232406662e+004	(4.14171504678870e-001dB,-1.25649944145764e+002°)
5.10575523524535e+004	(7.64134211273201e-001dB,-1.27336841285079e+002°)
5.11752521663007e+004	(1.12025321569338e+000dB,-1.29166424745177e+002°)
5.12932233062406e+004	(1.48154133198859e+000dB,-1.31153377514912e+002°)
5.14114663977443e+004	(1.84663519512457e+000dB,-1.33313495380382e+002°)
5.15299820677251e+004	(2.21370406660026e+000dB,-1.35663467429716e+002°)
5.16487709445411e+004	(2.58034685974956e+000dB,-1.38220475972903e+002°)
5.17678336579991e+004	(2.94348241790249e+000dB,-1.41001548037301e+002°)
5.18871708393579e+004	(3.29924331662082e+000dB,-1.44022583482433e+002°)
5.20067831213313e+004	(3.64289084321948e+000dB,-1.47296991230541e+002°)
5.21266711380917e+004	(3.96877790857085e+000dB,-1.50833897549262e+002°)
5.22468355252733e+004	(4.27039564797941e+000dB,-1.54635963584673e+002°)
5.23672769199760e+004	(4.54054439674424e+000dB,-1.58696974324705e+002°)
5.24879959607678e+004	(4.77166432584959e+000dB,-1.62999531983242e+002°)
5.26089932876892e+004	(4.95633843237409e+000dB,-1.67513363872842e+002°)
5.27302695422559e+004	(5.08793780116146e+000dB,-1.72194855892917e+002°)
5.28518253674627e+004	(5.16132324090912e+000dB,-1.76988342315342e+002°)
5.29736614077862e+004	(5.17346923028569e+000dB,1.78170646493602e+002°)
5.30957783091892e+004	(5.12386357862249e+000dB,1.73350503482942e+002°)
5.32181767191233e+004	(5.01457744238678e+000dB,1.68617884733144e+002°)
5.33408572865326e+004	(4.84998639560739e+000dB,1.64032398257510e+002°)
5.34638206618573e+004	(4.63621797361345e+000dB,1.59642645426701e+002°)
5.35870674970370e+004	(4.38046274728147e+000dB,1.55484161400307e+002°)
5.37105984455142e+004	(4.09029359633055e+000dB,1.51579243825413e+002°)
5.38344141622376e+004	(3.77310040183987e+000dB,1.47938237960892e+002°)
5.39585153036658e+004	(3.43569142052374e+000dB,1.44561671560414e+002°)
5.40829025277707e+004	(3.08406311653971e+000dB,1.41442674988566e+002°)
5.42075764940411e+004	(2.72330965688752e+000dB,1.38569281279560e+002°)
5.43325378634858e+004	(2.35763187128286e+000dB,1.35926381188718e+002°)
5.44577872986376e+004	(1.99040720039179e+000dB,1.33497253426743e+002°)
5.45833254635566e+004	(1.62429017104491e+000dB,1.31264683078817e+002°)
5.47091530238336e+004	(1.26132232108167e+000dB,1.29211727897820e+002°)
5.48352706465937e+004	(9.03038662241503e-001dB,1.27322207113316e+002°)
5.49616790005002e+004	(5.50563842054513e-001dB,1.25580984382548e+002°)
5.50883787557574e+004	(2.04695204275584e-001dB,1.23974105447007e+002°)
5.52153705841150e+004	(-1.34027620494100e-001dB,1.22488837906117e+002°)
5.53426551588708e+004	(-4.65265654786770e-001dB,1.21113648287806e+002°)
5.54702331548751e+004	(-7.88834518084168e-001dB,1.19838141466194e+002°)
5.55981052485337e+004	(-1.10466768537568e+000dB,1.18652979647819e+002°)
5.57262721178117e+004	(-1.41278743809774e+000dB,1.17549792373060e+002°)
5.58547344422371e+004	(-1.71328205928233e+000dB,1.16521084864317e+002°)
5.59834929029043e+004	(-2.00628803575980e+000dB,1.15560149201166e+002°)
5.61125481824779e+004	(-2.29197624010589e+000dB,1.14660980875473e+002°)
5.62419009651961e+004	(-2.57054125553264e+000dB,1.13818202009209e+002°)
5.63715519368745e+004	(-2.84219317104953e+000dB,1.13026991703534e+002°)
5.65015017849097e+004	(-3.10715131124442e+000dB,1.12283023484785e+002°)
5.66317511982828e+004	(-3.36563947686642e+000dB,1.11582409517618e+002°)
5.67623008675632e+004	(-3.61788236247351e+000dB,1.10921651097100e+002°)
5.68931514849123e+004	(-3.86410288912561e+000dB,1.10297594860387e+002°)
5.70243037440871e+004	(-4.10452024694514e+000dB,1.09707394142578e+002°)
5.71557583404436e+004	(-4.33934848700110e+000dB,1.09148474917359e+002°)
5.72875159709413e+004	(-4.56879553714533e+000dB,1.08618505798166e+002°)
5.74195773341458e+004	(-4.79306254388836e+000dB,1.08115371619174e+002°)
5.75519431302333e+004	(-5.01234346390616e+000dB,1.07637150162573e+002°)
5.76846140609943e+004	(-5.22682484563095e+000dB,1.07182091645471e+002°)
5.78175908298366e+004	(-5.43668575446701e+000dB,1.06748600624051e+002°)
5.79508741417900e+004	(-5.64209780551528e+000dB,1.06335220013949e+002°)
5.80844647035092e+004	(-5.84322527567321e+000dB,1.05940616962778e+002°)
5.82183632232781e+004	(-6.04022527330055e+000dB,1.05563570344169e+002°)
5.83525704110134e+004	(-6.23324794854290e+000dB,1.05202959672102e+002°)
5.84870869782682e+004	(-6.42243673126405e+000dB,1.04857755260118e+002°)
5.86219136382360e+004	(-6.60792858655121e+000dB,1.04527009472838e+002°)
5.87570511057542e+004	(-6.78985428011015e+000dB,1.04209848936738e+002°)
5.88925000973082e+004	(-6.96833864772564e+000dB,1.03905467594498e+002°)
5.90282613310352e+004	(-7.14350086439641e+000dB,1.03613120502057e+002°)
5.91643355267278e+004	(-7.31545470988892e+000dB,1.03332118280447e+002°)
5.93007234058376e+004	(-7.48430882832482e+000dB,1.03061822145682e+002°)
5.94374256914797e+004	(-7.65016698011530e+000dB,1.02801639449736e+002°)
5.95744431084361e+004	(-7.81312828506972e+000dB,1.02551019673991e+002°)
5.97117763831593e+004	(-7.97328745592899e+000dB,1.02309450823893e+002°)
5.98494262437768e+004	(-8.13073502188772e+000dB,1.02076456179864e+002°)
5.99873934200944e+004	(-8.28555754189971e+000dB,1.01851591365033e+002°)
6.01256786436003e+004	(-8.43783780775420e+000dB,1.01634441695054e+002°)
6.02642826474691e+004	(-8.58765503704499e+000dB,1.01424619779627e+002°)
6.04032061665654e+004	(-8.73508505624649e+000dB,1.01221763348714e+002°)
6.05424499374477e+004	(-8.88020047418876e+000dB,1.01025533279778e+002°)
6.06820146983729e+004	(-9.02307084627432e+000dB,1.00835611805108e+002°)
6.08219011892992e+004	(-9.16376282980744e+000dB,1.00651700880620e+002°)
6.09621101518911e+004	(-9.30234033082504e+000dB,1.00473520699713e+002°)
6.11026423295223e+004	(-9.43886464283634e+000dB,1.00300808337605e+002°)
6.12434984672806e+004	(-9.57339457787162e+000dB,1.00133316513172e+002°)
6.13846793119712e+004	(-9.70598659023725e+000dB,9.99708124567268e+001°)
6.15261856121208e+004	(-9.83669489337011e+000dB,9.98130768735066e+001°)
6.16680181179818e+004	(-9.96557157016924e+000dB,9.96599029936306e+001°)
6.18101775815359e+004	(-1.00926666771730e+001dB,9.95110957003942e+001°)
6.19526647564986e+004	(-1.02180283429275e+001dB,9.93664707295070e+001°)
6.20954803983227e+004	(-1.03417028608879e+001dB,9.92258539327657e+001°)
6.22386252642023e+004	(-1.04637347771655e+001dB,9.90890806001991e+001°)
6.23821001130775e+004	(-1.05841669734266e+001dB,9.89559948354541e+001°)
6.25259057056375e+004	(-1.07030407452296e+001dB,9.88264489796392e+001°)
6.26700428043253e+004	(-1.08203958760678e+001dB,9.87003030793274e+001°)
6.28145121733414e+004	(-1.09362707073773e+001dB,9.85774243948886e+001°)
6.29593145786481e+004	(-1.10507022047465e+001dB,9.84576869456420e+001°)
6.31044507879733e+004	(-1.11637260205557e+001dB,9.83409710886806e+001°)
6.32499215708147e+004	(-1.12753765532587e+001dB,9.82271631285536e+001°)
6.33957276984439e+004	(-1.13856870035046e+001dB,9.81161549551690e+001°)
6.35418699439105e+004	(-1.14946894272898e+001dB,9.80078437076506e+001°)
6.36883490820461e+004	(-1.16024147863135e+001dB,9.79021314619609e+001°)
6.38351658894686e+004	(-1.17088929957022e+001dB,9.77989249404150e+001°)
6.39823211445861e+004	(-1.18141529692594e+001dB,9.76981352412996e+001°)
6.41298156276010e+004	(-1.19182226623818e+001dB,9.75996775870298e+001°)
6.42776501205144e+004	(-1.20211291127829e+001dB,9.75034710893696e+001°)
6.44258254071301e+004	(-1.21228984791462e+001dB,9.74094385303979e+001°)
6.45743422730587e+004	(-1.22235560778293e+001dB,9.73175061580123e+001°)
6.47232015057219e+004	(-1.23231264177356e+001dB,9.72276034948688e+001°)
6.48724038943565e+004	(-1.24216332334462e+001dB,9.71396631597395e+001°)
6.50219502300186e+004	(-1.25190995167265e+001dB,9.70536207003582e+001°)
6.51718413055882e+004	(-1.26155475464847e+001dB,9.69694144369202e+001°)
6.53220779157726e+004	(-1.27109989172790e+001dB,9.68869853154514e+001°)
6.54726608571116e+004	(-1.28054745664504e+001dB,9.68062767703251e+001°)
6.56235909279808e+004	(-1.28989947999565e+001dB,9.67272345952835e+001°)
6.57748689285965e+004	(-1.29915793169806e+001dB,9.66498068223484e+001°)
6.59264956610196e+004	(-1.30832472333812e+001dB,9.65739436080793e+001°)
6.60784719291598e+004	(-1.31740171040455e+001dB,9.64995971266601e+001°)
6.62307985387803e+004	(-1.32639069442053e+001dB,9.64267214693363e+001°)
6.63834762975016e+004	(-1.33529342497732e+001dB,9.63552725497855e+001°)
6.65365060148060e+004	(-1.34411160167488e+001dB,9.62852080150101e+001°)
6.66898885020417e+004	(-1.35284687597450e+001dB,9.62164871613682e+001°)
6.68436245724275e+004	(-1.36150085296828e+001dB,9.61490708554377e+001°)
6.69977150410567e+004	(-1.37007509306930e+001dB,9.60829214593553e+001°)
6.71521607249016e+004	(-1.37857111362722e+001dB,9.60180027603607e+001°)
6.73069624428179e+004	(-1.38699039047261e+001dB,9.59542799042680e+001°)
6.74621210155488e+004	(-1.39533435939409e+001dB,9.58917193326154e+001°)
6.76176372657297e+004	(-1.40360441755130e+001dB,9.58302887232552e+001°)
6.77735120178923e+004	(-1.41180192482726e+001dB,9.57699569341668e+001°)
6.79297460984689e+004	(-1.41992820512303e+001dB,9.57106939502994e+001°)
6.80863403357972e+004	(-1.42798454759743e+001dB,9.56524708332440e+001°)
6.82432955601241e+004	(-1.43597220785491e+001dB,9.55952596735704e+001°)
6.84006126036107e+004	(-1.44389240908350e+001dB,9.55390335456677e+001°)
6.85582923003362e+004	(-1.45174634314594e+001dB,9.54837664649226e+001°)
6.87163354863027e+004	(-1.45953517162587e+001dB,9.54294333471241e+001°)
6.88747429994394e+004	(-1.46726002683119e+001dB,9.53760099699232e+001°)
6.90335156796073e+004	(-1.47492201275699e+001dB,9.53234729362637e+001°)
6.91926543686032e+004	(-1.48252220600958e+001dB,9.52717996396483e+001°)
6.93521599101646e+004	(-1.49006165669374e+001dB,9.52209682311334e+001°)
6.95120331499741e+004	(-1.49754138926473e+001dB,9.51709575879646e+001°)
6.96722749356637e+004	(-1.50496240334673e+001dB,9.51217472837480e+001°)
6.98328861168193e+004	(-1.51232567451945e+001dB,9.50733175600755e+001°)
6.99938675449854e+004	(-1.51963215507409e+001dB,9.50256492995256e+001°)
7.00000000000000e+004	(-1.51990904809308e+001dB,9.50238503721935e+001°)
