Freq.	V(vout)
4.00000000000000e+004	(-3.28035375493403e+001dB,1.69692014850200e+002°)
4.00922095231160e+004	(-3.26736539394520e+001dB,1.69616161496554e+002°)
4.01846316111358e+004	(-3.25428761086802e+001dB,1.69539194637787e+002°)
4.02772667540722e+004	(-3.24111902491191e+001dB,1.69461088565720e+002°)
4.03701154430674e+004	(-3.22785822388320e+001dB,1.69381816762869e+002°)
4.04631781703959e+004	(-3.21450376322391e+001dB,1.69301351870043e+002°)
4.05564554294672e+004	(-3.20105416501337e+001dB,1.69219665652342e+002°)
4.06499477148278e+004	(-3.18750791693115e+001dB,1.69136728963503e+002°)
4.07436555221647e+004	(-3.17386347117929e+001dB,1.69052511708458e+002°)
4.08375793483072e+004	(-3.16011924336226e+001dB,1.68966982804024e+002°)
4.09317196912301e+004	(-3.14627361132205e+001dB,1.68880110137593e+002°)
4.10260770500563e+004	(-3.13232491392711e+001dB,1.68791860523759e+002°)
4.11206519250589e+004	(-3.11827144981200e+001dB,1.68702199658653e+002°)
4.12154448176646e+004	(-3.10411147606597e+001dB,1.68611092071962e+002°)
4.13104562304559e+004	(-3.08984320686788e+001dB,1.68518501076422e+002°)
4.14056866671737e+004	(-3.07546481206455e+001dB,1.68424388714624e+002°)
4.15011366327205e+004	(-3.06097441568996e+001dB,1.68328715703009e+002°)
4.15968066331623e+004	(-3.04637009442251e+001dB,1.68231441372853e+002°)
4.16926971757321e+004	(-3.03164987597672e+001dB,1.68132523608014e+002°)
4.17888087688320e+004	(-3.01681173742650e+001dB,1.68031918779313e+002°)
4.18851419220359e+004	(-3.00185360345633e+001dB,1.67929581675248e+002°)
4.19816971460928e+004	(-2.98677334453670e+001dB,1.67825465428862e+002°)
4.20784749529289e+004	(-2.97156877501959e+001dB,1.67719521440477e+002°)
4.21754758556503e+004	(-2.95623765115038e+001dB,1.67611699296017e+002°)
4.22727003685463e+004	(-2.94077766899124e+001dB,1.67501946680668e+002°)
4.23701490070915e+004	(-2.92518646225153e+001dB,1.67390209287484e+002°)
4.24678222879489e+004	(-2.90946160002025e+001dB,1.67276430720647e+002°)
4.25657207289726e+004	(-2.89360058439542e+001dB,1.67160552393015e+002°)
4.26638448492102e+004	(-2.87760084800431e+001dB,1.67042513417509e+002°)
4.27621951689062e+004	(-2.86145975140904e+001dB,1.66922250491925e+002°)
4.28607722095042e+004	(-2.84517458039105e+001dB,1.66799697776751e+002°)
4.29595764936497e+004	(-2.82874254310777e+001dB,1.66674786765388e+002°)
4.30586085451933e+004	(-2.81216076711409e+001dB,1.66547446146301e+002°)
4.31578688891931e+004	(-2.79542629624155e+001dB,1.66417601656469e+002°)
4.32573580519174e+004	(-2.77853608732650e+001dB,1.66285175925478e+002°)
4.33570765608481e+004	(-2.76148700677929e+001dB,1.66150088309586e+002°)
4.34570249446825e+004	(-2.74427582698476e+001dB,1.66012254714937e+002°)
4.35572037333373e+004	(-2.72689922252466e+001dB,1.65871587409172e+002°)
4.36576134579502e+004	(-2.70935376621137e+001dB,1.65727994820445e+002°)
4.37582546508837e+004	(-2.69163592492201e+001dB,1.65581381322904e+002°)
4.38591278457273e+004	(-2.67374205522102e+001dB,1.65431647007553e+002°)
4.39602335773007e+004	(-2.65566839875861e+001dB,1.65278687437299e+002°)
4.40615723816565e+004	(-2.63741107743185e+001dB,1.65122393384908e+002°)
4.41631447960828e+004	(-2.61896608829383e+001dB,1.64962650552463e+002°)
4.42649513591065e+004	(-2.60032929819597e+001dB,1.64799339270760e+002°)
4.43669926104959e+004	(-2.58149643814691e+001dB,1.64632334177001e+002°)
4.44692690912635e+004	(-2.56246309737072e+001dB,1.64461503868829e+002°)
4.45717813436691e+004	(-2.54322471704632e+001dB,1.64286710532796e+002°)
4.46745299112223e+004	(-2.52377658370764e+001dB,1.64107809544887e+002°)
4.47775153386860e+004	(-2.50411382228459e+001dB,1.63924649040777e+002°)
4.48807381720784e+004	(-2.48423138876114e+001dB,1.63737069452886e+002°)
4.49841989586769e+004	(-2.46412406242823e+001dB,1.63544903011520e+002°)
4.50878982470203e+004	(-2.44378643770473e+001dB,1.63347973206490e+002°)
4.51918365869118e+004	(-2.42321291550047e+001dB,1.63146094205744e+002°)
4.52960145294222e+004	(-2.40239769409255e+001dB,1.62939070226871e+002°)
4.54004326268925e+004	(-2.38133475948373e+001dB,1.62726694856943e+002°)
4.55050914329371e+004	(-2.36001787521228e+001dB,1.62508750315821e+002°)
4.56099915024466e+004	(-2.33844057157749e+001dB,1.62285006657217e+002°)
4.57151333915907e+004	(-2.31659613424610e+001dB,1.62055220901457e+002°)
4.58205176578213e+004	(-2.29447759220133e+001dB,1.61819136093030e+002°)
4.59261448598752e+004	(-2.27207770499476e+001dB,1.61576480275231e+002°)
4.60320155577773e+004	(-2.24938894925939e+001dB,1.61326965373323e+002°)
4.61381303128435e+004	(-2.22640350444083e+001dB,1.61070285976701e+002°)
4.62444896876838e+004	(-2.20311323770140e+001dB,1.60806118009190e+002°)
4.63510942462049e+004	(-2.17950968795138e+001dB,1.60534117275575e+002°)
4.64579445536136e+004	(-2.15558404896059e+001dB,1.60253917870791e+002°)
4.65650411764195e+004	(-2.13132715150206e+001dB,1.59965130436448e+002°)
4.66723846824383e+004	(-2.10672944448228e+001dB,1.59667340247778e+002°)
4.67799756407947e+004	(-2.08178097501153e+001dB,1.59360105111516e+002°)
4.68878146219251e+004	(-2.05647136737147e+001dB,1.59042953052883e+002°)
4.69959021975810e+004	(-2.03078980084257e+001dB,1.58715379767158e+002°)
4.71042389408321e+004	(-2.00472498635732e+001dB,1.58376845807605e+002°)
4.72128254260690e+004	(-1.97826514195848e+001dB,1.58026773478266e+002°)
4.73216622290064e+004	(-1.95139796705150e+001dB,1.57664543395434e+002°)
4.74307499266862e+004	(-1.92411061545825e+001dB,1.57289490676801e+002°)
4.75400890974806e+004	(-1.89638966730412e+001dB,1.56900900711623e+002°)
4.76496803210948e+004	(-1.86822109979909e+001dB,1.56498004458492e+002°)
4.77595241785707e+004	(-1.83959025701567e+001dB,1.56079973209883e+002°)
4.78696212522896e+004	(-1.81048181881797e+001dB,1.55645912753741e+002°)
4.79799721259750e+004	(-1.78087976916549e+001dB,1.55194856852469e+002°)
4.80905773846963e+004	(-1.75076736410157e+001dB,1.54725759947630e+002°)
4.82014376148717e+004	(-1.72012709985157e+001dB,1.54237488985681e+002°)
4.83125534042710e+004	(-1.68894068159984e+001dB,1.53728814244019e+002°)
4.84239253420191e+004	(-1.65718899370199e+001dB,1.53198399019096e+002°)
4.85355540185989e+004	(-1.62485207232759e+001dB,1.52644788017287e+002°)
4.86474400258545e+004	(-1.59190908183531e+001dB,1.52066394265794e+002°)
4.87595839569945e+004	(-1.55833829657388e+001dB,1.51461484333521e+002°)
4.88719864065947e+004	(-1.52411709030626e+001dB,1.50828161620950e+002°)
4.89846479706017e+004	(-1.48922193609592e+001dB,1.50164347442888e+002°)
4.90975692463361e+004	(-1.45362842031990e+001dB,1.49467759588763e+002°)
4.92107508324950e+004	(-1.41731127553062e+001dB,1.48735888001606e+002°)
4.93241933291561e+004	(-1.38024443824123e+001dB,1.47965967169413e+002°)
4.94378973377802e+004	(-1.34240113944767e+001dB,1.47154944772487e+002°)
4.95518634612145e+004	(-1.30375403792610e+001dB,1.46299446079844e+002°)
4.96660923036962e+004	(-1.26427540919660e+001dB,1.45395733539606e+002°)
4.97805844708552e+004	(-1.22393740669137e+001dB,1.44439660969359e+002°)
4.98953405697175e+004	(-1.18271241632642e+001dB,1.43426621732108e+002°)
5.00103612087086e+004	(-1.14057353160388e+001dB,1.42351490296093e+002°)
5.01256469976564e+004	(-1.09749518388545e+001dB,1.41208556645904e+002°)
5.02411985477947e+004	(-1.05345397192800e+001dB,1.39991453172605e+002°)
5.03570164717664e+004	(-1.00842974654569e+001dB,1.38693073972954e+002°)
5.04731013836266e+004	(-9.62407020714178e+000dB,1.37305487008639e+002°)
5.05894538988458e+004	(-9.15376792806665e+000dB,1.35819840424503e+002°)
5.07060746343135e+004	(-8.67338890861863e+000dB,1.34226265655651e+002°)
5.08229642083414e+004	(-8.18304968127881e+000dB,1.32513781981192e+002°)
5.09401232406662e+004	(-7.68302302661844e+000dB,1.30670210195427e+002°)
5.10575523524535e+004	(-7.17378572444717e+000dB,1.28682107431130e+002°)
5.11752521663007e+004	(-6.65607784698056e+000dB,1.26534741311959e+002°)
5.12932233062406e+004	(-6.13097520724106e+000dB,1.24212129961259e+002°)
5.14114663977443e+004	(-5.59997594352160e+000dB,1.21697185215615e+002°)
5.15299820677251e+004	(-5.06510080907051e+000dB,1.18972009462730e+002°)
5.16487709445411e+004	(-4.52900410502241e+000dB,1.16018410531807e+002°)
5.17678336579991e+004	(-3.99508782120937e+000dB,1.12818710682486e+002°)
5.18871708393579e+004	(-3.46760497875279e+000dB,1.09356928373265e+002°)
5.20067831213313e+004	(-2.95172936593225e+000dB,1.05620394205450e+002°)
5.21266711380917e+004	(-2.45355884776225e+000dB,1.01601810175163e+002°)
5.22468355252733e+004	(-1.98001114893387e+000dB,9.73016587561361e+001°)
5.23672769199760e+004	(-1.53856996005101e+000dB,9.27307098284889e+001°)
5.24879959607678e+004	(-1.13685286602743e+000dB,8.79121803036199e+001°)
5.26089932876892e+004	(-7.82007154807356e-001dB,8.28829383556049e+001°)
5.27302695422559e+004	(-4.79993780535492e-001dB,7.76931179104079e+001°)
5.28518253674627e+004	(-2.34878672889599e-001dB,7.24037238042902e+001°)
5.29736614077862e+004	(-4.82862402617501e-002dB,6.70822819232433e+001°)
5.30957783091892e+004	(8.08452702896063e-002dB,6.17971837905627e+001°)
5.32181767191233e+004	(1.56138991436788e-001dB,5.66118276988535e+001°)
5.33408572865326e+004	(1.83320045651764e-001dB,5.15797319775175e+001°)
5.34638206618573e+004	(1.69542920678113e-001dB,4.67414497124338e+001°)
5.35870674970370e+004	(1.22661941073133e-001dB,4.21235343826675e+001°)
5.37105984455142e+004	(5.05799284435526e-002dB,3.77392683171382e+001°)
5.38344141622376e+004	(-3.92445553193074e-002dB,3.35905603211177e+001°)
5.39585153036658e+004	(-1.40109196903961e-001dB,2.96703744014594e+001°)
5.40829025277707e+004	(-2.46218777790042e-001dB,2.59651821790317e+001°)
5.42075764940411e+004	(-3.52714637529595e-001dB,2.24571242763730e+001°)
5.43325378634858e+004	(-4.55625505084566e-001dB,1.91257401741019e+001°)
5.44577872986376e+004	(-5.51775868021833e-001dB,1.59492474731189e+001°)
5.45833254635566e+004	(-6.38678218427290e-001dB,1.29054189918795e+001°)
5.47091530238336e+004	(-7.14426186071859e-001dB,9.97213329518842e+000°)
5.48352706465937e+004	(-7.77598305568141e-001dB,7.12767696752615e+000°)
5.49616790005002e+004	(-8.27177198439301e-001dB,4.35086770292451e+000°)
5.50883787557574e+004	(-8.62485917055282e-001dB,1.62105409151142e+000°)
5.52153705841150e+004	(-8.83141570695555e-001dB,-1.08196480151815e+000°)
5.53426551588708e+004	(-8.89025655548334e-001dB,-3.77806736419708e+000°)
5.54702331548751e+004	(-8.80270370799048e-001dB,-6.48695950966702e+000°)
5.55981052485337e+004	(-8.57260356198458e-001dB,-9.22832574391811e+000°)
5.57262721178117e+004	(-8.20649539544171e-001dB,-1.20219613170391e+001°)
5.58547344422371e+004	(-7.71392978483029e-001dB,-1.48878639594291e+001°)
5.59834929029043e+004	(-7.10793562100985e-001dB,-1.78462594503055e+001°)
5.61125481824779e+004	(-6.40563014965088e-001dB,-2.09175285940571e+001°)
5.62419009651961e+004	(-5.62895574482609e-001dB,-2.41219946954542e+001°)
5.63715519368745e+004	(-4.80550684856720e-001dB,-2.74795217168723e+001°)
5.65015017849097e+004	(-3.96937735592074e-001dB,-3.10088667781535e+001°)
5.66317511982828e+004	(-3.16191026109490e-001dB,-3.47267315014334e+001°)
5.67623008675632e+004	(-2.43216852831502e-001dB,-3.86464725963091e+001°)
5.68931514849123e+004	(-1.83687725958856e-001dB,-4.27764729851108e+001°)
5.70243037440871e+004	(-1.43953317589196e-001dB,-4.71182501542654e+001°)
5.71557583404436e+004	(-1.30837491628917e-001dB,-5.16644907954627e+001°)
5.72875159709413e+004	(-1.51300477396094e-001dB,-5.63973354538627e+001°)
5.74195773341458e+004	(-2.11968898282768e-001dB,-6.12873521268384e+001°)
5.75519431302333e+004	(-3.18573425520252e-001dB,-6.62936659399404e+001°)
5.76846140609943e+004	(-4.75375482721829e-001dB,-7.13655841987859e+001°)
5.78175908298366e+004	(-6.84693432181418e-001dB,-7.64457505895928e+001°)
5.79508741417900e+004	(-9.46636312992827e-001dB,-8.14744502830344e+001°)
5.80844647035092e+004	(-1.25911169558628e+000dB,-8.63943283709501e+001°)
5.82183632232781e+004	(-1.61810565757847e+000dB,-9.11546459240816e+001°)
5.83525704110134e+004	(-2.01816515578254e+000dB,-9.57143510046189e+001°)
5.84870869782682e+004	(-2.45297354767800e+000dB,-1.00043608769311e+002°)
5.86219136382360e+004	(-2.91590968860440e+000dB,-1.04123844508257e+002°)
5.87570511057542e+004	(-3.40051122101997e+000dB,-1.07946650232673e+002°)
5.88925000973082e+004	(-3.90080444698154e+000dB,-1.11512023569516e+002°)
5.90282613310352e+004	(-4.41149963293388e+000dB,-1.14826372861632e+002°)
5.91643355267278e+004	(-4.92807342577939e+000dB,-1.17900604492301e+002°)
5.93007234058376e+004	(-5.44676908138916e+000dB,-1.20748474148596e+002°)
5.94374256914797e+004	(-5.96454452093333e+000dB,-1.23385273140558e+002°)
5.95744431084361e+004	(-6.47899261505439e+000dB,-1.25826847510780e+002°)
5.97117763831593e+004	(-6.98825113476576e+000dB,-1.28088908403767e+002°)
5.98494262437768e+004	(-7.49091350592134e+000dB,-1.30186577414954e+002°)
5.99873934200944e+004	(-7.98594663946251e+000dB,-1.32134110568738e+002°)
6.01256786436003e+004	(-8.47261874386956e+000dB,-1.33944751702519e+002°)
6.02642826474691e+004	(-8.95043790324444e+000dB,-1.35630675603326e+002°)
6.04032061665654e+004	(-9.41910098991999e+000dB,-1.37202990667348e+002°)
6.05424499374477e+004	(-9.87845187345668e+000dB,-1.38671778973586e+002°)
6.06820146983729e+004	(-1.03284476577313e+001dB,-1.40046158146569e+002°)
6.08219011892992e+004	(-1.07691316637481e+001dB,-1.41334354306393e+002°)
6.09621101518911e+004	(-1.12006119736226e+001dB,-1.42543779009439e+002°)
6.11026423295223e+004	(-1.16230444971957e+001dB,-1.43681105649242e+002°)
6.12434984672806e+004	(-1.20366196804382e+001dB,-1.44752342569824e+002°)
6.13846793119712e+004	(-1.24415521251422e+001dB,-1.45762901354414e+002°)
6.15261856121208e+004	(-1.28380725232854e+001dB,-1.46717659555153e+002°)
6.16680181179818e+004	(-1.32264214241817e+001dB,-1.47621017646584e+002°)
6.18101775815359e+004	(-1.36068444481508e+001dB,-1.48476950307235e+002°)
6.19526647564986e+004	(-1.39795886388771e+001dB,-1.49289052322011e+002°)
6.20954803983227e+004	(-1.43448997100555e+001dB,-1.50060579499197e+002°)
6.22386252642023e+004	(-1.47030199928522e+001dB,-1.50794485039463e+002°)
6.23821001130775e+004	(-1.50541869313157e+001dB,-1.51493451802073e+002°)
6.25259057056375e+004	(-1.53986320051448e+001dB,-1.52159920899272e+002°)
6.26700428043253e+004	(-1.57365799847350e+001dB,-1.52796117023457e+002°)
6.28145121733414e+004	(-1.60682484436473e+001dB,-1.53404070878904e+002°)
6.29593145786481e+004	(-1.63938474695558e+001dB,-1.53985639054851e+002°)
6.31044507879733e+004	(-1.67135795273281e+001dB,-1.54542521641854e+002°)
6.32499215708147e+004	(-1.70276394377968e+001dB,-1.55076277860147e+002°)
6.33957276984439e+004	(-1.73362144436242e+001dB,-1.55588339937618e+002°)
6.35418699439105e+004	(-1.76394843398081e+001dB,-1.56080025447206e+002°)
6.36883490820461e+004	(-1.79376216512909e+001dB,-1.56552548287826e+002°)
6.38351658894686e+004	(-1.82307918439289e+001dB,-1.57007028470625e+002°)
6.39823211445861e+004	(-1.85191535581652e+001dB,-1.57444500852237e+002°)
6.41298156276010e+004	(-1.88028588571013e+001dB,-1.57865922939247e+002°)
6.42776501205144e+004	(-1.90820534826057e+001dB,-1.58272181872416e+002°)
6.44258254071301e+004	(-1.93568771145262e+001dB,-1.58664100686022e+002°)
6.45743422730587e+004	(-1.96274636293247e+001dB,-1.59042443925573e+002°)
6.47232015057219e+004	(-1.98939413553136e+001dB,-1.59407922697064e+002°)
6.48724038943565e+004	(-2.01564333224565e+001dB,-1.59761199211840e+002°)
6.50219502300186e+004	(-2.04150575052319e+001dB,-1.60102890883363e+002°)
6.51718413055882e+004	(-2.06699270575281e+001dB,-1.60433574025410e+002°)
6.53220779157726e+004	(-2.09211505388802e+001dB,-1.60753787195116e+002°)
6.54726608571116e+004	(-2.11688321316341e+001dB,-1.61064034219295e+002°)
6.56235909279808e+004	(-2.14130718488292e+001dB,-1.61364786937767e+002°)
6.57748689285965e+004	(-2.16539657327550e+001dB,-1.61656487693594e+002°)
6.59264956610196e+004	(-2.18916060442587e+001dB,-1.61939551596564e+002°)
6.60784719291598e+004	(-2.21260814429671e+001dB,-1.62214368583286e+002°)
6.62307985387803e+004	(-2.23574771586585e+001dB,-1.62481305294655e+002°)
6.63834762975016e+004	(-2.25858751540650e+001dB,-1.62740706788954e+002°)
6.65365060148060e+004	(-2.28113542794127e+001dB,-1.62992898107020e+002°)
6.66898885020417e+004	(-2.30339904190419e+001dB,-1.63238185703960e+002°)
6.68436245724275e+004	(-2.32538566304434e+001dB,-1.63476858760344e+002°)
6.69977150410567e+004	(-2.34710232760637e+001dB,-1.63709190384503e+002°)
6.71521607249016e+004	(-2.36855581482287e+001dB,-1.63935438716154e+002°)
6.73069624428179e+004	(-2.38975265875268e+001dB,-1.64155847940651e+002°)
6.74621210155488e+004	(-2.41069915949871e+001dB,-1.64370649222134e+002°)
6.76176372657297e+004	(-2.43140139383813e+001dB,-1.64580061562933e+002°)
6.77735120178923e+004	(-2.45186522529585e+001dB,-1.64784292595970e+002°)
6.79297460984689e+004	(-2.47209631369181e+001dB,-1.64983539316051e+002°)
6.80863403357972e+004	(-2.49210012419082e+001dB,-1.65177988755545e+002°)
6.82432955601241e+004	(-2.51188193588238e+001dB,-1.65367818609210e+002°)
6.84006126036107e+004	(-2.53144684991653e+001dB,-1.65553197812593e+002°)
6.85582923003362e+004	(-2.55079979722075e+001dB,-1.65734287077992e+002°)
6.87163354863027e+004	(-2.56994554582145e+001dB,-1.65911239391490e+002°)
6.88747429994394e+004	(-2.58888870779185e+001dB,-1.66084200474366e+002°)
6.90335156796073e+004	(-2.60763374584769e+001dB,-1.66253309211789e+002°)
6.91926543686032e+004	(-2.62618497961043e+001dB,-1.66418698051473e+002°)
6.93521599101646e+004	(-2.64454659155659e+001dB,-1.66580493374711e+002°)
6.95120331499741e+004	(-2.66272263267079e+001dB,-1.66738815841994e+002°)
6.96722749356637e+004	(-2.68071702781927e+001dB,-1.66893780715220e+002°)
6.98328861168193e+004	(-2.69853358085921e+001dB,-1.67045498158312e+002°)
6.99938675449854e+004	(-2.71617597949883e+001dB,-1.67194073517931e+002°)
7.00000000000000e+004	(-2.71684385868419e+001dB,-1.67199665931124e+002°)
