Freq.	V(vout)
4.00000000000000e+004	-2.23532532786678e-002,4.14771313845779e-003
4.00922095231160e+004	-2.26835097832415e-002,4.24068322370465e-003
4.01846316111358e+004	-2.30208730789046e-002,4.33640308065466e-003
4.02772667540722e+004	-2.33655474429422e-002,4.43497513273766e-003
4.03701154430674e+004	-2.37177445046283e-002,4.53650642843367e-003
4.04631781703959e+004	-2.40776835625831e-002,4.64110888745355e-003
4.05564554294672e+004	-2.44455919180653e-002,4.74889956205905e-003
4.06499477148278e+004	-2.48217052250948e-002,4.86000091455237e-003
4.07436555221647e+004	-2.52062678583837e-002,4.97454111209210e-003
4.08375793483072e+004	-2.55995333000908e-002,5.09265434005916e-003
4.09317196912301e+004	-2.60017645464974e-002,5.21448113529553e-003
4.10260770500563e+004	-2.64132345357625e-002,5.34016874064576e-003
4.11206519250589e+004	-2.68342265979999e-002,5.46987148235433e-003
4.12154448176646e+004	-2.72650349289824e-002,5.60375117199303e-003
4.13104562304559e+004	-2.77059650888881e-002,5.74197753472901e-003
4.14056866671737e+004	-2.81573345275789e-002,5.88472866587525e-003
4.15011366327205e+004	-2.86194731379955e-002,6.03219151789082e-003
4.15968066331623e+004	-2.90927238393824e-002,6.18456242008840e-003
4.16926971757321e+004	-2.95774431921404e-002,6.34204763358142e-003
4.17888087688320e+004	-3.00740020462401e-002,6.50486394416200e-003
4.18851419220359e+004	-3.05827862252638e-002,6.67323929607617e-003
4.19816971460928e+004	-3.11041972482630e-002,6.84741346989132e-003
4.20784749529289e+004	-3.16386530917841e-002,7.02763880793120e-003
4.21754758556503e+004	-3.21865889945717e-002,7.21418099110406e-003
4.22727003685463e+004	-3.27484583076089e-002,7.40731987122983e-003
4.23701490070915e+004	-3.33247333923669e-002,7.60735036338478e-003
4.24678222879489e+004	-3.39159065703077e-002,7.81458340318922e-003
4.25657207289726e+004	-3.45224911268969e-002,8.02934697440457e-003
4.26638448492102e+004	-3.51450223736074e-002,8.25198721270167e-003
4.27621951689062e+004	-3.57840587716428e-002,8.48286959203596e-003
4.28607722095042e+004	-3.64401831213452e-002,8.72238020063851e-003
4.29595764936497e+004	-3.71140038215321e-002,8.97092711432759e-003
4.30586085451933e+004	-3.78061562033105e-002,9.22894187558703e-003
4.31578688891931e+004	-3.85173039432044e-002,9.49688108763458e-003
4.32573580519174e+004	-3.92481405607777e-002,9.77522813369700e-003
4.33570765608481e+004	-3.99993910062697e-002,1.00644950326105e-002
4.34570249446825e+004	-4.07718133441696e-002,1.03652244430955e-002
4.35572037333373e+004	-4.15662005389952e-002,1.06779918301687e-002
4.36576134579502e+004	-4.23833823500286e-002,1.10034078086993e-002
4.37582546508837e+004	-4.32242273421382e-002,1.13421206804521e-002
4.38591278457273e+004	-4.40896450203497e-002,1.16948191828869e-002
4.39602335773007e+004	-4.49805880962686e-002,1.20622354697252e-002
4.40615723816565e+004	-4.58980548949999e-002,1.24451483455063e-002
4.41631447960828e+004	-4.68430919117461e-002,1.28443867787498e-002
4.42649513591065e+004	-4.78167965278076e-002,1.32608337209597e-002
4.43669926104959e+004	-4.88203198963040e-002,1.36954302617231e-002
4.44692690912635e+004	-4.98548700084968e-002,1.41491801535091e-002
4.45717813436691e+004	-5.09217149522170e-002,1.46231547435527e-002
4.46745299112223e+004	-5.20221863744447e-002,1.51184983543248e-002
4.47775153386860e+004	-5.31576831607220e-002,1.56364341590570e-002
4.48807381720784e+004	-5.43296753445750e-002,1.61782706038474e-002
4.49841989586769e+004	-5.55397082606788e-002,1.67454084342690e-002
4.50878982470203e+004	-5.67894069558756e-002,1.73393483908528e-002
4.51918365869118e+004	-5.80804808725819e-002,1.79616996457964e-002
4.52960145294222e+004	-5.94147288192251e-002,1.86141890618357e-002
4.54004326268925e+004	-6.07940442424841e-002,1.92986713640922e-002
4.55050914329371e+004	-6.22204208158264e-002,2.00171403269875e-002
4.56099915024466e+004	-6.36959583583378e-002,2.07717410909516e-002
4.57151333915907e+004	-6.52228690969339e-002,2.15647837380882e-002
4.58205176578213e+004	-6.68034842835776e-002,2.23987582726573e-002
4.59261448598752e+004	-6.84402611770482e-002,2.32763511706081e-002
4.60320155577773e+004	-7.01357903958644e-002,2.42004636841507e-002
4.61381303128435e+004	-7.18928036449486e-002,2.51742321117096e-002
4.62444896876838e+004	-7.37141818133068e-002,2.62010502714603e-002
4.63510942462049e+004	-7.56029634329648e-002,2.72845944488076e-002
4.64579445536136e+004	-7.75623534801876e-002,2.84288511250561e-002
4.65650411764195e+004	-7.95957324883444e-002,2.96381478361285e-002
4.66723846824383e+004	-8.17066659263844e-002,3.09171875592962e-002
4.67799756407947e+004	-8.38989137777719e-002,3.22710870810755e-002
4.68878146219251e+004	-8.61764402299133e-002,3.37054198636276e-002
4.69959021975810e+004	-8.85434233529795e-002,3.52262640008731e-002
4.71042389408321e+004	-9.10042646074720e-002,3.68402559406228e-002
4.72128254260690e+004	-9.35635979700174e-002,3.85546507468004e-002
4.73216622290064e+004	-9.62262984038484e-002,4.03773897894241e-002
4.74307499266862e+004	-9.89974893211136e-002,4.23171768801877e-002
4.75400890974806e+004	-1.01882548584109e-001,4.43835640221807e-002
4.76496803210948e+004	-1.04887112466500e-001,4.65870481160533e-002
4.77595241785707e+004	-1.08017076836815e-001,4.89391801646603e-002
4.78696212522896e+004	-1.11278594626226e-001,5.14526887487627e-002
4.79799721259750e+004	-1.14678068390199e-001,5.41416198101769e-002
4.80905773846963e+004	-1.18222136454808e-001,5.70214950818713e-002
4.82014376148717e+004	-1.21917650735984e-001,6.01094918488684e-002
4.83125534042710e+004	-1.25771643810801e-001,6.34246471162336e-002
4.84239253420191e+004	-1.29791282176038e-001,6.69880897004282e-002
4.85355540185989e+004	-1.33983801813000e-001,7.08233042527891e-002
4.86474400258545e+004	-1.38356421143390e-001,7.49564317647866e-002
4.87595839569945e+004	-1.42916225148196e-001,7.94166116882553e-002
4.88719864065947e+004	-1.47670012754867e-001,8.42363714167790e-002
4.89846479706017e+004	-1.52624097480385e-001,8.94520694884250e-002
4.90975692463361e+004	-1.57784048627041e-001,9.51043994409717e-002
4.92107508324950e+004	-1.63154356909427e-001,1.01238961705621e-001
4.93241933291561e+004	-1.68738004050804e-001,1.07906911146723e-001
4.94378973377802e+004	-1.74535910385754e-001,1.15165687666042e-001
4.95518634612145e+004	-1.80546227548454e-001,1.23079836418944e-001
4.96660923036962e+004	-1.86763434559470e-001,1.31721922232320e-001
4.97805844708552e+004	-1.93177184640025e-001,1.41173539165781e-001
4.98953405697175e+004	-1.99770836426389e-001,1.51526409939243e-001
5.00103612087086e+004	-2.06519586471996e-001,1.62883559874528e-001
5.01256469976564e+004	-2.13388099630653e-001,1.75360534215739e-001
5.02411985477947e+004	-2.20327509969517e-001,1.89086603574076e-001
5.03570164717664e+004	-2.27271637647772e-001,2.04205866096704e-001
5.04731013836266e+004	-2.34132238135441e-001,2.20878101717761e-001
5.05894538988458e+004	-2.40793072525851e-001,2.39279156740409e-001
5.07060746343135e+004	-2.47102568054377e-001,2.59600527321633e-001
5.08229642083414e+004	-2.52864838180635e-001,2.82047657746553e-001
5.09401232406662e+004	-2.57828872180473e-001,3.06836262529031e-001
5.10575523524535e+004	-2.61675818481801e-001,3.34185711439024e-001
5.11752521663007e+004	-2.64004525633327e-001,3.64308183234762e-001
5.12932233062406e+004	-2.64315944922500e-001,3.97391917944609e-001
5.14114663977443e+004	-2.61997739159770e-001,4.33576542685043e-001
5.15299820677251e+004	-2.56311597287891e-001,4.72918253073487e-001
5.16487709445411e+004	-2.46387415688225e-001,5.15342865258007e-001
5.17678336579991e+004	-2.31230655510768e-001,5.60585844195868e-001
5.18871708393579e+004	-2.09751528291442e-001,6.08120965007096e-001
5.20067831213313e+004	-1.80826388808619e-001,6.57083926718701e-001
5.21266711380917e+004	-1.43401248415660e-001,7.06204326719089e-001
5.22468355252733e+004	-9.66423213513270e-002,7.53768142649639e-001
5.23672769199760e+004	-4.01265896253665e-002,7.97640371767270e-001
5.24879959607678e+004	2.59539944162557e-002,8.35378176402752e-001
5.26089932876892e+004	1.00623583888929e-001,8.64451821305706e-001
5.27302695422559e+004	1.82052484895309e-001,8.82560048497299e-001
5.28518253674627e+004	2.67642229939144e-001,8.87984308557287e-001
5.29736614077862e+004	3.54283160320747e-001,8.79891403486732e-001
5.30957783091892e+004	4.38741891730305e-001,8.58490810254158e-001
5.32181767191233e+004	5.18082950169912e-001,8.24992729983902e-001
5.33408572865326e+004	5.90013732545812e-001,7.81380609657514e-001
5.34638206618573e+004	6.53074341697613e-001,7.30072534555674e-001
5.35870674970370e+004	7.06653971449210e-001,6.73569548298559e-001
5.37105984455142e+004	7.50870295427690e-001,6.14170934775670e-001
5.38344141622376e+004	7.86375175485173e-001,5.53795463414038e-001
5.39585153036658e+004	8.14147276661901e-001,4.93907769566711e-001
5.40829025277707e+004	8.35312353149875e-001,4.35524854582020e-001
5.42075764940411e+004	8.51009315438329e-001,3.79270697949309e-001
5.43325378634858e+004	8.62303233161579e-001,3.25451306504966e-001
5.44577872986376e+004	8.70137289277410e-001,2.74131271415082e-001
5.45833254635566e+004	8.75312780702778e-001,2.25201417074312e-001
5.47091530238336e+004	8.78486960241490e-001,1.78433420531432e-001
5.48352706465937e+004	8.80180701287990e-001,1.33521125501946e-001
5.49616790005002e+004	8.80790355143247e-001,9.01102122267894e-002
5.50883787557574e+004	8.80600176745147e-001,4.78186011159508e-002
5.52153705841150e+004	8.79793162057654e-001,6.25002741821414e-003
5.53426551588708e+004	8.78459119276074e-001,-3.49969958087836e-002
5.54702331548751e+004	8.76599408634089e-001,-7.63228865476517e-002
5.55981052485337e+004	8.74128162693335e-001,-1.18121654169209e-001
5.57262721178117e+004	8.70870058263939e-001,-1.60774902363421e-001
5.58547344422371e+004	8.66554956940638e-001,-2.04643557529937e-001
5.59834929029043e+004	8.60810062545185e-001,-2.50055595217447e-001
5.61125481824779e+004	8.53150761808505e-001,-2.97287875784564e-001
5.62419009651961e+004	8.42972123354985e-001,-3.46540090535494e-001
5.63715519368745e+004	8.29544219245199e-001,-3.97898945674405e-001
5.65015017849097e+004	8.12016029208259e-001,-4.51291374539912e-001
5.66317511982828e+004	7.89434552327195e-001,-5.06427203274045e-001
5.67623008675632e+004	7.60787419878804e-001,-5.62734818820476e-001
5.68931514849123e+004	7.25077789575027e-001,-6.19298397688602e-001
5.70243037440871e+004	6.81437994053019e-001,-6.74811971468871e-001
5.71557583404436e+004	6.29281348118045e-001,-7.27572566968320e-001
5.72875159709413e+004	5.68478394694929e-001,-7.75538443865580e-001
5.74195773341458e+004	4.99526000870319e-001,-8.16473867694135e-001
5.75519431302333e+004	4.23661083383428e-001,-8.48184128039287e-001
5.76846140609943e+004	3.42865943876018e-001,-8.68813804442824e-001
5.78175908298366e+004	2.59729660811147e-001,-8.77147146368432e-001
5.79508741417900e+004	1.77170987981300e-001,-8.72829904800904e-001
5.80844647035092e+004	9.80782772332187e-002,-8.56443625364077e-001
5.82183632232781e+004	2.49556764060201e-002,-8.29407396658290e-001
5.83525704110134e+004	-4.03374350952408e-002,-7.93738804262920e-001
5.84870869782682e+004	-9.67038705206055e-002,-7.51746865735722e-001
5.86219136382360e+004	-1.43783594063033e-001,-7.05737325934783e-001
5.87570511057542e+004	-1.81825927157209e-001,-6.57788165329693e-001
5.88925000973082e+004	-2.11513339797544e-001,-6.09618132966676e-001
5.90282613310352e+004	-2.33784128381502e-001,-5.62541219714956e-001
5.91643355267278e+004	-2.49683621458437e-001,-5.17483769934548e-001
5.93007234058376e+004	-2.60255677742611e-001,-4.75037705597808e-001
5.94374256914797e+004	-2.66473633598790e-001,-4.35527966731578e-001
5.95744431084361e+004	-2.69203411572439e-001,-3.99079576295963e-001
5.97117763831593e+004	-2.69189700925267e-001,-3.65676466979500e-001
5.98494262437768e+004	-2.67056940712322e-001,-3.35209071230865e-001
5.99873934200944e+004	-2.63318690427026e-001,-3.07510609985138e-001
6.01256786436003e+004	-2.58390926253525e-001,-2.82383470471402e-001
6.02642826474691e+004	-2.52606432051697e-001,-2.59617570207849e-001
6.04032061665654e+004	-2.46228653927364e-001,-2.39002589762275e-001
6.05424499374477e+004	-2.39464194606651e-001,-2.20335705553740e-001
6.06820146983729e+004	-2.32473627893392e-001,-2.03426131101025e-001
6.08219011892992e+004	-2.25380604829627e-001,-1.88097464246305e-001
6.09621101518911e+004	-2.18279375550220e-001,-1.74188573562657e-001
6.11026423295223e+004	-2.11240917767404e-001,-1.61553547688932e-001
6.12434984672806e+004	-2.04317880468462e-001,-1.50061072727243e-001
6.13846793119712e+004	-1.97548542768356e-001,-1.39593486533934e-001
6.15261856121208e+004	-1.90959966912183e-001,-1.30045675495511e-001
6.16680181179818e+004	-1.84570499197104e-001,-1.21323920976385e-001
6.18101775815359e+004	-1.78391747427296e-001,-1.13344762352205e-001
6.19526647564986e+004	-1.72430140536387e-001,-1.06033916238674e-001
6.20954803983227e+004	-1.66688156048832e-001,-9.93252733455666e-002
6.22386252642023e+004	-1.61165284243949e-001,-9.31599825356301e-002
6.23821001130775e+004	-1.55858784030730e-001,-8.74856241545782e-002
6.25259057056375e+004	-1.50764274279332e-001,-8.22554701167985e-002
6.26700428043253e+004	-1.45876195295217e-001,-7.74278256062755e-002
6.28145121733414e+004	-1.41188167882292e-001,-7.29654459088511e-002
6.29593145786481e+004	-1.36693271686844e-001,-6.88350213719362e-002
6.31044507879733e+004	-1.32384259953281e-001,-6.50067234796610e-002
6.32499215708147e+004	-1.28253724217629e-001,-6.14538053284840e-002
6.33957276984439e+004	-1.24294219617581e-001,-5.81522502528826e-002
6.35418699439105e+004	-1.20498359251933e-001,-5.50804628946507e-002
6.36883490820461e+004	-1.16858884249897e-001,-5.22189975764044e-002
6.38351658894686e+004	-1.13368714813020e-001,-4.95503193956313e-002
6.39823211445861e+004	-1.10020986388315e-001,-4.70585939805521e-002
6.41298156276010e+004	-1.06809074260140e-001,-4.47295023326415e-002
6.42776501205144e+004	-1.03726609158763e-001,-4.25500776187019e-002
6.44258254071301e+004	-1.00767485939305e-001,-4.05085611672042e-002
6.45743422730587e+004	-9.79258669526539e-002,-3.85942752714671e-002
6.47232015057219e+004	-9.51961813887880e-002,-3.67975107083934e-002
6.48724038943565e+004	-9.25731216016061e-002,-3.51094271501317e-002
6.50219502300186e+004	-9.00516372095277e-002,-3.35219648808922e-002
6.51718413055882e+004	-8.76269275956981e-002,-3.20277664355221e-002
6.53220779157726e+004	-8.52944332959698e-002,-3.06201069546524e-002
6.54726608571116e+004	-8.30498266554933e-002,-2.92928322056153e-002
6.56235909279808e+004	-8.08890020493420e-002,-2.80403033528846e-002
6.57748689285965e+004	-7.88080658947994e-002,-2.68573476780745e-002
6.59264956610196e+004	-7.68033266293862e-002,-2.57392145507917e-002
6.60784719291598e+004	-7.48712847859765e-002,-2.46815360394055e-002
6.62307985387803e+004	-7.30086232628941e-002,-2.36802916269302e-002
6.63834762975016e+004	-7.12121978602124e-002,-2.27317765635596e-002
6.65365060148060e+004	-6.94790281327186e-002,-2.18325734447750e-002
6.66898885020417e+004	-6.78062885935715e-002,-2.09795266542112e-002
6.68436245724275e+004	-6.61913002899394e-002,-2.01697193539131e-002
6.69977150410567e+004	-6.46315227620300e-002,-1.94004527426962e-002
6.71521607249016e+004	-6.31245463893242e-002,-1.86692273364642e-002
6.73069624428179e+004	-6.16680851220222e-002,-1.79737260532902e-002
6.74621210155488e+004	-6.02599695913671e-002,-1.73117989113654e-002
6.76176372657297e+004	-5.88981405893262e-002,-1.66814491701184e-002
6.77735120178923e+004	-5.75806429058203e-002,-1.60808207641589e-002
6.79297460984689e+004	-5.63056195100723e-002,-1.55081868968263e-002
6.80863403357972e+004	-5.50713060616700e-002,-1.49619396749675e-002
6.82432955601241e+004	-5.38760257362930e-002,-1.44405806798458e-002
6.84006126036107e+004	-5.27181843508500e-002,-1.39427123805355e-002
6.85582923003362e+004	-5.15962657727304e-002,-1.34670303065152e-002
6.87163354863027e+004	-5.05088275980832e-002,-1.30123159050062e-002
6.88747429994394e+004	-4.94544970844039e-002,-1.25774300167143e-002
6.90335156796073e+004	-4.84319673231056e-002,-1.21613069105873e-002
6.91926543686032e+004	-4.74399936383098e-002,-1.17629488244403e-002
6.93521599101646e+004	-4.64773901986346e-002,-1.13814209638629e-002
6.95120331499741e+004	-4.55430268293877e-002,-1.10158469166824e-002
6.96722749356637e+004	-4.46358260131355e-002,-1.06654044446558e-002
6.98328861168193e+004	-4.37547600672896e-002,-1.03293216178957e-002
6.99938675449854e+004	-4.28988484879178e-002,-1.00068732610340e-002
7.00000000000000e+004	-4.28667662356432e-002,-9.99486450106640e-003
