Freq.	V(vo)
1.00000000000000e+002	(-6.24305217541237e-003dB,1.73680930363038e+002°)
1.02329299228075e+002	(-6.51629891050880e-003dB,1.73533739550821e+002°)
1.04712854805090e+002	(-6.80242631075939e-003dB,1.73383120168967e+002°)
1.07151930523761e+002	(-7.10204170731311e-003dB,1.73228992351886e+002°)
1.09647819614318e+002	(-7.41578108140325e-003dB,1.73071274373398e+002°)
1.12201845430196e+002	(-7.74431041721088e-003dB,1.72909882603373e+002°)
1.14815362149688e+002	(-8.08832711875847e-003dB,1.72744731463364e+002°)
1.17489755493953e+002	(-8.44856149394567e-003dB,1.72575733381196e+002°)
1.20226443461741e+002	(-8.82577830857104e-003dB,1.72402798744509e+002°)
1.23026877081238e+002	(-9.22077841438937e-003dB,1.72225835853201e+002°)
1.25892541179417e+002	(-9.63440045371357e-003dB,1.72044750870779e+002°)
1.28824955169313e+002	(-1.00675226452757e-002dB,1.71859447774556e+002°)
1.31825673855641e+002	(-1.05210646542712e-002dB,1.71669828304705e+002°)
1.34896288259165e+002	(-1.09959895513494e-002dB,1.71475791912107e+002°)
1.38038426460288e+002	(-1.14933058642920e-002dB,1.71277235704993e+002°)
1.41253754462275e+002	(-1.20140697269661e-002dB,1.71074054394336e+002°)
1.44543977074593e+002	(-1.25593871302908e-002dB,1.70866140237968e+002°)
1.47910838816821e+002	(-1.31304162799619e-002dB,1.70653382983395e+002°)
1.51356124843621e+002	(-1.37283700660664e-002dB,1.70435669809272e+002°)
1.54881661891248e+002	(-1.43545186498270e-002dB,1.70212885265517e+002°)
1.58489319246111e+002	(-1.50101921734713e-002dB,1.69984911212023e+002°)
1.62181009735893e+002	(-1.56967835984954e-002dB,1.69751626755935e+002°)
1.65958690743756e+002	(-1.64157516790969e-002dB,1.69512908187473e+002°)
1.69824365246174e+002	(-1.71686240767976e-002dB,1.69268628914240e+002°)
1.73780082874937e+002	(-1.79570006232672e-002dB,1.69018659394011e+002°)
1.77827941003892e+002	(-1.87825567385252e-002dB,1.68762867065936e+002°)
1.81970085860998e+002	(-1.96470470115450e-002dB,1.68501116280148e+002°)
1.86208713666287e+002	(-2.05523089518095e-002dB,1.68233268225715e+002°)
1.90546071796324e+002	(-2.15002669193057e-002dB,1.67959180856915e+002°)
1.94984459975804e+002	(-2.24929362420493e-002dB,1.67678708817783e+002°)
1.99526231496888e+002	(-2.35324275298959e-002dB,1.67391703364893e+002°)
2.04173794466953e+002	(-2.46209511945589e-002dB,1.67098012288333e+002°)
2.08929613085404e+002	(-2.57608221849917e-002dB,1.66797479830836e+002°)
2.13796208950223e+002	(-2.69544649495557e-002dB,1.66489946605011e+002°)
2.18776162394955e+002	(-2.82044186351755e-002dB,1.66175249508640e+002°)
2.23872113856834e+002	(-2.95133425353479e-002dB,1.65853221637994e+002°)
2.29086765276777e+002	(-3.08840217991101e-002dB,1.65523692199112e+002°)
2.34422881531992e+002	(-3.23193734136046e-002dB,1.65186486417010e+002°)
2.39883291901949e+002	(-3.38224524732870e-002dB,1.64841425442755e+002°)
2.45470891568503e+002	(-3.53964587505036e-002dB,1.64488326258367e+002°)
2.51188643150958e+002	(-3.70447435814509e-002dB,1.64127001579484e+002°)
2.57039578276886e+002	(-3.87708170831283e-002dB,1.63757259755756e+002°)
2.63026799189538e+002	(-4.05783557180044e-002dB,1.63378904668889e+002°)
2.69153480392691e+002	(-4.24712102227376e-002dB,1.62991735628304e+002°)
2.75422870333816e+002	(-4.44534139196447e-002dB,1.62595547264349e+002°)
2.81838293126445e+002	(-4.65291914290902e-002dB,1.62190129418994e+002°)
2.88403150312660e+002	(-4.87029678033015e-002dB,1.61775267033969e+002°)
2.95120922666638e+002	(-5.09793781018982e-002dB,1.61350740036263e+002°)
3.01995172040201e+002	(-5.33632774317159e-002dB,1.60916323220943e+002°)
3.09029543251358e+002	(-5.58597514733424e-002dB,1.60471786131203e+002°)
3.16227766016837e+002	(-5.84741275193541e-002dB,1.60016892935605e+002°)
3.23593656929628e+002	(-6.12119860494698e-002dB,1.59551402302422e+002°)
3.31131121482590e+002	(-6.40791728696782e-002dB,1.59075067271021e+002°)
3.38844156139202e+002	(-6.70818118437612e-002dB,1.58587635120220e+002°)
3.46736850452531e+002	(-7.02263182472810e-002dB,1.58088847233545e+002°)
3.54813389233575e+002	(-7.35194127752889e-002dB,1.57578438961297e+002°)
3.63078054770101e+002	(-7.69681362372447e-002dB,1.57056139479379e+002°)
3.71535229097172e+002	(-8.05798649741965e-002dB,1.56521671644781e+002°)
3.80189396320560e+002	(-8.43623270350043e-002dB,1.55974751847654e+002°)
3.89045144994280e+002	(-8.83236191510364e-002dB,1.55415089859888e+002°)
3.98107170553496e+002	(-9.24722245500848e-002dB,1.54842388680109e+002°)
4.07380277804112e+002	(-9.68170316533670e-002dB,1.54256344375006e+002°)
4.16869383470335e+002	(-1.01367353701571e-001dB,1.53656645916906e+002°)
4.26579518801592e+002	(-1.06132949358086e-001dB,1.53042975017494e+002°)
4.36515832240165e+002	(-1.11124044341577e-001dB,1.52415005957594e+002°)
4.46683592150962e+002	(-1.16351354141576e-001dB,1.51772405412913e+002°)
4.57088189614874e+002	(-1.21826107874740e-001dB,1.51114832275642e+002°)
4.67735141287197e+002	(-1.27560073343051e-001dB,1.50441937471823e+002°)
4.78630092322637e+002	(-1.33565583357943e-001dB,1.49753363774373e+002°)
4.89778819368445e+002	(-1.39855563399213e-001dB,1.49048745611652e+002°)
5.01187233627271e+002	(-1.46443560680816e-001dB,1.48327708871483e+002°)
5.12861383991364e+002	(-1.53343774700794e-001dB,1.47589870700491e+002°)
5.24807460249771e+002	(-1.60571089357144e-001dB,1.46834839298662e+002°)
5.37031796370251e+002	(-1.68141106715995e-001dB,1.46062213708990e+002°)
5.49540873857623e+002	(-1.76070182524971e-001dB,1.45271583602113e+002°)
5.62341325190348e+002	(-1.84375463569819e-001dB,1.44462529055780e+002°)
5.75439937337155e+002	(-1.93074926978694e-001dB,1.43634620329058e+002°)
5.88843655355587e+002	(-2.02187421585963e-001dB,1.42787417631122e+002°)
6.02559586074356e+002	(-2.11732711474311e-001dB,1.41920470884508e+002°)
6.16595001861481e+002	(-2.21731521822128e-001dB,1.41033319482690e+002°)
6.30957344480192e+002	(-2.32205587191924e-001dB,1.40125492041835e+002°)
6.45654229034654e+002	(-2.43177702404936e-001dB,1.39196506146602e+002°)
6.60693448007594e+002	(-2.54671776157324e-001dB,1.38245868089840e+002°)
6.76082975391980e+002	(-2.66712887544366e-001dB,1.37273072606022e+002°)
6.91830970918935e+002	(-2.79327345671965e-001dB,1.36277602598283e+002°)
7.07945784384136e+002	(-2.92542752546719e-001dB,1.35258928858900e+002°)
7.24435960074988e+002	(-3.06388069451967e-001dB,1.34216509783057e+002°)
7.41310241300916e+002	(-3.20893687031660e-001dB,1.33149791075745e+002°)
7.58577575029182e+002	(-3.36091499322590e-001dB,1.32058205451642e+002°)
7.76247116628690e+002	(-3.52014981993926e-001dB,1.30941172327806e+002°)
7.94328234724279e+002	(-3.68699275074522e-001dB,1.29798097509051e+002°)
8.12830516164097e+002	(-3.86181270471812e-001dB,1.28628372865834e+002°)
8.31763771102669e+002	(-4.04499704612020e-001dB,1.27431376004522e+002°)
8.51138038202374e+002	(-4.23695256559710e-001dB,1.26206469929910e+002°)
8.70963589956078e+002	(-4.43810652007211e-001dB,1.24953002699861e+002°)
8.91250938133743e+002	(-4.64890773558802e-001dB,1.23670307071975e+002°)
9.12010839355907e+002	(-4.86982777775066e-001dB,1.22357700142196e+002°)
9.33254300796988e+002	(-5.10136219485974e-001dB,1.21014482975329e+002°)
9.54992586021433e+002	(-5.34403183930777e-001dB,1.19639940227446e+002°)
9.77237220955808e+002	(-5.59838427337918e-001dB,1.18233339760238e+002°)
9.99999999999997e+002	(-5.86499526620057e-001dB,1.16793932247431e+002°)
1.02329299228075e+003	(-6.14447038928279e-001dB,1.15320950773469e+002°)
1.04712854805090e+003	(-6.43744671888188e-001dB,1.13813610424793e+002°)
1.07151930523760e+003	(-6.74459465428031e-001dB,1.12271107874176e+002°)
1.09647819614318e+003	(-7.06661986207972e-001dB,1.10692620958762e+002°)
1.12201845430196e+003	(-7.40426535771339e-001dB,1.09077308252704e+002°)
1.14815362149688e+003	(-7.75831373663713e-001dB,1.07424308635560e+002°)
1.17489755493953e+003	(-8.12958956907950e-001dB,1.05732740858014e+002°)
1.20226443461741e+003	(-8.51896197381292e-001dB,1.04001703106907e+002°)
1.23026877081238e+003	(-8.92734738820791e-001dB,1.02230272572203e+002°)
1.25892541179416e+003	(-9.35571255382818e-001dB,1.00417505019181e+002°)
1.28824955169313e+003	(-9.80507773907930e-001dB,9.85624343701110e+001°)
1.31825673855640e+003	(-1.02765202229186e+000dB,9.66640723007520e+001°)
1.34896288259165e+003	(-1.07711780664214e+000dB,9.47214078584648e+001°)
1.38038426460288e+003	(-1.12902542020648e+000dB,9.27334071104323e+001°)
1.41253754462275e+003	(-1.18350208739523e+000dB,9.06990128326572e+001°)
1.44543977074592e+003	(-1.24068244658703e+000dB,8.86171442530477e+001°)
1.47910838816820e+003	(-1.30070907579838e+000dB,8.64866968651599e+001°)
1.51356124843620e+003	(-1.36373306571510e+000dB,8.43065423331456e+001°)
1.54881661891248e+003	(-1.42991464501477e+000dB,8.20755285133170e+001°)
1.58489319246111e+003	(-1.49942386334647e+000dB,7.97924796236304e+001°)
1.62181009735892e+003	(-1.57244133775844e+000dB,7.74561965995269e+001°)
1.65958690743755e+003	(-1.64915906875359e+000dB,7.50654576831364e+001°)
1.69824365246174e+003	(-1.72978133247333e+000dB,7.26190193031066e+001°)
1.73780082874937e+003	(-1.81452565571875e+000dB,7.01156173144969e+001°)
1.77827941003892e+003	(-1.90362388055370e+000dB,6.75539686825475e+001°)
1.81970085860998e+003	(-1.99732332502513e+000dB,6.49327737109322e+001°)
1.86208713666286e+003	(-2.09588804597851e+000dB,6.22507189345645e+001°)
1.90546071796324e+003	(-2.19960020892288e+000dB,5.95064808192978e+001°)
1.94984459975804e+003	(-2.30876156825631e+000dB,5.66987304360035e+001°)
1.99526231496887e+003	(-2.42369505871493e+000dB,5.38261393044109e+001°)
2.04173794466952e+003	(-2.54474649544062e+000dB,5.08873866323971e+001°)
2.08929613085403e+003	(-2.67228637531873e+000dB,4.78811682084192e+001°)
2.13796208950222e+003	(-2.80671176593897e+000dB,4.48062072373171e+001°)
2.18776162394954e+003	(-2.94844826037166e+000dB,4.16612674409947e+001°)
2.23872113856833e+003	(-3.09795196562555e+000dB,3.84451687729229e+001°)
2.29086765276776e+003	(-3.25571147987380e+000dB,3.51568061154693e+001°)
2.34422881531991e+003	(-3.42224979808813e+000dB,3.17951713370476e+001°)
2.39883291901948e+003	(-3.59812606751442e+000dB,2.83593790760486e+001°)
2.45470891568502e+003	(-3.78393709357020e+000dB,2.48486965831866e+001°)
2.51188643150957e+003	(-3.98031847366145e+000dB,2.12625778847681e+001°)
2.57039578276885e+003	(-4.18794521194779e+000dB,1.76007024170804e+001°)
2.63026799189537e+003	(-4.40753164361370e+000dB,1.38630181169843e+001°)
2.69153480392690e+003	(-4.63983047479570e+000dB,1.00497887271232e+001°)
2.75422870333815e+003	(-4.88563072678482e+000dB,6.16164477961540e+000°)
2.81838293126444e+003	(-5.14575436406406e+000dB,2.19963735800149e+000°)
2.88403150312659e+003	(-5.42105138942274e+000dB,-1.83470669093505e+000°)
2.95120922666637e+003	(-5.71239321047237e+000dB,-5.93932990050977e+000°)
3.01995172040200e+003	(-6.02066412494605e+000dB,-1.01115919846345e+001°)
3.09029543251358e+003	(-6.34675084091359e+000dB,-1.43482230722192e+001°)
3.16227766016836e+003	(-6.69153004441526e+000dB,-1.86452855480767e+001°)
3.23593656929627e+003	(-7.05585415002649e+000dB,-2.29981479219223e+001°)
3.31131121482590e+003	(-7.44053551461894e+000dB,-2.74014741765199e+001°)
3.38844156139201e+003	(-7.84632955155759e+000dB,-3.18492317887356e+001°)
3.46736850452530e+003	(-8.27391733758707e+000dB,-3.63347210250150e+001°)
3.54813389233574e+003	(-8.72388843977420e+000dB,-4.08506271706624e+001°)
3.63078054770100e+003	(-9.19672478538287e+000dB,-4.53890960913906e+001°)
3.71535229097171e+003	(-9.69278643497234e+000dB,-4.99418320296354e+001°)
3.80189396320559e+003	(-1.02123000845924e+001dB,-5.45002149410287e+001°)
3.89045144994279e+003	(-1.07553510110473e+001dB,-5.90554331485456e+001°)
3.98107170553495e+003	(-1.13218789895726e+001dB,-6.35986258159947e+001°)
4.07380277804111e+003	(-1.19116784715301e+001dB,-6.81210288834940e+001°)
4.16869383470333e+003	(-1.25244030356414e+001dB,-7.26141177820160e+001°)
4.26579518801591e+003	(-1.31595738499943e+001dB,-7.70697404977894e+001°)
4.36515832240164e+003	(-1.38165916341245e+001dB,-8.14802353561532e+001°)
4.46683592150961e+003	(-1.44947514167582e+001dB,-8.58385291309862e+001°)
4.57088189614873e+003	(-1.51932592624600e+001dB,-9.01382126003637e+001°)
4.67735141287196e+003	(-1.59112500958856e+001dB,-9.43735922791286e+001°)
4.78630092322636e+003	(-1.66478057813607e+001dB,-9.85397185901369e+001°)
4.89778819368444e+003	(-1.74019727053480e+001dB,-1.02632392047058e+002°)
5.01187233627270e+003	(-1.81727782419348e+001dB,-1.06648150020661e+002°)
5.12861383991362e+003	(-1.89592456369738e+001dB,-1.10584237308502e+002°)
5.24807460249770e+003	(-1.97604070064740e+001dB,-1.14438564033411e+002°)
5.37031796370250e+003	(-2.05753142943556e+001dB,-1.18209654403398e+002°)
5.49540873857622e+003	(-2.14030481634143e+001dB,-1.21896589640045e+002°)
5.62341325190346e+003	(-2.22427248956678e+001dB,-1.25498947997071e+002°)
5.75439937337154e+003	(-2.30935014526182e+001dB,-1.29016744315214e+002°)
5.88843655355586e+003	(-2.39545788938812e+001dB,-1.32450371052963e+002°)
6.02559586074354e+003	(-2.48252043776228e+001dB,-1.35800542240221e+002°)
6.16595001861479e+003	(-2.57046719727995e+001dB,-1.39068241354392e+002°)
6.30957344480190e+003	(-2.65923225060278e+001dB,-1.42254673733435e+002°)
6.45654229034652e+003	(-2.74875426493931e+001dB,-1.45361223825151e+002°)
6.60693448007592e+003	(-2.83897634333870e+001dB,-1.48389417326024e+002°)
6.76082975391978e+003	(-2.92984583444118e+001dB,-1.51340888080583e+002°)
6.91830970918932e+003	(-3.02131411411225e+001dB,-1.54217349485245e+002°)
7.07945784384134e+003	(-3.11333634998115e+001dB,-1.57020570059366e+002°)
7.24435960074986e+003	(-3.20587125770338e+001dB,-1.59752352801278e+002°)
7.41310241300913e+003	(-3.29888085582297e+001dB,-1.62414517929846e+002°)
7.58577575029179e+003	(-3.39233022444028e+001dB,-1.65008888614858e+002°)
7.76247116628687e+003	(-3.48618727149206e+001dB,-1.67537279316237e+002°)
7.94328234724277e+003	(-3.58042250930370e+001dB,-1.70001486377604e+002°)
8.12830516164094e+003	(-3.67500884315280e+001dB,-1.72403280550311e+002°)
8.31763771102666e+003	(-3.76992137285900e+001dB,-1.74744401156887e+002°)
8.51138038202371e+003	(-3.86513720785801e+001dB,-1.77026551635865e+002°)
8.70963589956075e+003	(-3.96063529579879e+001dB,-1.79251396241853e+002°)
8.91250938133740e+003	(-4.05639626439707e+001dB,1.78579442295458e+002°)
9.12010839355904e+003	(-4.15240227606300e+001dB,1.76464384322266e+002°)
9.33254300796985e+003	(-4.24863689467653e+001dB,1.74401894165955e+002°)
9.54992586021430e+003	(-4.34508496379513e+001dB,1.72390480517163e+002°)
9.77237220955804e+003	(-4.44173249553108e+001dB,1.70428696391921e+002°)
9.99999999999993e+003	(-4.53856656932014e+001dB,1.68515138760496e+002°)
1.02329299228075e+004	(-4.63557523980984e+001dB,1.66648447915167e+002°)
1.04712854805089e+004	(-4.73274745311865e+001dB,1.64827306636903e+002°)
1.07151930523760e+004	(-4.83007297075097e+001dB,1.63050439210395e+002°)
1.09647819614318e+004	(-4.92754230049322e+001dB,1.61316610328049e+002°)
1.12201845430196e+004	(-5.02514663366062e+001dB,1.59624623916083e+002°)
1.14815362149688e+004	(-5.12287778811032e+001dB,1.57973321909581e+002°)
1.17489755493952e+004	(-5.22072815648206e+001dB,1.56361582998135e+002°)
1.20226443461740e+004	(-5.31869065917282e+001dB,1.54788321359362e+002°)
1.23026877081237e+004	(-5.41675870159437e+001dB,1.53252485393939e+002°)
1.25892541179416e+004	(-5.51492613530360e+001dB,1.51753056472849e+002°)
1.28824955169313e+004	(-5.61318722263305e+001dB,1.50289047705055e+002°)
1.31825673855640e+004	(-5.71153660448453e+001dB,1.48859502731809e+002°)
1.34896288259164e+004	(-5.80996927098088e+001dB,1.47463494552171e+002°)
1.38038426460288e+004	(-5.90848053470067e+001dB,1.46100124382962e+002°)
1.41253754462274e+004	(-6.00706600624761e+001dB,1.44768520555319e+002°)
1.44543977074592e+004	(-6.10572157193105e+001dB,1.43467837449121e+002°)
1.47910838816820e+004	(-6.20444337335607e+001dB,1.42197254465891e+002°)
1.50000000000000e+004	(-6.26460828783903e+001dB,1.41437720438254e+002°)
