Freq.	V(vo)
1.00000000000000e+002	(-3.66672956732742e-004dB,1.79319017356721e+002°)
1.02329299228075e+002	(-3.67838323883391e-004dB,1.79303155297005e+002°)
1.04712854805090e+002	(-3.69058598031069e-004dB,1.79286923767014e+002°)
1.07151930523761e+002	(-3.70336365404011e-004dB,1.79270314161003e+002°)
1.09647819614318e+002	(-3.71674333999096e-004dB,1.79253317672800e+002°)
1.12201845430196e+002	(-3.73075339224649e-004dB,1.79235925291136e+002°)
1.14815362149688e+002	(-3.74542350022549e-004dB,1.79218127794868e+002°)
1.17489755493953e+002	(-3.76078475044387e-004dB,1.79199915748094e+002°)
1.20226443461741e+002	(-3.77686969219171e-004dB,1.79181279495153e+002°)
1.23026877081238e+002	(-3.79371240691405e-004dB,1.79162209155508e+002°)
1.25892541179417e+002	(-3.81134857935671e-004dB,1.79142694618507e+002°)
1.28824955169313e+002	(-3.82981557419025e-004dB,1.79122725538032e+002°)
1.31825673855641e+002	(-3.84915251290444e-004dB,1.79102291327012e+002°)
1.34896288259165e+002	(-3.86940035884246e-004dB,1.79081381151815e+002°)
1.38038426460288e+002	(-3.89060200117493e-004dB,1.79059983926507e+002°)
1.41253754462275e+002	(-3.91280234732239e-004dB,1.79038088306979e+002°)
1.44543977074593e+002	(-3.93604841665155e-004dB,1.79015682684940e+002°)
1.47910838816821e+002	(-3.96038943972693e-004dB,1.78992755181760e+002°)
1.51356124843621e+002	(-3.98587696225987e-004dB,1.78969293642185e+002°)
1.54881661891248e+002	(-4.01256495379357e-004dB,1.78945285627892e+002°)
1.58489319246111e+002	(-4.04050992097944e-004dB,1.78920718410904e+002°)
1.62181009735893e+002	(-4.06977102697830e-004dB,1.78895578966846e+002°)
1.65958690743756e+002	(-4.10041021601264e-004dB,1.78869853968046e+002°)
1.69824365246174e+002	(-4.13249234345550e-004dB,1.78843529776480e+002°)
1.73780082874937e+002	(-4.16608531244977e-004dB,1.78816592436542e+002°)
1.77827941003892e+002	(-4.20126021604513e-004dB,1.78789027667662e+002°)
1.81970085860998e+002	(-4.23809148821867e-004dB,1.78760820856735e+002°)
1.86208713666287e+002	(-4.27665705861024e-004dB,1.78731957050390e+002°)
1.90546071796324e+002	(-4.31703851662387e-004dB,1.78702420947068e+002°)
1.94984459975804e+002	(-4.35932128329476e-004dB,1.78672196888920e+002°)
1.99526231496888e+002	(-4.40359478964896e-004dB,1.78641268853522e+002°)
2.04173794466953e+002	(-4.44995266508559e-004dB,1.78609620445388e+002°)
2.08929613085404e+002	(-4.49849293304318e-004dB,1.78577234887294e+002°)
2.13796208950223e+002	(-4.54931821570542e-004dB,1.78544095011393e+002°)
2.18776162394955e+002	(-4.60253595055302e-004dB,1.78510183250137e+002°)
2.23872113856834e+002	(-4.65825861326519e-004dB,1.78475481626972e+002°)
2.29086765276777e+002	(-4.71660395403022e-004dB,1.78439971746828e+002°)
2.34422881531992e+002	(-4.77769524324417e-004dB,1.78403634786386e+002°)
2.39883291901949e+002	(-4.84166152846909e-004dB,1.78366451484118e+002°)
2.45470891568503e+002	(-4.90863790419416e-004dB,1.78328402130100e+002°)
2.51188643150958e+002	(-4.97876579266453e-004dB,1.78289466555580e+002°)
2.57039578276886e+002	(-5.05219323938521e-004dB,1.78249624122318e+002°)
2.63026799189538e+002	(-5.12907522065820e-004dB,1.78208853711664e+002°)
2.69153480392691e+002	(-5.20957396517887e-004dB,1.78167133713397e+002°)
2.75422870333816e+002	(-5.29385929205515e-004dB,1.78124442014296e+002°)
2.81838293126445e+002	(-5.38210896219311e-004dB,1.78080755986449e+002°)
2.88403150312660e+002	(-5.47450904755384e-004dB,1.78036052475294e+002°)
2.95120922666638e+002	(-5.57125431547607e-004dB,1.77990307787383e+002°)
3.01995172040201e+002	(-5.67254863208724e-004dB,1.77943497677857e+002°)
3.09029543251358e+002	(-5.77860538334816e-004dB,1.77895597337642e+002°)
3.16227766016837e+002	(-5.88964791433994e-004dB,1.77846581380340e+002°)
3.23593656929628e+002	(-6.00590999009312e-004dB,1.77796423828822e+002°)
3.31131121482590e+002	(-6.12763627691904e-004dB,1.77745098101511e+002°)
3.38844156139202e+002	(-6.25508284344469e-004dB,1.77692576998345e+002°)
3.46736850452531e+002	(-6.38851768666696e-004dB,1.77638832686423e+002°)
3.54813389233575e+002	(-6.52822128124416e-004dB,1.77583836685312e+002°)
3.63078054770101e+002	(-6.67448715102430e-004dB,1.77527559852024e+002°)
3.71535229097172e+002	(-6.82762246948628e-004dB,1.77469972365639e+002°)
3.80189396320560e+002	(-6.98794868441938e-004dB,1.77411043711578e+002°)
3.89045144994280e+002	(-7.15580217138665e-004dB,1.77350742665514e+002°)
3.98107170553496e+002	(-7.33153491565706e-004dB,1.77289037276914e+002°)
4.07380277804112e+002	(-7.51551522531058e-004dB,1.77225894852201e+002°)
4.16869383470335e+002	(-7.70812847407354e-004dB,1.77161281937528e+002°)
4.26579518801592e+002	(-7.90977787708087e-004dB,1.77095164301158e+002°)
4.36515832240165e+002	(-8.12088530205805e-004dB,1.77027506915444e+002°)
4.46683592150962e+002	(-8.34189211411523e-004dB,1.76958273938390e+002°)
4.57088189614874e+002	(-8.57326005697489e-004dB,1.76887428694789e+002°)
4.67735141287197e+002	(-8.81547217388985e-004dB,1.76814933656937e+002°)
4.78630092322637e+002	(-9.06903376594345e-004dB,1.76740750424898e+002°)
4.89778819368445e+002	(-9.33447339323679e-004dB,1.76664839706324e+002°)
5.01187233627271e+002	(-9.61234391627074e-004dB,1.76587161295805e+002°)
5.12861383991364e+002	(-9.90322358412823e-004dB,1.76507674053763e+002°)
5.24807460249771e+002	(-1.02077171658114e-003dB,1.76426335884850e+002°)
5.37031796370251e+002	(-1.05264571291804e-003dB,1.76343103715865e+002°)
5.49540873857623e+002	(-1.08601048712480e-003dB,1.76257933473161e+002°)
5.62341325190348e+002	(-1.12093519944018e-003dB,1.76170780059545e+002°)
5.75439937337155e+002	(-1.15749216391497e-003dB,1.76081597330650e+002°)
5.88843655355587e+002	(-1.19575698680392e-003dB,1.75990338070770e+002°)
6.02559586074356e+002	(-1.23580871060534e-003dB,1.75896953968156e+002°)
6.16595001861481e+002	(-1.27772996383211e-003dB,1.75801395589744e+002°)
6.30957344480192e+002	(-1.32160711659305e-003dB,1.75703612355316e+002°)
6.45654229034654e+002	(-1.36753044232067e-003dB,1.75603552511081e+002°)
6.60693448007594e+002	(-1.41559428564167e-003dB,1.75501163102655e+002°)
6.76082975391980e+002	(-1.46589723667137e-003dB,1.75396389947443e+002°)
6.91830970918935e+002	(-1.51854231182848e-003dB,1.75289177606387e+002°)
7.07945784384136e+002	(-1.57363714127133e-003dB,1.75179469355096e+002°)
7.24435960074988e+002	(-1.63129416325219e-003dB,1.75067207154320e+002°)
7.41310241300916e+002	(-1.69163082527908e-003dB,1.74952331619763e+002°)
7.58577575029182e+002	(-1.75476979246805e-003dB,1.74834781991234e+002°)
7.76247116628690e+002	(-1.82083916298097e-003dB,1.74714496101099e+002°)
7.94328234724279e+002	(-1.88997269068147e-003dB,1.74591410342038e+002°)
8.12830516164097e+002	(-1.96231001522801e-003dB,1.74465459634085e+002°)
8.31763771102669e+002	(-2.03799689938830e-003dB,1.74336577390943e+002°)
8.51138038202374e+002	(-2.11718547374276e-003dB,1.74204695485546e+002°)
8.70963589956078e+002	(-2.20003448883989e-003dB,1.74069744214870e+002°)
8.91250938133743e+002	(-2.28670957448130e-003dB,1.73931652263970e+002°)
9.12010839355907e+002	(-2.37738350646631e-003dB,1.73790346669219e+002°)
9.33254300796988e+002	(-2.47223648011526e-003dB,1.73645752780752e+002°)
9.54992586021433e+002	(-2.57145639099910e-003dB,1.73497794224087e+002°)
9.77237220955808e+002	(-2.67523912206311e-003dB,1.73346392860905e+002°)
9.99999999999997e+002	(-2.78378883726242e-003dB,1.73191468748986e+002°)
1.02329299228075e+003	(-2.89731828111429e-003dB,1.73032940101266e+002°)
1.04712854805090e+003	(-3.01604908374506e-003dB,1.72870723244017e+002°)
1.07151930523760e+003	(-3.14021207098885e-003dB,1.72704732574119e+002°)
1.09647819614318e+003	(-3.27004757866090e-003dB,1.72534880515418e+002°)
1.12201845430196e+003	(-3.40580577053065e-003dB,1.72361077474142e+002°)
1.14815362149688e+003	(-3.54774695885933e-003dB,1.72183231793367e+002°)
1.17489755493953e+003	(-3.69614192660747e-003dB,1.72001249706501e+002°)
1.20226443461741e+003	(-3.85127225019789e-003dB,1.71815035289795e+002°)
1.23026877081238e+003	(-4.01343062120134e-003dB,1.71624490413824e+002°)
1.25892541179416e+003	(-4.18292116583696e-003dB,1.71429514693954e+002°)
1.28824955169313e+003	(-4.36005976011594e-003dB,1.71230005439757e+002°)
1.31825673855640e+003	(-4.54517433894918e-003dB,1.71025857603354e+002°)
1.34896288259165e+003	(-4.73860519682296e-003dB,1.70816963726676e+002°)
1.38038426460288e+003	(-4.94070527765185e-003dB,1.70603213887612e+002°)
1.41253754462275e+003	(-5.15184045084851e-003dB,1.70384495645028e+002°)
1.44543977074592e+003	(-5.37238977061762e-003dB,1.70160693982631e+002°)
1.47910838816820e+003	(-5.60274571482612e-003dB,1.69931691251659e+002°)
1.51356124843620e+003	(-5.84331439950202e-003dB,1.69697367112369e+002°)
1.54881661891248e+003	(-6.09451576471725e-003dB,1.69457598474302e+002°)
1.58489319246111e+003	(-6.35678372680027e-003dB,1.69212259435292e+002°)
1.62181009735892e+003	(-6.63056629146247e-003dB,1.68961221219203e+002°)
1.65958690743755e+003	(-6.91632562214390e-003dB,1.68704352112351e+002°)
1.69824365246174e+003	(-7.21453805642088e-003dB,1.68441517398595e+002°)
1.73780082874937e+003	(-7.52569406354454e-003dB,1.68172579293046e+002°)
1.77827941003892e+003	(-7.85029813479456e-003dB,1.67897396874380e+002°)
1.81970085860998e+003	(-8.18886859773062e-003dB,1.67615826015703e+002°)
1.86208713666286e+003	(-8.54193734448126e-003dB,1.67327719313932e+002°)
1.90546071796324e+003	(-8.91004946319947e-003dB,1.67032926017645e+002°)
1.94984459975804e+003	(-9.29376276075661e-003dB,1.66731291953362e+002°)
1.99526231496887e+003	(-9.69364716362192e-003dB,1.66422659450194e+002°)
2.04173794466952e+003	(-1.01102839825114e-002dB,1.66106867262814e+002°)
2.08929613085403e+003	(-1.05442650250050e-002dB,1.65783750492672e+002°)
2.13796208950222e+003	(-1.09961915390548e-002dB,1.65453140507407e+002°)
2.18776162394954e+003	(-1.14666729684415e-002dB,1.65114864858364e+002°)
2.23872113856833e+003	(-1.19563254997639e-002dB,1.64768747196137e+002°)
2.29086765276776e+003	(-1.24657703782082e-002dB,1.64414607184047e+002°)
2.34422881531991e+003	(-1.29956319681427e-002dB,1.64052260409452e+002°)
2.39883291901948e+003	(-1.35465355314527e-002dB,1.63681518292771e+002°)
2.45470891568502e+003	(-1.41191046951267e-002dB,1.63302187994096e+002°)
2.51188643150957e+003	(-1.47139585764541e-002dB,1.62914072317246e+002°)
2.57039578276885e+003	(-1.53317085317203e-002dB,1.62516969611113e+002°)
2.63026799189537e+003	(-1.59729544918318e-002dB,1.62110673668105e+002°)
2.69153480392690e+003	(-1.66382808447005e-002dB,1.61694973619501e+002°)
2.75422870333815e+003	(-1.73282518213808e-002dB,1.61269653827481e+002°)
2.81838293126444e+003	(-1.80434063394387e-002dB,1.60834493773595e+002°)
2.88403150312659e+003	(-1.87842522536112e-002dB,1.60389267943369e+002°)
2.95120922666637e+003	(-1.95512599596547e-002dB,1.59933745706753e+002°)
3.01995172040200e+003	(-2.03448552936733e-002dB,1.59467691194048e+002°)
3.09029543251358e+003	(-2.11654116650865e-002dB,1.58990863166914e+002°)
3.16227766016836e+003	(-2.20132413565071e-002dB,1.58503014884018e+002°)
3.23593656929627e+003	(-2.28885859202375e-002dB,1.58003893960833e+002°)
3.31131121482590e+003	(-2.37916055954223e-002dB,1.57493242223020e+002°)
3.38844156139201e+003	(-2.47223676661232e-002dB,1.56970795552785e+002°)
3.46736850452530e+003	(-2.56808336748888e-002dB,1.56436283727505e+002°)
3.54813389233574e+003	(-2.66668454022180e-002dB,1.55889430249853e+002°)
3.63078054770100e+003	(-2.76801095169807e-002dB,1.55329952168566e+002°)
3.71535229097171e+003	(-2.87201807981938e-002dB,1.54757559888864e+002°)
3.80189396320559e+003	(-2.97864438240451e-002dB,1.54171956971472e+002°)
3.89045144994279e+003	(-3.08780930193893e-002dB,1.53572839919030e+002°)
3.98107170553495e+003	(-3.19941109488183e-002dB,1.52959897948547e+002°)
4.07380277804111e+003	(-3.31332447392368e-002dB,1.52332812748442e+002°)
4.16869383470333e+003	(-3.42939805122236e-002dB,1.51691258218485e+002°)
4.26579518801591e+003	(-3.54745157046471e-002dB,1.51034900190836e+002°)
4.36515832240164e+003	(-3.66727291546665e-002dB,1.50363396130135e+002°)
4.46683592150961e+003	(-3.78861488301242e-002dB,1.49676394810388e+002°)
4.57088189614873e+003	(-3.91119170780280e-002dB,1.48973535966174e+002°)
4.67735141287196e+003	(-4.03467532769742e-002dB,1.48254449915394e+002°)
4.78630092322636e+003	(-4.15869137799506e-002dB,1.47518757150543e+002°)
4.89778819368444e+003	(-4.28281490429014e-002dB,1.46766067895129e+002°)
5.01187233627270e+003	(-4.40656578459425e-002dB,1.45995981621555e+002°)
5.12861383991362e+003	(-4.52940385287073e-002dB,1.45208086526390e+002°)
5.24807460249770e+003	(-4.65072371803688e-002dB,1.44401958958555e+002°)
5.37031796370250e+003	(-4.76984927494085e-002dB,1.43577162795531e+002°)
5.49540873857622e+003	(-4.88602790674539e-002dB,1.42733248762195e+002°)
5.62341325190346e+003	(-4.99842438189061e-002dB,1.41869753686429e+002°)
5.75439937337154e+003	(-5.10611445320274e-002dB,1.40986199685056e+002°)
5.88843655355586e+003	(-5.20807817207576e-002dB,1.40082093273118e+002°)
6.02559586074354e+003	(-5.30319293703058e-002dB,1.39156924388878e+002°)
6.16595001861479e+003	(-5.39022630354345e-002dB,1.38210165326261e+002°)
6.30957344480190e+003	(-5.46782859090762e-002dB,1.37241269565772e+002°)
6.45654229034652e+003	(-5.53452533241346e-002dB,1.36249670494208e+002°)
6.60693448007592e+003	(-5.58870962734223e-002dB,1.35234780002697e+002°)
6.76082975391978e+003	(-5.62863446752963e-002dB,1.34195986951824e+002°)
6.91830970918932e+003	(-5.65240512776183e-002dB,1.33132655491813e+002°)
7.07945784384134e+003	(-5.65797172841495e-002dB,1.32044123224868e+002°)
7.24435960074986e+003	(-5.64312210072290e-002dB,1.30929699196011e+002°)
7.41310241300913e+003	(-5.60547511042006e-002dB,1.29788661697906e+002°)
7.58577575029179e+003	(-5.54247462445857e-002dB,1.28620255874397e+002°)
7.76247116628687e+003	(-5.45138433869717e-002dB,1.27423691106796e+002°)
7.94328234724277e+003	(-5.32928372213976e-002dB,1.26198138166304e+002°)
8.12830516164094e+003	(-5.17306537626533e-002dB,1.24942726115485e+002°)
8.31763771102666e+003	(-4.97943415642853e-002dB,1.23656538941398e+002°)
8.51138038202371e+003	(-4.74490845716022e-002dB,1.22338611902929e+002°)
8.70963589956075e+003	(-4.46582412462220e-002dB,1.20987927575142e+002°)
8.91250938133740e+003	(-4.13834152829487e-002dB,1.19603411574144e+002°)
9.12010839355904e+003	(-3.75845640045710e-002dB,1.18183927947182e+002°)
9.33254300796985e+003	(-3.32201513653243e-002dB,1.16728274214611e+002°)
9.54992586021430e+003	(-2.82473534211845e-002dB,1.15235176053128e+002°)
9.77237220955804e+003	(-2.26223251305348e-002dB,1.13703281613511e+002°)
9.99999999999993e+003	(-1.63005384290400e-002dB,1.12131155471274e+002°)
1.02329299228075e+004	(-9.23720266122263e-003dB,1.10517272215426e+002°)
1.04712854805089e+004	(-1.38777962801490e-003dB,1.08860009689309e+002°)
1.07151930523760e+004	(7.29139331059566e-003dB,1.07157641908655e+002°)
1.09647819614318e+004	(1.68423575087923e-002dB,1.05408331696027e+002°)
1.12201845430196e+004	(2.73046491074581e-002dB,1.03610123088234e+002°)
1.14815362149688e+004	(3.87142605517689e-002dB,1.01760933594693e+002°)
1.17489755493952e+004	(5.11024307906743e-002dB,9.98585464106295e+001°)
1.20226443461740e+004	(6.44942475519449e-002dB,9.79006027201226e+001°)
1.23026877081237e+004	(7.89070460608410e-002dB,9.58845942606625e+001°)
1.25892541179416e+004	(9.43485906938157e-002dB,9.38078563636390e+001°)
1.28824955169313e+004	(1.10815029758059e-001dB,9.16675617338443e+001°)
1.31825673855640e+004	(1.28288619390490e-001dB,8.94607152852813e+001°)
1.34896288259164e+004	(1.46735221132971e-001dB,8.71841504089632e+001°)
1.38038426460288e+004	(1.66101589846670e-001dB,8.48345271084598e+001°)
1.41253754462274e+004	(1.86312485181223e-001dB,8.24083324964918e+001°)
1.44543977074592e+004	(2.07267661825842e-001dB,7.99018841942955e+001°)
1.47910838816820e+004	(2.28838822285792e-001dB,7.73113372050040e+001°)
1.51356124843620e+004	(2.50866651940707e-001dB,7.46326948290738e+001°)
1.54881661891247e+004	(2.73158100403986e-001dB,7.18618241348395e+001°)
1.58489319246110e+004	(2.95484125977153e-001dB,6.89944763656049e+001°)
1.62181009735892e+004	(3.17578180670982e-001dB,6.60263124245227e+001°)
1.65958690743755e+004	(3.39135779878124e-001dB,6.29529331912775e+001°)
1.69824365246173e+004	(3.59815569373588e-001dB,5.97699138456869e+001°)
1.73780082874936e+004	(3.79242366242806e-001dB,5.64728405546888e+001°)
1.77827941003891e+004	(3.97012699520328e-001dB,5.30573467735440e+001°)
1.81970085860997e+004	(4.12703396664646e-001dB,4.95191449801139e+001°)
1.86208713666285e+004	(4.25883735056536e-001dB,4.58540478802994e+001°)
1.90546071796323e+004	(4.36131580927856e-001dB,4.20579709984456e+001°)
1.94984459975803e+004	(4.43053745679026e-001dB,3.81269061412632e+001°)
1.99526231496887e+004	(4.46310473845081e-001dB,3.40568525835411e+001°)
2.04173794466951e+004	(4.45643510261115e-001dB,2.98436900946367e+001°)
2.08929613085402e+004	(4.40906548901906e-001dB,2.54829752578237e+001°)
2.13796208950222e+004	(4.32096012865233e-001dB,2.09696400790300e+001°)
2.18776162394954e+004	(4.19379013436086e-001dB,1.62975697528760e+001°)
2.23872113856832e+004	(4.03113915510415e-001dB,1.14590347238658e+001°)
2.29086765276776e+004	(3.83857063155713e-001dB,6.44395093769037e+000°)
2.34422881531990e+004	(3.62346645766305e-001dB,1.23894175012970e+000°)
2.39883291901947e+004	(3.39450985847636e-001dB,-4.17382354000077e+000°)
2.45470891568501e+004	(3.16063028103095e-001dB,-9.81803311433415e+000°)
2.51188643150956e+004	(2.92914547313493e-001dB,-1.57248780513341e+001°)
2.57039578276884e+004	(2.70271448774289e-001dB,-2.19348938875254e+001°)
2.63026799189536e+004	(2.47454815084004e-001dB,-2.84998490852849e+001°)
2.69153480392689e+004	(2.22112596567509e-001dB,-3.54843152185254e+001°)
2.75422870333814e+004	(1.89152454520906e-001dB,-4.29661359860343e+001°)
2.81838293126443e+004	(1.39262616012824e-001dB,-5.10342804567645e+001°)
2.88403150312658e+004	(5.70541676382185e-002dB,-5.97814783363474e+001°)
2.95120922666636e+004	(-8.08379295052316e-002dB,-6.92879327567876e+001°)
3.01995172040199e+004	(-3.06746759501697e-001dB,-7.95926797978872e+001°)
3.09029543251357e+004	(-6.60310077189050e-001dB,-9.06538257409411e+001°)
3.16227766016835e+004	(-1.18222312265501e+000dB,-1.02310725292793e+002°)
3.23593656929626e+004	(-1.90342339872332e+000dB,-1.14275248933000e+002°)
3.31131121482588e+004	(-2.83399197268987e+000dB,-1.26176688849853e+002°)
3.38844156139200e+004	(-3.95873730592249e+000dB,-1.37651140339923e+002°)
3.46736850452529e+004	(-5.24272948259675e+000dB,-1.48427561001451e+002°)
3.54813389233573e+004	(-6.64273643216376e+000dB,-1.58365825513815e+002°)
3.63078054770098e+004	(-8.11763384491122e+000dB,-1.67442877771598e+002°)
3.71535229097169e+004	(-9.63404934334913e+000dB,-1.75713456822263e+002°)
3.80189396320558e+004	(-1.11676081083449e+001dB,1.76728749212675e+002°)
3.89045144994277e+004	(-1.27017677327270e+001dB,1.69778231209648e+002°)
3.98107170553494e+004	(-1.42259013984790e+001dB,1.63332761605820e+002°)
4.07380277804109e+004	(-1.57334862273113e+001dB,1.57300103169554e+002°)
4.16869383470332e+004	(-1.72206810560749e+001dB,1.51599934978440e+002°)
4.26579518801589e+004	(-1.86853044808305e+001dB,1.46163458468012e+002°)
4.36515832240162e+004	(-2.01261332389432e+001dB,1.40932092611001e+002°)
4.46683592150959e+004	(-2.15424312288423e+001dB,1.35855975554855e+002°)
4.57088189614871e+004	(-2.29336363459135e+001dB,1.30892599972154e+002°)
4.67735141287194e+004	(-2.42991532402390e+001dB,1.26005709284069e+002°)
4.78630092322634e+004	(-2.56382178000240e+001dB,1.21164486629380e+002°)
4.89778819368442e+004	(-2.69498123894710e+001dB,1.16343025773697e+002°)
5.00000000000000e+004	(-2.81018664840732e+001dB,1.12017412819321e+002°)
