Freq.	V(n002)
1.00000000000000e+001	(-3.41523950088597e+001dB,-9.45080820242991e-003°)
1.02329299228075e+001	(-3.41523961117706e+001dB,-9.67094471743419e-003°)
1.04712854805090e+001	(-3.41523972666603e+001dB,-9.89620879280451e-003°)
1.07151930523761e+001	(-3.41523984759784e+001dB,-1.01267198592023e-002°)
1.09647819614319e+001	(-3.41523997422901e+001dB,-1.03626001287969e-002°)
1.12201845430196e+001	(-3.41524010682814e+001dB,-1.06039746599942e-002°)
1.14815362149688e+001	(-3.41524024567650e+001dB,-1.08509714237511e-002°)
1.17489755493953e+001	(-3.41524039108327e+001dB,-1.11037213728513e-002°)
1.20226443461741e+001	(-3.41524054332752e+001dB,-1.13623585053513e-002°)
1.23026877081238e+001	(-3.41524070274685e+001dB,-1.16270199444352e-002°)
1.25892541179417e+001	(-3.41524086967942e+001dB,-1.18978460052193e-002°)
1.28824955169313e+001	(-3.41524104447929e+001dB,-1.21749802705023e-002°)
1.31825673855641e+001	(-3.41524122753195e+001dB,-1.24585696685878e-002°)
1.34896288259165e+001	(-3.41524141919630e+001dB,-1.27487645443677e-002°)
1.38038426460288e+001	(-3.41524161989356e+001dB,-1.30457187489645e-002°)
1.41253754462275e+001	(-3.41524183005677e+001dB,-1.33495897155411e-002°)
1.44543977074593e+001	(-3.41524205011704e+001dB,-1.36605385407050e-002°)
1.47910838816821e+001	(-3.41524228055583e+001dB,-1.39787300761932e-002°)
1.51356124843621e+001	(-3.41524252184725e+001dB,-1.43043330088321e-002°)
1.54881661891248e+001	(-3.41524277451778e+001dB,-1.46375199573490e-002°)
1.58489319246111e+001	(-3.41524303908872e+001dB,-1.49784675562285e-002°)
1.62181009735893e+001	(-3.41524331613592e+001dB,-1.53273565569424e-002°)
1.65958690743756e+001	(-3.41524360623970e+001dB,-1.56843719168350e-002°)
1.69824365246174e+001	(-3.41524391000809e+001dB,-1.60497028999102e-002°)
1.73780082874937e+001	(-3.41524422809274e+001dB,-1.64235431792279e-002°)
1.77827941003892e+001	(-3.41524456118307e+001dB,-1.68060909386076e-002°)
1.81970085860998e+001	(-3.41524490995622e+001dB,-1.71975489695198e-002°)
1.86208713666287e+001	(-3.41524527517404e+001dB,-1.75981247931409e-002°)
1.90546071796325e+001	(-3.41524565759653e+001dB,-1.80080307564607e-002°)
1.94984459975804e+001	(-3.41524605805691e+001dB,-1.84274841565295e-002°)
1.99526231496888e+001	(-3.41524647738256e+001dB,-1.88567073420748e-002°)
2.04173794466953e+001	(-3.41524691646295e+001dB,-1.92959278421112e-002°)
2.08929613085404e+001	(-3.41524737624415e+001dB,-1.97453784853455e-002°)
2.13796208950223e+001	(-3.41524785769408e+001dB,-2.02052975169652e-002°)
2.18776162394955e+001	(-3.41524836183400e+001dB,-2.06759287297027e-002°)
2.23872113856834e+001	(-3.41524888973327e+001dB,-2.11575215915802e-002°)
2.29086765276777e+001	(-3.41524944251167e+001dB,-2.16503313778358e-002°)
2.34422881531992e+001	(-3.41525002134909e+001dB,-2.21546193074355e-002°)
2.39883291901949e+001	(-3.41525062745866e+001dB,-2.26706526752967e-002°)
2.45470891568503e+001	(-3.41525126214075e+001dB,-2.31987050040012e-002°)
2.51188643150958e+001	(-3.41525192672695e+001dB,-2.37390561762913e-002°)
2.57039578276886e+001	(-3.41525262263434e+001dB,-2.42919925938202e-002°)
2.63026799189538e+001	(-3.41525335134644e+001dB,-2.48578073240250e-002°)
2.69153480392691e+001	(-3.41525411439432e+001dB,-2.54368002497812e-002°)
2.75422870333816e+001	(-3.41525491341125e+001dB,-2.60292782396838e-002°)
2.81838293126445e+001	(-3.41525575008479e+001dB,-2.66355552982572e-002°)
2.88403150312660e+001	(-3.41525662618973e+001dB,-2.72559527386522e-002°)
2.95120922666638e+001	(-3.41525754357715e+001dB,-2.78907993486647e-002°)
3.01995172040201e+001	(-3.41525850421509e+001dB,-2.85404315738788e-002°)
3.09029543251359e+001	(-3.41525951011927e+001dB,-2.92051936763084e-002°)
3.16227766016838e+001	(-3.41526056343083e+001dB,-2.98854379349719e-002°)
3.23593656929628e+001	(-3.41526166638414e+001dB,-3.05815248224262e-002°)
3.31131121482591e+001	(-3.41526282132620e+001dB,-3.12938231987983e-002°)
3.38844156139202e+001	(-3.41526403068495e+001dB,-3.20227104958673e-002°)
3.46736850452531e+001	(-3.41526529706252e+001dB,-3.27685729415793e-002°)
3.54813389233575e+001	(-3.41526662311590e+001dB,-3.35318057271830e-002°)
3.63078054770101e+001	(-3.41526801165809e+001dB,-3.43128132433248e-002°)
3.71535229097172e+001	(-3.41526946564930e+001dB,-3.51120092893893e-002°)
3.80189396320561e+001	(-3.41527098817393e+001dB,-3.59298172822077e-002°)
3.89045144994280e+001	(-3.41527258244713e+001dB,-3.67666704786166e-002°)
3.98107170553497e+001	(-3.41527425186559e+001dB,-3.76230122179849e-002°)
4.07380277804112e+001	(-3.41527599995607e+001dB,-3.84992961359531e-002°)
4.16869383470335e+001	(-3.41527783044163e+001dB,-3.93959864231300e-002°)
4.26579518801592e+001	(-3.41527974719813e+001dB,-4.03135580512433e-002°)
4.36515832240165e+001	(-3.41528175429178e+001dB,-4.12524970329863e-002°)
4.46683592150962e+001	(-3.41528385598783e+001dB,-4.22133006778263e-002°)
4.57088189614874e+001	(-3.41528605673755e+001dB,-4.31964778443777e-002°)
4.67735141287197e+001	(-3.41528836120239e+001dB,-4.42025492131869e-002°)
4.78630092322638e+001	(-3.41529077427857e+001dB,-4.52320475657147e-002°)
4.89778819368445e+001	(-3.41529330110008e+001dB,-4.62855180613083e-002°)
5.01187233627271e+001	(-3.41529594701293e+001dB,-4.73635185074301e-002°)
5.12861383991364e+001	(-3.41529871763049e+001dB,-4.84666196699064e-002°)
5.24807460249772e+001	(-3.41530161883073e+001dB,-4.95954055656464e-002°)
5.37031796370252e+001	(-3.41530465677612e+001dB,-5.07504737718595e-002°)
5.49540873857624e+001	(-3.41530783789722e+001dB,-5.19324357246750e-002°)
5.62341325190348e+001	(-3.41531116895051e+001dB,-5.31419170588901e-002°)
5.75439937337156e+001	(-3.41531465702531e+001dB,-5.43795579323724e-002°)
5.88843655355588e+001	(-3.41531830948542e+001dB,-5.56460133231606e-002°)
6.02559586074357e+001	(-3.41532213410224e+001dB,-5.69419534290070e-002°)
6.16595001861481e+001	(-3.41532613898321e+001dB,-5.82680639729388e-002°)
6.30957344480192e+001	(-3.41533033263303e+001dB,-5.96250465824244e-002°)
6.45654229034654e+001	(-3.41533472394233e+001dB,-6.10136191386166e-002°)
6.60693448007595e+001	(-3.41533932223596e+001dB,-6.24345161652366e-002°)
6.76082975391980e+001	(-3.41534413726346e+001dB,-6.38884891937619e-002°)
6.91830970918935e+001	(-3.41534917924905e+001dB,-6.53763071693833e-002°)
7.07945784384136e+001	(-3.41535445887672e+001dB,-6.68987568279301e-002°)
7.24435960074988e+001	(-3.41535998737161e+001dB,-6.84566431383296e-002°)
7.41310241300916e+001	(-3.41536577645783e+001dB,-7.00507896785064e-002°)
7.58577575029182e+001	(-3.41537183840527e+001dB,-7.16820390729459e-002°)
7.76247116628690e+001	(-3.41537818609262e+001dB,-7.33512534512463e-002°)
7.94328234724279e+001	(-3.41538483299775e+001dB,-7.50593148685796e-002°)
8.12830516164097e+001	(-3.41539179320454e+001dB,-7.68071257431683e-002°)
8.31763771102669e+001	(-3.41539908149880e+001dB,-7.85956093648380e-002°)
8.51138038202374e+001	(-3.41540671334828e+001dB,-8.04257103328800e-002°)
8.70963589956078e+001	(-3.41541470495031e+001dB,-8.22983950497279e-002°)
8.91250938133743e+001	(-3.41542307325885e+001dB,-8.42146522082115e-002°)
9.12010839355907e+001	(-3.41543183604256e+001dB,-8.61754933126766e-002°)
9.33254300796988e+001	(-3.41544101190058e+001dB,-8.81819531772031e-002°)
9.54992586021433e+001	(-3.41545062031675e+001dB,-9.02350904623350e-002°)
9.77237220955808e+001	(-3.41546068167169e+001dB,-9.23359881875011e-002°)
9.99999999999997e+001	(-3.41547121733755e+001dB,-9.44857543211438e-002°)
1.02329299228075e+002	(-3.41548224966475e+001dB,-9.66855222900518e-002°)
1.04712854805090e+002	(-3.41549380207361e+001dB,-9.89364515871002e-002°)
1.07151930523760e+002	(-3.41550589910418e+001dB,-1.01239728354565e-001°)
1.09647819614318e+002	(-3.41551856643907e+001dB,-1.03596565951510e-001°)
1.12201845430196e+002	(-3.41553183096549e+001dB,-1.06008205565020e-001°)
1.14815362149688e+002	(-3.41554572085459e+001dB,-1.08475916849284e-001°)
1.17489755493953e+002	(-3.41556026557729e+001dB,-1.11000998511850e-001°)
1.20226443461741e+002	(-3.41557549604792e+001dB,-1.13584779037107e-001°)
1.23026877081238e+002	(-3.41559144460190e+001dB,-1.16228617252592e-001°)
1.25892541179416e+002	(-3.41560814510140e+001dB,-1.18933903032135e-001°)
1.28824955169313e+002	(-3.41562563301483e+001dB,-1.21702057983792e-001°)
1.31825673855640e+002	(-3.41564394549986e+001dB,-1.24534536151915e-001°)
1.34896288259165e+002	(-3.41566312143848e+001dB,-1.27432824672445e-001°)
1.38038426460288e+002	(-3.41568320157146e+001dB,-1.30398444549059e-001°)
1.41253754462275e+002	(-3.41570422855579e+001dB,-1.33432951351419e-001°)
1.44543977074592e+002	(-3.41572624706316e+001dB,-1.36537935966980e-001°)
1.47910838816820e+002	(-3.41574930388256e+001dB,-1.39715025367738e-001°)
1.51356124843620e+002	(-3.41577344799087e+001dB,-1.42965883342070e-001°)
1.54881661891248e+002	(-3.41579873070890e+001dB,-1.46292211343739e-001°)
1.58489319246111e+002	(-3.41582520576693e+001dB,-1.49695749231017e-001°)
1.62181009735892e+002	(-3.41585292941959e+001dB,-1.53178276072470e-001°)
1.65958690743755e+002	(-3.41588196062489e+001dB,-1.56741611050534e-001°)
1.69824365246174e+002	(-3.41591236106750e+001dB,-1.60387614149554e-001°)
1.73780082874937e+002	(-3.41594419540091e+001dB,-1.64118187157989e-001°)
1.77827941003892e+002	(-3.41597753130506e+001dB,-1.67935274409840e-001°)
1.81970085860998e+002	(-3.41601243966804e+001dB,-1.71840863706890e-001°)
1.86208713666286e+002	(-3.41604899473789e+001dB,-1.75836987199423e-001°)
1.90546071796324e+002	(-3.41608727425245e+001dB,-1.79925722231761e-001°)
1.94984459975804e+002	(-3.41612735966485e+001dB,-1.84109192338648e-001°)
1.99526231496887e+002	(-3.41616933625215e+001dB,-1.88389568050001e-001°)
2.04173794466952e+002	(-3.41621329333517e+001dB,-1.92769067872355e-001°)
2.08929613085403e+002	(-3.41625932447033e+001dB,-1.97249959219925e-001°)
2.13796208950222e+002	(-3.41630752762151e+001dB,-2.01834559300921e-001°)
2.18776162394954e+002	(-3.41635800542930e+001dB,-2.06525236170028e-001°)
2.23872113856833e+002	(-3.41641086536595e+001dB,-2.11324409560062e-001°)
2.29086765276776e+002	(-3.41646621999620e+001dB,-2.16234551892503e-001°)
2.34422881531991e+002	(-3.41652418724923e+001dB,-2.21258189298709e-001°)
2.39883291901948e+002	(-3.41658489060689e+001dB,-2.26397902455095e-001°)
2.45470891568502e+002	(-3.41664845942173e+001dB,-2.31656327651083e-001°)
2.51188643150957e+002	(-3.41671502919639e+001dB,-2.37036157760527e-001°)
2.57039578276885e+002	(-3.41678474184721e+001dB,-2.42540143145544e-001°)
2.63026799189537e+002	(-3.41685774602603e+001dB,-2.48171092650484e-001°)
2.69153480392690e+002	(-3.41693419744217e+001dB,-2.53931874559686e-001°)
2.75422870333816e+002	(-3.41701425920753e+001dB,-2.59825417566965e-001°)
2.81838293126444e+002	(-3.41709810216837e+001dB,-2.65854711665005e-001°)
2.88403150312659e+002	(-3.41718590531347e+001dB,-2.72022809162969e-001°)
2.95120922666637e+002	(-3.41727785611926e+001dB,-2.78332825494902e-001°)
3.01995172040200e+002	(-3.41737415099493e+001dB,-2.84787940206608e-001°)
3.09029543251358e+002	(-3.41747499569604e+001dB,-2.91391397796665e-001°)
3.16227766016837e+002	(-3.41758060576627e+001dB,-2.98146508546707e-001°)
3.23593656929627e+002	(-3.41769120701614e+001dB,-3.05056649362781e-001°)
3.31131121482590e+002	(-3.41780703602478e+001dB,-3.12125264584791e-001°)
3.38844156139201e+002	(-3.41792834065116e+001dB,-3.19355866719000e-001°)
3.46736850452530e+002	(-3.41805538055641e+001dB,-3.26752037080064e-001°)
3.54813389233574e+002	(-3.41818842784126e+001dB,-3.34317426647130e-001°)
3.63078054770100e+002	(-3.41832776756444e+001dB,-3.42055756429831e-001°)
3.71535229097171e+002	(-3.41847369841619e+001dB,-3.49970818141947e-001°)
3.80189396320559e+002	(-3.41862653340071e+001dB,-3.58066474754499e-001°)
3.89045144994279e+002	(-3.41878660043391e+001dB,-3.66346660581924e-001°)
3.98107170553495e+002	(-3.41895424321147e+001dB,-3.74815382058963e-001°)
4.07380277804111e+002	(-3.41912982185544e+001dB,-3.83476717574012e-001°)
4.16869383470333e+002	(-3.41931371378363e+001dB,-3.92334817812024e-001°)
4.26579518801591e+002	(-3.41950631450877e+001dB,-4.01393905605501e-001°)
4.36515832240164e+002	(-3.41970803856884e+001dB,-4.10658275973080e-001°)
4.46683592150961e+002	(-3.41991932043591e+001dB,-4.20132295785277e-001°)
4.57088189614873e+002	(-3.42014061547240e+001dB,-4.29820403266950e-001°)
4.67735141287196e+002	(-3.42037240100355e+001dB,-4.39727107589081e-001°)
4.78630092322636e+002	(-3.42061517736148e+001dB,-4.49856987967086e-001°)
4.89778819368444e+002	(-3.42086946905859e+001dB,-4.60214692850210e-001°)
5.01187233627270e+002	(-3.42113582593097e+001dB,-4.70804938525357e-001°)
5.12861383991362e+002	(-3.42141482445448e+001dB,-4.81632507946086e-001°)
5.24807460249770e+002	(-3.42170706900805e+001dB,-4.92702248794700e-001°)
5.37031796370250e+002	(-3.42201319333170e+001dB,-5.04019071804595e-001°)
5.49540873857622e+002	(-3.42233386191696e+001dB,-5.15587948143161e-001°)
5.62341325190346e+002	(-3.42266977162253e+001dB,-5.27413907124433e-001°)
5.75439937337154e+002	(-3.42302165321617e+001dB,-5.39502032819991e-001°)
5.88843655355586e+002	(-3.42339027318049e+001dB,-5.51857461114990e-001°)
6.02559586074355e+002	(-3.42377643541791e+001dB,-5.64485375378797e-001°)
6.16595001861479e+002	(-3.42418098322266e+001dB,-5.77391002490195e-001°)
6.30957344480190e+002	(-3.42460480124430e+001dB,-5.90579607781744e-001°)
6.45654229034652e+002	(-3.42504881759720e+001dB,-6.04056489582095e-001°)
6.60693448007592e+002	(-3.42551400610015e+001dB,-6.17826973213975e-001°)
6.76082975391978e+002	(-3.42600138862371e+001dB,-6.31896404230421e-001°)
6.91830970918933e+002	(-3.42651203755275e+001dB,-6.46270140808939e-001°)
7.07945784384134e+002	(-3.42704707840192e+001dB,-6.60953545410052e-001°)
7.24435960074986e+002	(-3.42760769260039e+001dB,-6.75951975680181e-001°)
7.41310241300914e+002	(-3.42819512039564e+001dB,-6.91270774162956e-001°)
7.58577575029180e+002	(-3.42881066393094e+001dB,-7.06915256985810e-001°)
7.76247116628688e+002	(-3.42945569052223e+001dB,-7.22890701526788e-001°)
7.94328234724277e+002	(-3.43013163610140e+001dB,-7.39202332679668e-001°)
8.12830516164095e+002	(-3.43084000886083e+001dB,-7.55855307725764e-001°)
8.31763771102666e+002	(-3.43158239314253e+001dB,-7.72854699907688e-001°)
8.51138038202372e+002	(-3.43236045350446e+001dB,-7.90205479984677e-001°)
8.70963589956076e+002	(-3.43317593910666e+001dB,-8.07912496523413e-001°)
8.91250938133741e+002	(-3.43403068824744e+001dB,-8.25980453385875e-001°)
9.12010839355905e+002	(-3.43492663331499e+001dB,-8.44413886062527e-001°)
9.33254300796986e+002	(-3.43586580593478e+001dB,-8.63217134852227e-001°)
9.54992586021431e+002	(-3.43685034246936e+001dB,-8.82394315663532e-001°)
9.77237220955805e+002	(-3.43788248991689e+001dB,-9.01949288413219e-001°)
9.99999999999994e+002	(-3.43896461210601e+001dB,-9.21885621701878e-001°)
1.02329299228075e+003	(-3.44009919629032e+001dB,-9.42206554035114e-001°)
1.04712854805089e+003	(-3.44128886026320e+001dB,-9.62914952069350e-001°)
1.07151930523760e+003	(-3.44253635983798e+001dB,-9.84013263884508e-001°)
1.09647819614318e+003	(-3.44384459686512e+001dB,-1.00550346801998e+000°)
1.12201845430196e+003	(-3.44521662784171e+001dB,-1.02738701801604e+000°)
1.14815362149688e+003	(-3.44665567294409e+001dB,-1.04966477991662e+000°)
1.17489755493952e+003	(-3.44816512588795e+001dB,-1.07233696554515e+000°)
1.20226443461741e+003	(-3.44974856436474e+001dB,-1.09540305805947e+000°)
1.23026877081237e+003	(-3.45140976121007e+001dB,-1.11886172996919e+000°)
1.25892541179416e+003	(-3.45315269639810e+001dB,-1.14271075312717e+000°)
1.28824955169313e+003	(-3.45498156992399e+001dB,-1.16694689975628e+000°)
1.31825673855640e+003	(-3.45690081563653e+001dB,-1.19156583337504e+000°)
1.34896288259165e+003	(-3.45891511603605e+001dB,-1.21656198769045e+000°)
1.38038426460288e+003	(-3.46102941832493e+001dB,-1.24192843434394e+000°)
1.41253754462275e+003	(-3.46324895152925e+001dB,-1.26765673487032e+000°)
1.44543977074592e+003	(-3.46557924519479e+001dB,-1.29373677972915e+000°)
1.47910838816820e+003	(-3.46802614931371e+001dB,-1.32015660704540e+000°)
1.51356124843620e+003	(-3.47059585602856e+001dB,-1.34690220372617e+000°)
1.54881661891247e+003	(-3.47329492310439e+001dB,-1.37395728466752e+000°)
1.58489319246110e+003	(-3.47613029930100e+001dB,-1.40130304671762e+000°)
1.62181009735892e+003	(-3.47910935197930e+001dB,-1.42891789605668e+000°)
1.65958690743755e+003	(-3.48223989705069e+001dB,-1.45677714402776e+000°)
1.69824365246173e+003	(-3.48553023160927e+001dB,-1.48485266858123e+000°)
1.73780082874936e+003	(-3.48898916941455e+001dB,-1.51311253509397e+000°)
1.77827941003891e+003	(-3.49262607975429e+001dB,-1.54152057428077e+000°)
1.81970085860997e+003	(-3.49645092979034e+001dB,-1.57003590734932e+000°)
1.86208713666286e+003	(-3.50047433104970e+001dB,-1.59861241501104e+000°)
1.90546071796323e+003	(-3.50470759035618e+001dB,-1.62719813966548e+000°)
1.94984459975803e+003	(-3.50916276581138e+001dB,-1.65573461232790e+000°)
1.99526231496887e+003	(-3.51385272844696e+001dB,-1.68415609351022e+000°)
2.04173794466952e+003	(-3.51879123021802e+001dB,-1.71238871464525e+000°)
2.08929613085403e+003	(-3.52399297916829e+001dB,-1.74034950538913e+000°)
2.13796208950222e+003	(-3.52947372272965e+001dB,-1.76794528970174e+000°)
2.18776162394954e+003	(-3.53525034009430e+001dB,-1.79507142741012e+000°)
2.23872113856832e+003	(-3.54134094503308e+001dB,-1.82161037871545e+000°)
2.29086765276776e+003	(-3.54776500062059e+001dB,-1.84743006263140e+000°)
2.34422881531991e+003	(-3.55454344739453e+001dB,-1.87238197134410e+000°)
2.39883291901947e+003	(-3.56169884711869e+001dB,-1.89629900218862e+000°)
2.45470891568501e+003	(-3.56925554416056e+001dB,-1.91899295084487e+000°)
2.51188643150956e+003	(-3.57723984758792e+001dB,-1.94025161210955e+000°)
2.57039578276885e+003	(-3.58568023685535e+001dB,-1.95983540728725e+000°)
2.63026799189536e+003	(-3.59460759502628e+001dB,-1.97747345009258e+000°)
2.69153480392690e+003	(-3.60405547418027e+001dB,-1.99285894240301e+000°)
2.75422870333815e+003	(-3.61406039813298e+001dB,-2.00564375627179e+000°)
2.81838293126443e+003	(-3.62466220932837e+001dB,-2.01543203940813e+000°)
2.88403150312659e+003	(-3.63590446767085e+001dB,-2.02177262993429e+000°)
2.95120922666636e+003	(-3.64783491078701e+001dB,-2.02415001261411e+000°)
3.01995172040199e+003	(-3.66050598768317e+001dB,-2.02197348750765e+000°)
3.09029543251357e+003	(-3.67397547989957e+001dB,-2.01456411853235e+000°)
3.16227766016836e+003	(-3.68830722824993e+001dB,-2.00113892427358e+000°)
3.23593656929626e+003	(-3.70357198699759e+001dB,-1.98079160126968e+000°)
3.31131121482589e+003	(-3.71984843342580e+001dB,-1.95246887138940e+000°)
3.38844156139200e+003	(-3.73722436746644e+001dB,-1.91494124556001e+000°)
3.46736850452529e+003	(-3.75579814597575e+001dB,-1.86676661744990e+000°)
3.54813389233573e+003	(-3.77568040841066e+001dB,-1.80624455400292e+000°)
3.63078054770099e+003	(-3.79699616724732e+001dB,-1.73135839602481e+000°)
3.71535229097170e+003	(-3.81988735901772e+001dB,-1.63970122319963e+000°)
3.80189396320558e+003	(-3.84451598160671e+001dB,-1.52838019520384e+000°)
3.89045144994278e+003	(-3.87106798550842e+001dB,-1.39389156955180e+000°)
3.98107170553494e+003	(-3.89975814395948e+001dB,-1.23195539173333e+000°)
4.07380277804110e+003	(-3.93083620784581e+001dB,-1.03729389456914e+000°)
4.16869383470332e+003	(-3.96459476664602e+001dB,-8.03330040782694e-001°)
4.26579518801589e+003	(-4.00137940199928e+001dB,-5.21770703511419e-001°)
4.36515832240162e+003	(-4.04160196291221e+001dB,-1.82019879571243e-001°)
4.46683592150960e+003	(-4.08575814745164e+001dB,2.29664133559165e-001°)
4.57088189614871e+003	(-4.13445110861015e+001dB,7.31406774747353e-001°)
4.67735141287194e+003	(-4.18842359678420e+001dB,1.34758236311497e+000°)
4.78630092322634e+003	(-4.24860233836737e+001dB,2.11170546842094e+000°)
4.89778819368442e+003	(-4.31616006835293e+001dB,3.07106121962699e+000°)
5.01187233627268e+003	(-4.39260291080422e+001dB,4.29440053469033e+000°)
5.12861383991361e+003	(-4.47989294475482e+001dB,5.88528218858098e+000°)
5.24807460249768e+003	(-4.58061398360302e+001dB,8.00634371200941e+000°)
