time	V(n004)	V(n007)
0.000000000000000e+000	-3.241156e-002	-5.000000e+000
5.000000000000000e-004	-3.241156e-002	-5.000000e+000
5.000002065883650e-004	-3.241156e-002	-4.979341e+000
5.000006197650951e-004	-3.241156e-002	-4.938024e+000
5.000009628539547e-004	-3.241156e-002	-4.903715e+000
5.000013215454097e-004	-3.241156e-002	-4.867846e+000
5.000020389283197e-004	-3.241156e-002	-4.796107e+000
5.000034736941396e-004	-3.241156e-002	-4.652631e+000
5.000052948944502e-004	-3.241156e-002	-4.470510e+000
5.000075328370029e-004	-3.241155e-002	-4.246716e+000
5.000098372543676e-004	-3.241152e-002	-4.016274e+000
5.000123043504943e-004	-3.241141e-002	-3.769565e+000
5.000157953892551e-004	-3.241047e-002	-3.420461e+000
5.000227774667769e-004	-3.240329e-002	-2.722253e+000
5.000292211452187e-004	-3.238337e-002	-2.077885e+000
5.000347275492007e-004	-3.233839e-002	-1.527245e+000
5.000408470594836e-004	-3.222343e-002	-9.152941e-001
5.000473382717036e-004	-3.197030e-002	-2.661728e-001
5.000538144661041e-004	-3.147329e-002	3.814466e-001
5.000609503600472e-004	-3.043266e-002	1.095036e+000
5.000692030823783e-004	-2.812761e-002	1.920308e+000
5.000800633533487e-004	-2.290052e-002	3.006335e+000
5.000882425007836e-004	-1.721458e-002	3.824250e+000
5.000897432602509e-004	-1.585307e-002	3.974326e+000
5.000927447791856e-004	-1.270513e-002	4.274478e+000
5.000939969621304e-004	-1.127521e-002	4.399696e+000
5.000965013280201e-004	-8.116673e-003	4.650133e+000
5.001000000000000e-004	-3.401565e-003	5.000000e+000
5.001010496015940e-004	-1.824142e-003	5.000000e+000
5.001024490703859e-004	3.746729e-004	5.000000e+000
5.001049089934951e-004	4.530945e-003	5.000000e+000
5.001098288397135e-004	1.397475e-002	5.000000e+000
5.001196685321505e-004	3.603320e-002	5.000000e+000
5.001293559551724e-004	6.144814e-002	5.000000e+000
5.001387920400487e-004	9.000584e-002	5.000000e+000
5.001491725986797e-004	1.252473e-001	5.000000e+000
5.001610660344273e-004	1.700892e-001	5.000000e+000
5.001781969939354e-004	2.420371e-001	5.000000e+000
5.001992226349591e-004	3.413128e-001	5.000000e+000
5.002235718064548e-004	4.712045e-001	5.000000e+000
5.002509189626813e-004	6.346167e-001	5.000000e+000
5.002881601976080e-004	8.768617e-001	5.000000e+000
5.003262001274661e-004	1.135986e+000	5.000000e+000
5.003823353173846e-004	1.523189e+000	5.000000e+000
5.004260543444270e-004	1.823190e+000	5.000000e+000
5.004765841266982e-004	2.169091e+000	5.000000e+000
5.005323330095893e-004	2.550750e+000	5.000000e+000
5.005908339187941e-004	2.949966e+000	5.000000e+000
5.006645597935519e-004	3.451608e+000	5.000000e+000
5.007630834204529e-004	4.120533e+000	5.000000e+000
5.008145186859628e-004	4.468540e+000	5.000000e+000
5.008451805624574e-004	4.675694e+000	5.000000e+000
5.008657407825389e-004	4.814628e+000	5.000000e+000
5.008923577589415e-004	4.994211e+000	5.000000e+000
5.009050582236856e-004	5.079688e+000	5.000000e+000
5.009164323525598e-004	5.156117e+000	5.000000e+000
5.009293651909879e-004	5.243018e+000	5.000000e+000
5.009427258381088e-004	5.332635e+000	5.000000e+000
5.009625016369644e-004	5.463440e+000	5.000000e+000
5.009808415974906e-004	5.577647e+000	5.000000e+000
5.010012304672124e-004	5.690335e+000	5.000000e+000
5.010116643913476e-004	5.737959e+000	5.000000e+000
5.010210076739953e-004	5.770465e+000	5.000000e+000
5.010343805491415e-004	5.804522e+000	5.000000e+000
5.010465620736660e-004	5.826337e+000	5.000000e+000
5.010536015374145e-004	5.834909e+000	5.000000e+000
5.010593386504494e-004	5.839802e+000	5.000000e+000
5.010653654224728e-004	5.843546e+000	5.000000e+000
5.010713143910947e-004	5.846062e+000	5.000000e+000
5.010775878166318e-004	5.847442e+000	5.000000e+000
5.010850738248590e-004	5.846987e+000	5.000000e+000
5.011000458413133e-004	5.840629e+000	5.000000e+000
5.011141991907638e-004	5.828417e+000	5.000000e+000
5.011288137280231e-004	5.809144e+000	5.000000e+000
5.011441958834336e-004	5.783660e+000	5.000000e+000
5.011626935365281e-004	5.749866e+000	5.000000e+000
5.011778027100982e-004	5.722143e+000	5.000000e+000
5.011964420404279e-004	5.689416e+000	5.000000e+000
5.012137861107529e-004	5.660726e+000	5.000000e+000
5.012344941199597e-004	5.628532e+000	5.000000e+000
5.012560900417208e-004	5.597161e+000	5.000000e+000
5.012742525119899e-004	5.572850e+000	5.000000e+000
5.012892016727556e-004	5.554447e+000	5.000000e+000
5.013063741871692e-004	5.534445e+000	5.000000e+000
5.013221177193357e-004	5.516137e+000	5.000000e+000
5.013450817403842e-004	5.488015e+000	5.000000e+000
5.013694640865061e-004	5.455157e+000	5.000000e+000
5.014011309739106e-004	5.407732e+000	5.000000e+000
5.014244185586475e-004	5.369340e+000	5.000000e+000
5.014431645702492e-004	5.335791e+000	5.000000e+000
5.014599929866191e-004	5.303840e+000	5.000000e+000
5.014751157440853e-004	5.273919e+000	5.000000e+000
5.014917187321870e-004	5.240210e+000	5.000000e+000
5.015077568181132e-004	5.207230e+000	5.000000e+000
5.015311747733676e-004	5.159026e+000	5.000000e+000
5.015623076693659e-004	5.095501e+000	5.000000e+000
5.015825574332620e-004	5.054893e+000	5.000000e+000
5.016026653191382e-004	5.015479e+000	5.000000e+000
5.016223884223017e-004	4.977694e+000	5.000000e+000
5.016408814490299e-004	4.942990e+000	5.000000e+000
5.016568015952661e-004	4.913583e+000	5.000000e+000
5.016725036437962e-004	4.884877e+000	5.000000e+000
5.016882307234160e-004	4.856284e+000	5.000000e+000
5.017070818852400e-004	4.822055e+000	5.000000e+000
5.017348594098611e-004	4.771453e+000	5.000000e+000
5.017600312902588e-004	4.725258e+000	5.000000e+000
5.017790150878171e-004	4.690065e+000	5.000000e+000
5.017972252615485e-004	4.655963e+000	5.000000e+000
5.018153759881386e-004	4.621686e+000	5.000000e+000
5.018315969719728e-004	4.590857e+000	5.000000e+000
5.018468069085828e-004	4.561821e+000	5.000000e+000
5.018641244960539e-004	4.528682e+000	5.000000e+000
5.018821594265476e-004	4.494158e+000	5.000000e+000
5.019081151139537e-004	4.444601e+000	5.000000e+000
5.019437544960460e-004	4.376900e+000	5.000000e+000
5.019643386959410e-004	4.338074e+000	5.000000e+000
5.019837875387483e-004	4.301661e+000	5.000000e+000
5.020036530197313e-004	4.264690e+000	5.000000e+000
5.020232034647239e-004	4.228496e+000	5.000000e+000
5.020455268059874e-004	4.187355e+000	5.000000e+000
5.020681398634312e-004	4.145829e+000	5.000000e+000
5.020955162438873e-004	4.095675e+000	5.000000e+000
5.021303049144627e-004	4.032004e+000	5.000000e+000
5.021503681187562e-004	3.995297e+000	5.000000e+000
5.021729821012979e-004	3.953931e+000	5.000000e+000
5.021988086354427e-004	3.906695e+000	5.000000e+000
5.022276301947626e-004	3.854024e+000	5.000000e+000
5.022568124548053e-004	3.800819e+000	5.000000e+000
5.022912291460423e-004	3.738316e+000	5.000000e+000
5.023375476049708e-004	3.654591e+000	5.000000e+000
5.023680886849066e-004	3.599682e+000	5.000000e+000
5.023990736143126e-004	3.544272e+000	5.000000e+000
5.024392964374819e-004	3.472671e+000	5.000000e+000
5.024784168512946e-004	3.403382e+000	5.000000e+000
5.025354945586383e-004	3.302743e+000	5.000000e+000
5.025728489368801e-004	3.237140e+000	5.000000e+000
5.026146865624303e-004	3.163990e+000	5.000000e+000
5.026679596190192e-004	3.071374e+000	5.000000e+000
5.027290946631796e-004	2.965845e+000	5.000000e+000
5.027847597107006e-004	2.870484e+000	5.000000e+000
5.028472856401909e-004	2.764249e+000	5.000000e+000
5.029185905875389e-004	2.644313e+000	5.000000e+000
5.030292199232641e-004	2.460326e+000	5.000000e+000
5.031288811508189e-004	2.296804e+000	5.000000e+000
5.032365747093851e-004	2.122840e+000	5.000000e+000
5.033501039909596e-004	1.942526e+000	5.000000e+000
5.034853285314671e-004	1.732005e+000	5.000000e+000
5.036476735746086e-004	1.485161e+000	5.000000e+000
5.038264559781066e-004	1.221819e+000	5.000000e+000
5.041036950466311e-004	8.295021e-001	5.000000e+000
5.043864145405565e-004	4.504150e-001	5.000000e+000
5.047788557315406e-004	-3.006093e-002	5.000000e+000
5.055637381135088e-004	-8.648699e-001	5.000000e+000
5.064702716291271e-004	-1.641754e+000	5.000000e+000
5.074897247790732e-004	-2.295208e+000	5.000000e+000
5.081280773366225e-004	-2.588238e+000	5.000000e+000
5.084706365770079e-004	-2.701225e+000	5.000000e+000
5.086376534095997e-004	-2.744751e+000	5.000000e+000
5.087123443865013e-004	-2.761552e+000	5.000000e+000
5.087545554279823e-004	-2.770392e+000	5.000000e+000
5.088068451496476e-004	-2.780807e+000	5.000000e+000
5.088300638537382e-004	-2.785144e+000	5.000000e+000
5.088575476980468e-004	-2.790140e+000	5.000000e+000
5.088852041736431e-004	-2.795148e+000	5.000000e+000
5.089118722900319e-004	-2.799811e+000	5.000000e+000
5.089320115578655e-004	-2.803154e+000	5.000000e+000
5.089553798635432e-004	-2.806901e+000	5.000000e+000
5.089834005959709e-004	-2.811318e+000	5.000000e+000
5.090148568653865e-004	-2.816140e+000	5.000000e+000
5.090414801479103e-004	-2.820029e+000	5.000000e+000
5.090707477428936e-004	-2.824089e+000	5.000000e+000
5.091104166108349e-004	-2.829349e+000	5.000000e+000
5.091535746507898e-004	-2.834757e+000	5.000000e+000
5.091964860864365e-004	-2.839758e+000	5.000000e+000
5.092365215625612e-004	-2.844023e+000	5.000000e+000
5.093136527010735e-004	-2.851356e+000	5.000000e+000
5.093948431584680e-004	-2.857819e+000	5.000000e+000
5.095160205150659e-004	-2.865144e+000	5.000000e+000
5.096404227797013e-004	-2.870049e+000	5.000000e+000
5.097658388814283e-004	-2.872125e+000	5.000000e+000
5.098958557742292e-004	-2.871317e+000	5.000000e+000
5.100271396704795e-004	-2.867466e+000	5.000000e+000
5.101720119421167e-004	-2.859692e+000	5.000000e+000
5.103416514728100e-004	-2.845951e+000	5.000000e+000
5.105659185033215e-004	-2.820060e+000	5.000000e+000
5.109116423738394e-004	-2.763033e+000	5.000000e+000
5.115508910679018e-004	-2.619101e+000	5.000000e+000
5.121836595654197e-004	-2.436630e+000	5.000000e+000
5.127567349719615e-004	-2.236402e+000	5.000000e+000
5.134048146673406e-004	-1.978631e+000	5.000000e+000
5.140172427165351e-004	-1.712843e+000	5.000000e+000
5.146410879762862e-004	-1.425449e+000	5.000000e+000
5.154066950185119e-004	-1.060955e+000	5.000000e+000
5.161944674332884e-004	-6.834680e-001	5.000000e+000
5.171279414844694e-004	-2.456905e-001	5.000000e+000
5.180462865606608e-004	1.622205e-001	5.000000e+000
5.190166623145203e-004	5.603933e-001	5.000000e+000
5.196767133551360e-004	8.071793e-001	5.000000e+000
5.201517566062250e-004	9.680254e-001	5.000000e+000
5.206262170575251e-004	1.113463e+000	5.000000e+000
5.211643930482890e-004	1.261084e+000	5.000000e+000
5.217369206002601e-004	1.397368e+000	5.000000e+000
5.224050346647024e-004	1.529142e+000	5.000000e+000
5.231253774929031e-004	1.636996e+000	5.000000e+000
5.240769516781431e-004	1.727631e+000	5.000000e+000
5.251438376656107e-004	1.766485e+000	5.000000e+000
5.262453596113014e-004	1.740017e+000	5.000000e+000
5.273887761990441e-004	1.646742e+000	5.000000e+000
5.286758098122481e-004	1.476454e+000	5.000000e+000
5.298895015234484e-004	1.265147e+000	5.000000e+000
5.310538189576755e-004	1.025238e+000	5.000000e+000
5.323012700353291e-004	7.424374e-001	5.000000e+000
5.335987812134890e-004	4.355585e-001	5.000000e+000
5.349929049824547e-004	1.068352e-001	5.000000e+000
5.363140626943358e-004	-1.928023e-001	5.000000e+000
5.371569924505415e-004	-3.727265e-001	5.000000e+000
5.377134299531129e-004	-4.837704e-001	5.000000e+000
5.381940584296265e-004	-5.736369e-001	5.000000e+000
5.387218737425895e-004	-6.659740e-001	5.000000e+000
5.392335777597500e-004	-7.490819e-001	5.000000e+000
5.397316434152673e-004	-8.230117e-001	5.000000e+000
5.403241725459282e-004	-9.011695e-001	5.000000e+000
5.411156097170714e-004	-9.907021e-001	5.000000e+000
5.418509958595585e-004	-1.057762e+000	5.000000e+000
5.426999805020719e-004	-1.114984e+000	5.000000e+000
5.434870591721963e-004	-1.149025e+000	5.000000e+000
5.443065107568170e-004	-1.164698e+000	5.000000e+000
5.450634019047737e-004	-1.161866e+000	5.000000e+000
5.458114486626217e-004	-1.143053e+000	5.000000e+000
5.464961778372770e-004	-1.112568e+000	5.000000e+000
5.471530273122685e-004	-1.072235e+000	5.000000e+000
5.476678023195724e-004	-1.033880e+000	5.000000e+000
5.479320656863089e-004	-1.011589e+000	5.000000e+000
5.481982746952758e-004	-9.872905e-001	5.000000e+000
5.484631226658111e-004	-9.616477e-001	5.000000e+000
5.487694127892200e-004	-9.301069e-001	5.000000e+000
5.491821140740724e-004	-8.845857e-001	5.000000e+000
5.497854147627818e-004	-8.126527e-001	5.000000e+000
5.505762642883174e-004	-7.104989e-001	5.000000e+000
5.514446682061817e-004	-5.898158e-001	5.000000e+000
5.523593407399852e-004	-4.549882e-001	5.000000e+000
5.534548533211069e-004	-2.873105e-001	5.000000e+000
5.548145042002944e-004	-7.761208e-002	5.000000e+000
5.564022505907557e-004	1.598624e-001	5.000000e+000
5.578608213285411e-004	3.595524e-001	5.000000e+000
5.596583588741303e-004	5.690587e-001	5.000000e+000
5.613879924399936e-004	7.180022e-001	5.000000e+000
5.638193085616377e-004	8.389776e-001	5.000000e+000
5.656765974736836e-004	8.609833e-001	5.000000e+000
5.673806638984648e-004	8.206614e-001	5.000000e+000
5.687658706185169e-004	7.488173e-001	5.000000e+000
5.703105248167669e-004	6.339899e-001	5.000000e+000
5.718355046061280e-004	4.942624e-001	5.000000e+000
5.737674942505681e-004	2.941084e-001	5.000000e+000
5.758149944822523e-004	7.229676e-002	5.000000e+000
5.771984967092459e-004	-7.471216e-002	5.000000e+000
5.785035815834423e-004	-2.022883e-001	5.000000e+000
5.802008112881965e-004	-3.450958e-001	5.000000e+000
5.819342951246005e-004	-4.550987e-001	5.000000e+000
5.843028571225754e-004	-5.440295e-001	5.000000e+000
5.863195264119738e-004	-5.640962e-001	5.000000e+000
5.880512493087644e-004	-5.355536e-001	5.000000e+000
5.895942154364336e-004	-4.777143e-001	5.000000e+000
5.909893225151050e-004	-4.027188e-001	5.000000e+000
5.925302019156319e-004	-3.006436e-001	5.000000e+000
5.944169546858093e-004	-1.600949e-001	5.000000e+000
5.960116288264349e-004	-3.541004e-002	5.000000e+000
5.975207635218545e-004	8.120459e-002	5.000000e+000
5.990050486206768e-004	1.874517e-001	5.000000e+000
6.007597986446676e-004	2.958919e-001	5.000000e+000
6.025051776653444e-004	3.798870e-001	5.000000e+000
6.043308915928077e-004	4.370500e-001	5.000000e+000
6.061620053478832e-004	4.605499e-001	5.000000e+000
6.080510376655334e-004	4.500086e-001	5.000000e+000
6.097976090887801e-004	4.114676e-001	5.000000e+000
6.113679232405648e-004	3.553722e-001	5.000000e+000
6.129745292410483e-004	2.815961e-001	5.000000e+000
6.145900385457559e-004	1.964999e-001	5.000000e+000
6.161691866331283e-004	1.079255e-001	5.000000e+000
6.178171940325432e-004	1.555795e-002	5.000000e+000
6.194430331236449e-004	-7.026900e-002	5.000000e+000
6.209585017400280e-004	-1.408682e-001	5.000000e+000
6.225773659409818e-004	-2.024691e-001	5.000000e+000
6.241674023452987e-004	-2.468453e-001	5.000000e+000
6.256888242979116e-004	-2.723962e-001	5.000000e+000
6.271619448645296e-004	-2.804976e-001	5.000000e+000
6.286528178053451e-004	-2.724097e-001	5.000000e+000
6.301637560233880e-004	-2.496552e-001	5.000000e+000
6.313324703548795e-004	-2.226903e-001	5.000000e+000
6.324197227074621e-004	-1.906869e-001	5.000000e+000
6.335569133764634e-004	-1.518445e-001	5.000000e+000
6.347062886456032e-004	-1.085249e-001	5.000000e+000
6.358860196291749e-004	-6.130515e-002	5.000000e+000
6.370910256187734e-004	-1.186470e-002	5.000000e+000
6.383216616445211e-004	3.813598e-002	5.000000e+000
6.395919312512148e-004	8.739990e-002	5.000000e+000
6.409091536383516e-004	1.341553e-001	5.000000e+000
6.422595617471827e-004	1.757076e-001	5.000000e+000
6.437032782270621e-004	2.114679e-001	5.000000e+000
6.451599589641726e-004	2.370363e-001	5.000000e+000
6.467769230498299e-004	2.523982e-001	5.000000e+000
6.483793787388896e-004	2.537239e-001	5.000000e+000
6.502340325429597e-004	2.407575e-001	5.000000e+000
6.512460840571176e-004	2.269470e-001	5.000000e+000
6.524530805485318e-004	2.038642e-001	5.000000e+000
6.537207054122464e-004	1.746722e-001	5.000000e+000
6.549844639606605e-004	1.414107e-001	5.000000e+000
6.566079178487106e-004	9.512119e-002	5.000000e+000
6.582883789853440e-004	4.608075e-002	5.000000e+000
6.601005249083170e-004	-4.893712e-003	5.000000e+000
6.618159941506175e-004	-4.816395e-002	5.000000e+000
6.635576088230296e-004	-8.427543e-002	5.000000e+000
6.652999669798976e-004	-1.095932e-001	5.000000e+000
6.676247824443380e-004	-1.271078e-001	5.000000e+000
6.694199954339229e-004	-1.277461e-001	5.000000e+000
6.711365319140955e-004	-1.175367e-001	5.000000e+000
6.721656598858414e-004	-1.065308e-001	5.000000e+000
6.733556060744965e-004	-8.944397e-002	5.000000e+000
6.745408489450946e-004	-6.930216e-002	5.000000e+000
6.757226476335780e-004	-4.663214e-002	5.000000e+000
6.773194978105685e-004	-1.369709e-002	5.000000e+000
6.789363630471387e-004	2.040711e-002	5.000000e+000
6.805127047314841e-004	5.255099e-002	5.000000e+000
6.822970020688726e-004	8.523328e-002	5.000000e+000
6.842719407009720e-004	1.149287e-001	5.000000e+000
6.860760333795928e-004	1.343042e-001	5.000000e+000
6.878898396114906e-004	1.449404e-001	5.000000e+000
6.896889496544204e-004	1.464842e-001	5.000000e+000
6.915785384664889e-004	1.397268e-001	5.000000e+000
6.927385690955587e-004	1.312642e-001	5.000000e+000
6.940381013173394e-004	1.180245e-001	5.000000e+000
6.951832014742554e-004	1.040685e-001	5.000000e+000
6.963196836471401e-004	8.841971e-002	5.000000e+000
6.977010216591673e-004	6.797436e-002	5.000000e+000
6.990923634963263e-004	4.684786e-002	5.000000e+000
7.011050183565302e-004	1.703815e-002	5.000000e+000
7.027593995870259e-004	-5.253166e-003	5.000000e+000
7.045574926846805e-004	-2.557605e-002	5.000000e+000
7.062239658757682e-004	-3.966339e-002	5.000000e+000
7.080749124942921e-004	-4.926417e-002	5.000000e+000
7.097487573171970e-004	-5.213578e-002	5.000000e+000
7.115809470243645e-004	-4.937551e-002	5.000000e+000
7.128141978024454e-004	-4.411088e-002	5.000000e+000
7.141543538807606e-004	-3.543022e-002	5.000000e+000
7.151668616113797e-004	-2.726522e-002	5.000000e+000
7.162475081157407e-004	-1.717587e-002	5.000000e+000
7.174493999356201e-004	-4.889562e-003	5.000000e+000
7.185637931521511e-004	7.154790e-003	5.000000e+000
7.200740298341055e-004	2.379080e-002	5.000000e+000
7.214956881925021e-004	3.898715e-002	5.000000e+000
7.232921185375585e-004	5.649143e-002	5.000000e+000
7.252121180887237e-004	7.197993e-002	5.000000e+000
7.273400849139783e-004	8.427192e-002	5.000000e+000
7.292650725458324e-004	9.011344e-002	5.000000e+000
7.313686962636477e-004	9.085153e-002	5.000000e+000
7.327904662909744e-004	8.794159e-002	5.000000e+000
7.343575508133404e-004	8.167147e-002	5.000000e+000
7.355235990365954e-004	7.534350e-002	5.000000e+000
7.368090328053051e-004	6.695256e-002	5.000000e+000
7.379248331384643e-004	5.884845e-002	5.000000e+000
7.390441192123850e-004	5.017492e-002	5.000000e+000
7.403429369336768e-004	3.984409e-002	5.000000e+000
7.415403705116776e-004	3.042667e-002	5.000000e+000
7.430225885531095e-004	1.935576e-002	5.000000e+000
7.444573467263643e-004	9.720808e-003	5.000000e+000
7.460791108640650e-004	5.583441e-004	5.000000e+000
7.475490943048113e-004	-5.778261e-003	5.000000e+000
7.491499464132026e-004	-1.032204e-002	5.000000e+000
7.504910148301873e-004	-1.211399e-002	5.000000e+000
7.518967310821882e-004	-1.198373e-002	5.000000e+000
7.530688238696331e-004	-1.038130e-002	5.000000e+000
7.542828455089757e-004	-7.365887e-003	5.000000e+000
7.553348817189135e-004	-3.780572e-003	5.000000e+000
7.564107449821656e-004	7.072363e-004	5.000000e+000
7.573709155893209e-004	5.280504e-003	5.000000e+000
7.583437323889819e-004	1.035402e-002	5.000000e+000
7.593024071170932e-004	1.564773e-002	5.000000e+000
7.601876762034320e-004	2.069698e-002	5.000000e+000
7.611257468476350e-004	2.610498e-002	5.000000e+000
7.620136077090213e-004	3.117348e-002	5.000000e+000
7.629582172920364e-004	3.640984e-002	5.000000e+000
7.638836478077339e-004	4.128590e-002	5.000000e+000
7.648446099749342e-004	4.598467e-002	5.000000e+000
7.658132487029449e-004	5.026300e-002	5.000000e+000
7.667756784465839e-004	5.397383e-002	5.000000e+000
7.677657750053137e-004	5.717519e-002	5.000000e+000
7.686980461322059e-004	5.958185e-002	5.000000e+000
7.695515827954744e-004	6.121601e-002	5.000000e+000
