Freq.	V(n006)
1.00000000000000e+003	(-3.13137230856744e+001dB,-2.30095618709155e+000°)
1.00230523807790e+003	(-3.13149183153592e+001dB,-2.30623906580140e+000°)
1.00461579027840e+003	(-3.13161193111634e+001dB,-2.31153397943093e+000°)
1.00693166885180e+003	(-3.13173259131006e+001dB,-2.31684093538706e+000°)
1.00925288607668e+003	(-3.13185382621430e+001dB,-2.32215997190404e+000°)
1.01157945425990e+003	(-3.13197563109196e+001dB,-2.32749110793678e+000°)
1.01391138573668e+003	(-3.13209802014812e+001dB,-2.33283438198905e+000°)
1.01624869287070e+003	(-3.13222098104962e+001dB,-2.33818980521203e+000°)
1.01859138805412e+003	(-3.13234452424017e+001dB,-2.34355741230635e+000°)
1.02093948370768e+003	(-3.13246864494475e+001dB,-2.34893722223949e+000°)
1.02329299228075e+003	(-3.13259336134180e+001dB,-2.35432927789606e+000°)
1.02565192625141e+003	(-3.13271866486014e+001dB,-2.35973359436730e+000°)
1.02801629812647e+003	(-3.13284456995335e+001dB,-2.36515021081093e+000°)
1.03038612044162e+003	(-3.13297105644229e+001dB,-2.37057913013903e+000°)
1.03276140576140e+003	(-3.13309815813716e+001dB,-2.37602041194644e+000°)
1.03514216667934e+003	(-3.13322584707663e+001dB,-2.38147405094695e+000°)
1.03752841581801e+003	(-3.13335414946781e+001dB,-2.38694009891570e+000°)
1.03992016582906e+003	(-3.13348305277308e+001dB,-2.39241856679354e+000°)
1.04231742939330e+003	(-3.13361256776603e+001dB,-2.39790949019180e+000°)
1.04472021922080e+003	(-3.13374269747674e+001dB,-2.40341289658335e+000°)
1.04712854805090e+003	(-3.13387344495110e+001dB,-2.40892881349517e+000°)
1.04954242865232e+003	(-3.13400481325087e+001dB,-2.41445726850843e+000°)
1.05196187382322e+003	(-3.13413680545380e+001dB,-2.41999828925883e+000°)
1.05438689639126e+003	(-3.13426941674932e+001dB,-2.42555189493223e+000°)
1.05681750921366e+003	(-3.13440266603780e+001dB,-2.43111813024143e+000°)
1.05925372517729e+003	(-3.13453653267719e+001dB,-2.43669699735328e+000°)
1.06169555719872e+003	(-3.13467103561852e+001dB,-2.44228854112817e+000°)
1.06414301822431e+003	(-3.13480617802050e+001dB,-2.44789278947296e+000°)
1.06659612123026e+003	(-3.13494197105485e+001dB,-2.45350977905359e+000°)
1.06905487922266e+003	(-3.13507840995405e+001dB,-2.45913952926308e+000°)
1.07151930523761e+003	(-3.13521548185949e+001dB,-2.46478205060023e+000°)
1.07398941234124e+003	(-3.13535320598939e+001dB,-2.47043738859938e+000°)
1.07646521362983e+003	(-3.13549158558586e+001dB,-2.47610557144035e+000°)
1.07894672222983e+003	(-3.13563062390804e+001dB,-2.48178662735775e+000°)
1.08143395129794e+003	(-3.13577032423212e+001dB,-2.48748058464105e+000°)
1.08392691402120e+003	(-3.13591068172421e+001dB,-2.49318746264121e+000°)
1.08642562361706e+003	(-3.13605170778454e+001dB,-2.49890729866713e+000°)
1.08893009333343e+003	(-3.13619339757599e+001dB,-2.50464011209476e+000°)
1.09144033644875e+003	(-3.13633577075511e+001dB,-2.51038594954625e+000°)
1.09395636627209e+003	(-3.13647881433574e+001dB,-2.51614482138709e+000°)
1.09647819614318e+003	(-3.13662253164143e+001dB,-2.52191675610798e+000°)
1.09900583943252e+003	(-3.13676694249546e+001dB,-2.52770180075101e+000°)
1.10153930954141e+003	(-3.13691204211103e+001dB,-2.53349997488236e+000°)
1.10407861990207e+003	(-3.13705781736343e+001dB,-2.53931128861493e+000°)
1.10662378397766e+003	(-3.13720429648556e+001dB,-2.54513579866408e+000°)
1.10917481526240e+003	(-3.13735145805163e+001dB,-2.55097350578546e+000°)
1.11173172728159e+003	(-3.13749933044604e+001dB,-2.55682446706598e+000°)
1.11429453359173e+003	(-3.13764790887700e+001dB,-2.56268870213071e+000°)
1.11686324778056e+003	(-3.13779718011790e+001dB,-2.56856622092723e+000°)
1.11943788346715e+003	(-3.13794717278231e+001dB,-2.57445708110491e+000°)
1.12201845430196e+003	(-3.13809787366126e+001dB,-2.58036129267654e+000°)
1.12460497396692e+003	(-3.13824929471193e+001dB,-2.58627889442321e+000°)
1.12719745617551e+003	(-3.13840143108045e+001dB,-2.59220990588927e+000°)
1.12979591467279e+003	(-3.13855429480077e+001dB,-2.59815436605593e+000°)
1.13240036323555e+003	(-3.13870787252436e+001dB,-2.60411228465905e+000°)
1.13501081567231e+003	(-3.13886220184265e+001dB,-2.61008373036395e+000°)
1.13762728582343e+003	(-3.13901725241939e+001dB,-2.61606869326958e+000°)
1.14024978756117e+003	(-3.13917304493729e+001dB,-2.62206722258807e+000°)
1.14287833478977e+003	(-3.13932957453943e+001dB,-2.62807933791899e+000°)
1.14551294144553e+003	(-3.13948685349380e+001dB,-2.63410507884975e+000°)
1.14815362149688e+003	(-3.13964488555538e+001dB,-2.64014447510378e+000°)
1.15080038894443e+003	(-3.13980366586666e+001dB,-2.64619754630591e+000°)
1.15345325782109e+003	(-3.13996320681490e+001dB,-2.65226433235030e+000°)
1.15611224219210e+003	(-3.14012350354250e+001dB,-2.65834485287743e+000°)
1.15877735615512e+003	(-3.14028455982427e+001dB,-2.66443913768917e+000°)
1.16144861384034e+003	(-3.14044637945511e+001dB,-2.67054721664204e+000°)
1.16412602941049e+003	(-3.14060898371644e+001dB,-2.67666914043568e+000°)
1.16680961706096e+003	(-3.14077236781204e+001dB,-2.68280492888480e+000°)
1.16949939101987e+003	(-3.14093650933789e+001dB,-2.68895458068126e+000°)
1.17219536554813e+003	(-3.14110144722521e+001dB,-2.69511816777164e+000°)
1.17489755493953e+003	(-3.14126717667939e+001dB,-2.70129570999138e+000°)
1.17760597352080e+003	(-3.14143367517522e+001dB,-2.70748720575438e+000°)
1.18032063565173e+003	(-3.14160099080700e+001dB,-2.71369273845279e+000°)
1.18304155572516e+003	(-3.14176910109182e+001dB,-2.71991230661115e+000°)
1.18576874816716e+003	(-3.14193801890846e+001dB,-2.72614595137080e+000°)
1.18850222743701e+003	(-3.14210772156987e+001dB,-2.73239367076503e+000°)
1.19124200802737e+003	(-3.14227824872935e+001dB,-2.73865553851764e+000°)
1.19398810446427e+003	(-3.14244956872187e+001dB,-2.74493154167644e+000°)
1.19674053130724e+003	(-3.14262173936937e+001dB,-2.75122177646926e+000°)
1.19949930314937e+003	(-3.14279472000872e+001dB,-2.75752621890811e+000°)
1.20226443461741e+003	(-3.14296851468942e+001dB,-2.76384489951761e+000°)
1.20503594037179e+003	(-3.14314315461036e+001dB,-2.77017788232493e+000°)
1.20781383510678e+003	(-3.14331862592677e+001dB,-2.77652517602750e+000°)
1.21059813355048e+003	(-3.14349493281754e+001dB,-2.78288681146895e+000°)
1.21338885046497e+003	(-3.14367207948403e+001dB,-2.78926281954757e+000°)
1.21618600064636e+003	(-3.14385008840406e+001dB,-2.79565325393696e+000°)
1.21898959892486e+003	(-3.14402893650722e+001dB,-2.80205811172267e+000°)
1.22179966016487e+003	(-3.14420863716905e+001dB,-2.80847743527458e+000°)
1.22461619926504e+003	(-3.14438920387300e+001dB,-2.81491126723052e+000°)
1.22743923115840e+003	(-3.14457063178703e+001dB,-2.82135962734870e+000°)
1.23026877081238e+003	(-3.14475292525047e+001dB,-2.82782254685541e+000°)
1.23310483322890e+003	(-3.14493608862612e+001dB,-2.83430005703131e+000°)
1.23594743344450e+003	(-3.14512013557684e+001dB,-2.84079220095049e+000°)
1.23879658653036e+003	(-3.14530506127932e+001dB,-2.84729899837350e+000°)
1.24165230759241e+003	(-3.14549086084793e+001dB,-2.85382046889515e+000°)
1.24451461177138e+003	(-3.14567756669983e+001dB,-2.86035667956272e+000°)
1.24738351424294e+003	(-3.14586515535811e+001dB,-2.86690762638055e+000°)
1.25025903021771e+003	(-3.14605365941871e+001dB,-2.87347337683969e+000°)
1.25314117494141e+003	(-3.14624304591665e+001dB,-2.88005391464537e+000°)
1.25602996369487e+003	(-3.14643334756221e+001dB,-2.88664930756543e+000°)
1.25892541179416e+003	(-3.14662455955085e+001dB,-2.89325957535292e+000°)
1.26182753459066e+003	(-3.14681669596029e+001dB,-2.89988476207675e+000°)
1.26473634747115e+003	(-3.14700974249779e+001dB,-2.90652487518364e+000°)
1.26765186585784e+003	(-3.14720373230252e+001dB,-2.91317998351295e+000°)
1.27057410520854e+003	(-3.14739864157175e+001dB,-2.91985008214552e+000°)
1.27350308101666e+003	(-3.14759448450635e+001dB,-2.92653521542430e+000°)
1.27643880881134e+003	(-3.14779125625508e+001dB,-2.93323540290928e+000°)
1.27938130415752e+003	(-3.14798899032535e+001dB,-2.93995071435362e+000°)
1.28233058265601e+003	(-3.14818766275119e+001dB,-2.94668114435495e+000°)
1.28528665994361e+003	(-3.14838731687641e+001dB,-2.95342677584180e+000°)
1.28824955169313e+003	(-3.14858789003009e+001dB,-2.96018755225527e+000°)
1.29121927361353e+003	(-3.14878943528118e+001dB,-2.96696356940248e+000°)
1.29419584144998e+003	(-3.14899195758625e+001dB,-2.97375485988014e+000°)
1.29717927098395e+003	(-3.14919546192889e+001dB,-2.98056145634031e+000°)
1.30016957803328e+003	(-3.14939992403064e+001dB,-2.98738335244731e+000°)
1.30316677845229e+003	(-3.14960537808262e+001dB,-2.99422061963882e+000°)
1.30617088813183e+003	(-3.14981181934147e+001dB,-3.00107327759244e+000°)
1.30918192299940e+003	(-3.15001925283168e+001dB,-3.00794135899221e+000°)
1.31219989901920e+003	(-3.15022766389663e+001dB,-3.01482487005401e+000°)
1.31522483219223e+003	(-3.15043711674195e+001dB,-3.02172392313239e+000°)
1.31825673855640e+003	(-3.15064754744914e+001dB,-3.02863845812036e+000°)
1.32129563418657e+003	(-3.15085901056329e+001dB,-3.03556857459306e+000°)
1.32434153519466e+003	(-3.15107148154757e+001dB,-3.04251426534180e+000°)
1.32739445772973e+003	(-3.15128497549458e+001dB,-3.04947557675410e+000°)
1.33045441797808e+003	(-3.15149949762524e+001dB,-3.05645254188424e+000°)
1.33352143216332e+003	(-3.15171504317317e+001dB,-3.06344518013517e+000°)
1.33659551654643e+003	(-3.15193163742579e+001dB,-3.07045355200930e+000°)
1.33967668742593e+003	(-3.15214927569804e+001dB,-3.07747767707870e+000°)
1.34276496113786e+003	(-3.15236795324072e+001dB,-3.08451757470898e+000°)
1.34586035405594e+003	(-3.15258768545956e+001dB,-3.09157329198367e+000°)
1.34896288259165e+003	(-3.15280849801700e+001dB,-3.09864489032874e+000°)
1.35207256319427e+003	(-3.15303035585312e+001dB,-3.10573234717786e+000°)
1.35518941235103e+003	(-3.15325328464313e+001dB,-3.11283572392949e+000°)
1.35831344658715e+003	(-3.15347728987307e+001dB,-3.11995505410643e+000°)
1.36144468246594e+003	(-3.15370238728738e+001dB,-3.12709038557879e+000°)
1.36458313658892e+003	(-3.15392856200092e+001dB,-3.13424172344871e+000°)
1.36772882559584e+003	(-3.15415581951998e+001dB,-3.14140910119137e+000°)
1.37088176616484e+003	(-3.15438417568115e+001dB,-3.14859256683043e+000°)
1.37404197501251e+003	(-3.15461364644782e+001dB,-3.15579216871176e+000°)
1.37720946889394e+003	(-3.15484420652013e+001dB,-3.16300789696437e+000°)
1.38038426460288e+003	(-3.15507590294350e+001dB,-3.17023984387479e+000°)
1.38356637897177e+003	(-3.15530872080517e+001dB,-3.17748801424194e+000°)
1.38675582887188e+003	(-3.15554264503116e+001dB,-3.18475241236175e+000°)
1.38995263121334e+003	(-3.15577770216343e+001dB,-3.19203310167566e+000°)
1.39315680294529e+003	(-3.15601389803260e+001dB,-3.19933011626602e+000°)
1.39636836105593e+003	(-3.15625124899510e+001dB,-3.20664350532005e+000°)
1.39958732257261e+003	(-3.15648972946706e+001dB,-3.21397325785652e+000°)
1.40281370456195e+003	(-3.15672935577264e+001dB,-3.22131942287823e+000°)
1.40604752412990e+003	(-3.15697016550046e+001dB,-3.22868208025740e+000°)
1.40928879842186e+003	(-3.15721213301900e+001dB,-3.23606121873438e+000°)
1.41253754462274e+003	(-3.15745526428314e+001dB,-3.24345687247372e+000°)
1.41579377995707e+003	(-3.15769958656304e+001dB,-3.25086910665867e+000°)
1.41905752168908e+003	(-3.15794508469812e+001dB,-3.25829792486898e+000°)
1.42232878712281e+003	(-3.15819177543518e+001dB,-3.26574337704484e+000°)
1.42560759360218e+003	(-3.15843965422376e+001dB,-3.27320548205610e+000°)
1.42889395851109e+003	(-3.15868872718863e+001dB,-3.28068427430506e+000°)
1.43218789927353e+003	(-3.15893901125462e+001dB,-3.28817980409494e+000°)
1.43548943335364e+003	(-3.15919052348176e+001dB,-3.29569212207452e+000°)
1.43879857825583e+003	(-3.15944325943437e+001dB,-3.30322124723225e+000°)
1.44211535152486e+003	(-3.15969720377065e+001dB,-3.31076718222376e+000°)
1.44543977074592e+003	(-3.15995238444777e+001dB,-3.31832999377015e+000°)
1.44877185354475e+003	(-3.16020879698576e+001dB,-3.32590970054844e+000°)
1.45211161758773e+003	(-3.16046646959069e+001dB,-3.33350636990401e+000°)
1.45545908058195e+003	(-3.16072537599543e+001dB,-3.34111998791191e+000°)
1.45881426027534e+003	(-3.16098556644050e+001dB,-3.34875065501365e+000°)
1.46217717445671e+003	(-3.16124700366223e+001dB,-3.35639834060521e+000°)
1.46554784095590e+003	(-3.16150971614073e+001dB,-3.36406311260128e+000°)
1.46892627764385e+003	(-3.16177369946315e+001dB,-3.37174498949181e+000°)
1.47231250243271e+003	(-3.16203896022208e+001dB,-3.37944400627422e+000°)
1.47570653327588e+003	(-3.16230551614436e+001dB,-3.38716021484632e+000°)
1.47910838816819e+003	(-3.16257336285289e+001dB,-3.39489363359528e+000°)
1.48251808514594e+003	(-3.16284254049953e+001dB,-3.40264434869872e+000°)
1.48593564228699e+003	(-3.16311300018966e+001dB,-3.41041231056809e+000°)
1.48936107771090e+003	(-3.16338478215224e+001dB,-3.41819760546893e+000°)
1.49279440957898e+003	(-3.16365788206057e+001dB,-3.42600025164331e+000°)
1.49623565609442e+003	(-3.16393231802863e+001dB,-3.43382030173247e+000°)
1.49968483550236e+003	(-3.16420810831477e+001dB,-3.44165780874757e+000°)
1.50314196609001e+003	(-3.16448521479409e+001dB,-3.44951273854785e+000°)
1.50660706618673e+003	(-3.16476368961657e+001dB,-3.45738519641664e+000°)
1.51008015416413e+003	(-3.16504351724353e+001dB,-3.46527518297813e+000°)
1.51356124843619e+003	(-3.16532469335019e+001dB,-3.47318271598768e+000°)
1.51705036745932e+003	(-3.16560725919271e+001dB,-3.48110788426018e+000°)
1.52054752973248e+003	(-3.16589121063418e+001dB,-3.48905070596837e+000°)
1.52405275379728e+003	(-3.16617652054258e+001dB,-3.49701116297375e+000°)
1.52756605823806e+003	(-3.16646325344095e+001dB,-3.50498938090410e+000°)
1.53108746168201e+003	(-3.16675135924322e+001dB,-3.51298530534343e+000°)
1.53461698279928e+003	(-3.16704089127864e+001dB,-3.52099904458760e+000°)
1.53815464030302e+003	(-3.16733182234136e+001dB,-3.52903057988748e+000°)
1.54170045294954e+003	(-3.16762418294244e+001dB,-3.53707998368753e+000°)
1.54525443953840e+003	(-3.16791799222539e+001dB,-3.54514731064033e+000°)
1.54881661891247e+003	(-3.16821321121632e+001dB,-3.55323252271993e+000°)
1.55238700995807e+003	(-3.16850988231762e+001dB,-3.56133571144619e+000°)
1.55596563160506e+003	(-3.16880797805147e+001dB,-3.56945685668967e+000°)
1.55955250282694e+003	(-3.16910757627825e+001dB,-3.57759610720918e+000°)
1.56314764264094e+003	(-3.16940863792765e+001dB,-3.58575342424982e+000°)
1.56675107010813e+003	(-3.16971114711694e+001dB,-3.59392880578135e+000°)
1.57036280433354e+003	(-3.17001517051582e+001dB,-3.60212238313442e+000°)
1.57398286446620e+003	(-3.17032065693147e+001dB,-3.61033409707966e+000°)
1.57761126969933e+003	(-3.17062763777916e+001dB,-3.61856402192801e+000°)
1.58124803927037e+003	(-3.17093613283980e+001dB,-3.62681221332932e+000°)
1.58489319246110e+003	(-3.17124612626385e+001dB,-3.63507866878834e+000°)
1.58854674859776e+003	(-3.17155766181100e+001dB,-3.64336348314689e+000°)
1.59220872705115e+003	(-3.17187071171210e+001dB,-3.65166663418509e+000°)
1.59587914723672e+003	(-3.17218530797503e+001dB,-3.65998819757340e+000°)
1.59955802861465e+003	(-3.17250143471436e+001dB,-3.66832817020783e+000°)
1.60324539069002e+003	(-3.17281913621430e+001dB,-3.67668664817968e+000°)
1.60694125301286e+003	(-3.17313838455953e+001dB,-3.68506360827828e+000°)
1.61064563517825e+003	(-3.17345920004787e+001dB,-3.69345910687909e+000°)
1.61435855682647e+003	(-3.17378159098446e+001dB,-3.70187318049889e+000°)
1.61808003764305e+003	(-3.17410556572328e+001dB,-3.71030586568433e+000°)
1.62181009735891e+003	(-3.17443113266754e+001dB,-3.71875719901118e+000°)
1.62554875575047e+003	(-3.17475830026995e+001dB,-3.72722721708428e+000°)
1.62929603263970e+003	(-3.17508707703310e+001dB,-3.73571595653652e+000°)
1.63305194789432e+003	(-3.17541749610424e+001dB,-3.74422349553977e+000°)
1.63681652142779e+003	(-3.17574952928141e+001dB,-3.75274980881162e+000°)
1.64058977319952e+003	(-3.17608318513272e+001dB,-3.76129493277254e+000°)
1.64437172321491e+003	(-3.17641848466089e+001dB,-3.76985892491929e+000°)
1.64816239152549e+003	(-3.17675544903581e+001dB,-3.77844184317214e+000°)
1.65196179822900e+003	(-3.17709406227003e+001dB,-3.78704368211760e+000°)
1.65576996346951e+003	(-3.17743434560873e+001dB,-3.79566449962592e+000°)
1.65958690743754e+003	(-3.17777633296631e+001dB,-3.80430437545078e+000°)
1.66341265037015e+003	(-3.17811998336766e+001dB,-3.81296326083565e+000°)
1.66724721255104e+003	(-3.17846533077525e+001dB,-3.82164123537792e+000°)
1.67109061431069e+003	(-3.17881238426332e+001dB,-3.83033833598777e+000°)
1.67494287602642e+003	(-3.17916114034258e+001dB,-3.83905457772963e+000°)
1.67880401812254e+003	(-3.17951164604909e+001dB,-3.84779006315989e+000°)
1.68267406107045e+003	(-3.17986387276756e+001dB,-3.85654476364950e+000°)
1.68655302538872e+003	(-3.18021785511541e+001dB,-3.86531876024194e+000°)
1.69044093164324e+003	(-3.18057357705800e+001dB,-3.87411204569305e+000°)
1.69433780044731e+003	(-3.18093104791086e+001dB,-3.88292465671816e+000°)
1.69824365246172e+003	(-3.18129030263781e+001dB,-3.89175667504812e+000°)
1.70215850839493e+003	(-3.18165133802062e+001dB,-3.90060811546374e+000°)
1.70608238900310e+003	(-3.18201413792229e+001dB,-3.90947896961945e+000°)
1.71001531509027e+003	(-3.18237872468137e+001dB,-3.91836929679045e+000°)
1.71395730750840e+003	(-3.18274517248059e+001dB,-3.92727924842419e+000°)
1.71790838715757e+003	(-3.18311341375127e+001dB,-3.93620872471065e+000°)
1.72186857498598e+003	(-3.18348345811994e+001dB,-3.94515776213762e+000°)
1.72583789199018e+003	(-3.18385536730196e+001dB,-3.95412649024734e+000°)
1.72981635921508e+003	(-3.18422909925462e+001dB,-3.96311485338105e+000°)
1.73380399775412e+003	(-3.18460468991920e+001dB,-3.97212293502061e+000°)
1.73780082874935e+003	(-3.18498216244249e+001dB,-3.98115079595215e+000°)
1.74180687339159e+003	(-3.18536148763488e+001dB,-3.99019840258719e+000°)
1.74582215292048e+003	(-3.18574272812512e+001dB,-3.99926588674672e+000°)
1.74984668862463e+003	(-3.18612582837124e+001dB,-4.00835316665165e+000°)
1.75388050184174e+003	(-3.18651086450241e+001dB,-4.01746039875257e+000°)
1.75792361395867e+003	(-3.18689779404620e+001dB,-4.02658752431003e+000°)
1.76197604641161e+003	(-3.18728666709043e+001dB,-4.03573465271349e+000°)
1.76603782068614e+003	(-3.18767745426379e+001dB,-4.04490174836547e+000°)
1.77010895831740e+003	(-3.18807020596800e+001dB,-4.05408892135492e+000°)
1.77418948089014e+003	(-3.18846491953007e+001dB,-4.06329618465363e+000°)
1.77827941003890e+003	(-3.18886156539692e+001dB,-4.07252350127439e+000°)
1.78237876744807e+003	(-3.18926023467633e+001dB,-4.08177105660511e+000°)
1.78648757485203e+003	(-3.18966088456790e+001dB,-4.09103878903079e+000°)
1.79060585403527e+003	(-3.19006351234685e+001dB,-4.10032671034785e+000°)
1.79473362683250e+003	(-3.19046814230076e+001dB,-4.10963488231779e+000°)
1.79887091512876e+003	(-3.19087479891087e+001dB,-4.11896336717617e+000°)
1.80301774085954e+003	(-3.19128349325328e+001dB,-4.12831220217090e+000°)
1.80717412601090e+003	(-3.19169423647252e+001dB,-4.13768142454729e+000°)
1.81134009261958e+003	(-3.19210703978199e+001dB,-4.14707107154587e+000°)
1.81551566277311e+003	(-3.19252191446452e+001dB,-4.15648118040263e+000°)
1.81970085860996e+003	(-3.19293883068808e+001dB,-4.16591171047504e+000°)
1.82389570231961e+003	(-3.19335782710656e+001dB,-4.17536275003015e+000°)
1.82810021614272e+003	(-3.19377895649485e+001dB,-4.18483441452017e+000°)
1.83231442237119e+003	(-3.19420218913630e+001dB,-4.19432666290023e+000°)
1.83653834334832e+003	(-3.19462755042823e+001dB,-4.20383955844044e+000°)
1.84077200146893e+003	(-3.19505502429939e+001dB,-4.21337308514876e+000°)
1.84501541917945e+003	(-3.19548462233626e+001dB,-4.22292727942578e+000°)
1.84926861897805e+003	(-3.19591642597650e+001dB,-4.23250231185104e+000°)
1.85353162341478e+003	(-3.19635036351352e+001dB,-4.24209805889917e+000°)
1.85780445509167e+003	(-3.19678648872011e+001dB,-4.25171463781926e+000°)
1.86208713666284e+003	(-3.19722479962101e+001dB,-4.26135205847924e+000°)
1.86637969083464e+003	(-3.19766530827199e+001dB,-4.27101035756528e+000°)
1.87068214036577e+003	(-3.19810804092527e+001dB,-4.28068959922965e+000°)
