Freq.	V(n006)
1.00000000000000e+003	(-2.20888270170443e+001dB,-1.73933081887021e+000°)
1.00230523807790e+003	(-2.20898591548144e+001dB,-1.74331490551653e+000°)
1.00461579027840e+003	(-2.20908961827021e+001dB,-1.74730799261785e+000°)
1.00693166885180e+003	(-2.20919381244755e+001dB,-1.75131009956279e+000°)
1.00925288607668e+003	(-2.20929850040239e+001dB,-1.75532124577406e+000°)
1.01157945425990e+003	(-2.20940368453585e+001dB,-1.75934145070871e+000°)
1.01391138573668e+003	(-2.20950936726129e+001dB,-1.76337073385790e+000°)
1.01624869287070e+003	(-2.20961555100444e+001dB,-1.76740911474716e+000°)
1.01859138805412e+003	(-2.20972223820338e+001dB,-1.77145661293604e+000°)
1.02093948370768e+003	(-2.20982943130865e+001dB,-1.77551324801843e+000°)
1.02329299228075e+003	(-2.20993713278336e+001dB,-1.77957903962239e+000°)
1.02565192625141e+003	(-2.21004534510317e+001dB,-1.78365400741009e+000°)
1.02801629812647e+003	(-2.21015407075646e+001dB,-1.78773817107785e+000°)
1.03038612044162e+003	(-2.21026331224433e+001dB,-1.79183155035629e+000°)
1.03276140576140e+003	(-2.21037307208068e+001dB,-1.79593416501003e+000°)
1.03514216667934e+003	(-2.21048335279232e+001dB,-1.80004603483781e+000°)
1.03752841581801e+003	(-2.21059415691900e+001dB,-1.80416717967257e+000°)
1.03992016582906e+003	(-2.21070548701351e+001dB,-1.80829761938128e+000°)
1.04231742939330e+003	(-2.21081734564173e+001dB,-1.81243737386497e+000°)
1.04472021922080e+003	(-2.21092973538273e+001dB,-1.81658646305881e+000°)
1.04712854805090e+003	(-2.21104265882882e+001dB,-1.82074490693193e+000°)
1.04954242865232e+003	(-2.21115611858563e+001dB,-1.82491272548747e+000°)
1.05196187382322e+003	(-2.21127011727221e+001dB,-1.82908993876267e+000°)
1.05438689639126e+003	(-2.21138465752106e+001dB,-1.83327656682863e+000°)
1.05681750921366e+003	(-2.21149974197825e+001dB,-1.83747262979046e+000°)
1.05925372517729e+003	(-2.21161537330345e+001dB,-1.84167814778718e+000°)
1.06169555719872e+003	(-2.21173155417007e+001dB,-1.84589314099176e+000°)
1.06414301822431e+003	(-2.21184828726527e+001dB,-1.85011762961096e+000°)
1.06659612123026e+003	(-2.21196557529008e+001dB,-1.85435163388556e+000°)
1.06905487922266e+003	(-2.21208342095948e+001dB,-1.85859517409001e+000°)
1.07151930523761e+003	(-2.21220182700243e+001dB,-1.86284827053255e+000°)
1.07398941234124e+003	(-2.21232079616203e+001dB,-1.86711094355537e+000°)
1.07646521362983e+003	(-2.21244033119552e+001dB,-1.87138321353420e+000°)
1.07894672222983e+003	(-2.21256043487442e+001dB,-1.87566510087859e+000°)
1.08143395129794e+003	(-2.21268110998455e+001dB,-1.87995662603172e+000°)
1.08392691402120e+003	(-2.21280235932620e+001dB,-1.88425780947044e+000°)
1.08642562361706e+003	(-2.21292418571411e+001dB,-1.88856867170522e+000°)
1.08893009333343e+003	(-2.21304659197763e+001dB,-1.89288923328000e+000°)
1.09144033644875e+003	(-2.21316958096077e+001dB,-1.89721951477238e+000°)
1.09395636627209e+003	(-2.21329315552229e+001dB,-1.90155953679341e+000°)
1.09647819614318e+003	(-2.21341731853577e+001dB,-1.90590931998755e+000°)
1.09900583943252e+003	(-2.21354207288973e+001dB,-1.91026888503274e+000°)
1.10153930954141e+003	(-2.21366742148767e+001dB,-1.91463825264032e+000°)
1.10407861990207e+003	(-2.21379336724819e+001dB,-1.91901744355487e+000°)
1.10662378397766e+003	(-2.21391991310507e+001dB,-1.92340647855429e+000°)
1.10917481526240e+003	(-2.21404706200734e+001dB,-1.92780537844979e+000°)
1.11173172728159e+003	(-2.21417481691938e+001dB,-1.93221416408568e+000°)
1.11429453359173e+003	(-2.21430318082102e+001dB,-1.93663285633951e+000°)
1.11686324778056e+003	(-2.21443215670759e+001dB,-1.94106147612181e+000°)
1.11943788346715e+003	(-2.21456174759008e+001dB,-1.94550004437635e+000°)
1.12201845430196e+003	(-2.21469195649514e+001dB,-1.94994858207972e+000°)
1.12460497396692e+003	(-2.21482278646524e+001dB,-1.95440711024154e+000°)
1.12719745617551e+003	(-2.21495424055874e+001dB,-1.95887564990437e+000°)
1.12979591467279e+003	(-2.21508632184995e+001dB,-1.96335422214342e+000°)
1.13240036323555e+003	(-2.21521903342927e+001dB,-1.96784284806691e+000°)
1.13501081567231e+003	(-2.21535237840327e+001dB,-1.97234154881565e+000°)
1.13762728582343e+003	(-2.21548635989478e+001dB,-1.97685034556320e+000°)
1.14024978756117e+003	(-2.21562098104295e+001dB,-1.98136925951558e+000°)
1.14287833478977e+003	(-2.21575624500341e+001dB,-1.98589831191158e+000°)
1.14551294144553e+003	(-2.21589215494831e+001dB,-1.99043752402221e+000°)
1.14815362149688e+003	(-2.21602871406644e+001dB,-1.99498691715107e+000°)
1.15080038894443e+003	(-2.21616592556335e+001dB,-1.99954651263408e+000°)
1.15345325782109e+003	(-2.21630379266137e+001dB,-2.00411633183936e+000°)
1.15611224219210e+003	(-2.21644231859981e+001dB,-2.00869639616739e+000°)
1.15877735615512e+003	(-2.21658150663498e+001dB,-2.01328672705063e+000°)
1.16144861384034e+003	(-2.21672136004033e+001dB,-2.01788734595368e+000°)
1.16412602941049e+003	(-2.21686188210652e+001dB,-2.02249827437317e+000°)
1.16680961706096e+003	(-2.21700307614155e+001dB,-2.02711953383760e+000°)
1.16949939101987e+003	(-2.21714494547085e+001dB,-2.03175114590727e+000°)
1.17219536554813e+003	(-2.21728749343738e+001dB,-2.03639313217436e+000°)
1.17489755493953e+003	(-2.21743072340174e+001dB,-2.04104551426266e+000°)
1.17760597352080e+003	(-2.21757463874224e+001dB,-2.04570831382751e+000°)
1.18032063565173e+003	(-2.21771924285507e+001dB,-2.05038155255590e+000°)
1.18304155572516e+003	(-2.21786453915434e+001dB,-2.05506525216611e+000°)
1.18576874816716e+003	(-2.21801053107222e+001dB,-2.05975943440796e+000°)
1.18850222743701e+003	(-2.21815722205904e+001dB,-2.06446412106231e+000°)
1.19124200802737e+003	(-2.21830461558339e+001dB,-2.06917933394129e+000°)
1.19398810446427e+003	(-2.21845271513224e+001dB,-2.07390509488814e+000°)
1.19674053130724e+003	(-2.21860152421104e+001dB,-2.07864142577703e+000°)
1.19949930314937e+003	(-2.21875104634381e+001dB,-2.08338834851304e+000°)
1.20226443461741e+003	(-2.21890128507331e+001dB,-2.08814588503202e+000°)
1.20503594037179e+003	(-2.21905224396108e+001dB,-2.09291405730049e+000°)
1.20781383510678e+003	(-2.21920392658759e+001dB,-2.09769288731569e+000°)
1.21059813355048e+003	(-2.21935633655235e+001dB,-2.10248239710519e+000°)
1.21338885046497e+003	(-2.21950947747402e+001dB,-2.10728260872699e+000°)
1.21618600064636e+003	(-2.21966335299051e+001dB,-2.11209354426940e+000°)
1.21898959892486e+003	(-2.21981796675913e+001dB,-2.11691522585092e+000°)
1.22179966016487e+003	(-2.21997332245666e+001dB,-2.12174767562006e+000°)
1.22461619926504e+003	(-2.22012942377948e+001dB,-2.12659091575522e+000°)
1.22743923115840e+003	(-2.22028627444373e+001dB,-2.13144496846479e+000°)
1.23026877081238e+003	(-2.22044387818537e+001dB,-2.13630985598669e+000°)
1.23310483322890e+003	(-2.22060223876033e+001dB,-2.14118560058865e+000°)
1.23594743344450e+003	(-2.22076135994461e+001dB,-2.14607222456763e+000°)
1.23879658653036e+003	(-2.22092124553443e+001dB,-2.15096975025021e+000°)
1.24165230759241e+003	(-2.22108189934631e+001dB,-2.15587819999190e+000°)
1.24451461177138e+003	(-2.22124332521723e+001dB,-2.16079759617757e+000°)
1.24738351424294e+003	(-2.22140552700476e+001dB,-2.16572796122100e+000°)
1.25025903021771e+003	(-2.22156850858710e+001dB,-2.17066931756467e+000°)
1.25314117494141e+003	(-2.22173227386334e+001dB,-2.17562168768002e+000°)
1.25602996369487e+003	(-2.22189682675345e+001dB,-2.18058509406679e+000°)
1.25892541179416e+003	(-2.22206217119852e+001dB,-2.18555955925334e+000°)
1.26182753459066e+003	(-2.22222831116080e+001dB,-2.19054510579631e+000°)
1.26473634747115e+003	(-2.22239525062387e+001dB,-2.19554175628042e+000°)
1.26765186585784e+003	(-2.22256299359278e+001dB,-2.20054953331846e+000°)
1.27057410520854e+003	(-2.22273154409414e+001dB,-2.20556845955105e+000°)
1.27350308101666e+003	(-2.22290090617630e+001dB,-2.21059855764650e+000°)
1.27643880881134e+003	(-2.22307108390945e+001dB,-2.21563985030077e+000°)
1.27938130415752e+003	(-2.22324208138573e+001dB,-2.22069236023713e+000°)
1.28233058265601e+003	(-2.22341390271943e+001dB,-2.22575611020616e+000°)
1.28528665994361e+003	(-2.22358655204708e+001dB,-2.23083112298550e+000°)
1.28824955169313e+003	(-2.22376003352757e+001dB,-2.23591742137969e+000°)
1.29121927361353e+003	(-2.22393435134234e+001dB,-2.24101502822011e+000°)
1.29419584144998e+003	(-2.22410950969546e+001dB,-2.24612396636466e+000°)
1.29717927098395e+003	(-2.22428551281384e+001dB,-2.25124425869774e+000°)
1.30016957803328e+003	(-2.22446236494728e+001dB,-2.25637592812991e+000°)
1.30316677845229e+003	(-2.22464007036867e+001dB,-2.26151899759790e+000°)
1.30617088813183e+003	(-2.22481863337414e+001dB,-2.26667349006430e+000°)
1.30918192299940e+003	(-2.22499805828316e+001dB,-2.27183942851740e+000°)
1.31219989901920e+003	(-2.22517834943872e+001dB,-2.27701683597108e+000°)
1.31522483219223e+003	(-2.22535951120744e+001dB,-2.28220573546452e+000°)
1.31825673855640e+003	(-2.22554154797975e+001dB,-2.28740615006204e+000°)
1.32129563418657e+003	(-2.22572446417004e+001dB,-2.29261810285308e+000°)
1.32434153519466e+003	(-2.22590826421675e+001dB,-2.29784161695162e+000°)
1.32739445772973e+003	(-2.22609295258260e+001dB,-2.30307671549649e+000°)
1.33045441797808e+003	(-2.22627853375468e+001dB,-2.30832342165061e+000°)
1.33352143216332e+003	(-2.22646501224463e+001dB,-2.31358175860123e+000°)
1.33659551654643e+003	(-2.22665239258877e+001dB,-2.31885174955965e+000°)
1.33967668742593e+003	(-2.22684067934830e+001dB,-2.32413341776074e+000°)
1.34276496113786e+003	(-2.22702987710939e+001dB,-2.32942678646300e+000°)
1.34586035405594e+003	(-2.22721999048337e+001dB,-2.33473187894824e+000°)
1.34896288259165e+003	(-2.22741102410692e+001dB,-2.34004871852147e+000°)
1.35207256319427e+003	(-2.22760298264215e+001dB,-2.34537732851041e+000°)
1.35518941235103e+003	(-2.22779587077684e+001dB,-2.35071773226558e+000°)
1.35831344658715e+003	(-2.22798969322453e+001dB,-2.35606995315985e+000°)
1.36144468246594e+003	(-2.22818445472475e+001dB,-2.36143401458839e+000°)
1.36458313658892e+003	(-2.22838016004311e+001dB,-2.36680993996816e+000°)
1.36772882559584e+003	(-2.22857681397154e+001dB,-2.37219775273794e+000°)
1.37088176616484e+003	(-2.22877442132839e+001dB,-2.37759747635803e+000°)
1.37404197501251e+003	(-2.22897298695865e+001dB,-2.38300913430993e+000°)
1.37720946889394e+003	(-2.22917251573405e+001dB,-2.38843275009604e+000°)
1.38038426460288e+003	(-2.22937301255332e+001dB,-2.39386834723953e+000°)
1.38356637897177e+003	(-2.22957448234228e+001dB,-2.39931594928416e+000°)
1.38675582887188e+003	(-2.22977693005406e+001dB,-2.40477557979373e+000°)
1.38995263121334e+003	(-2.22998036066924e+001dB,-2.41024726235205e+000°)
1.39315680294529e+003	(-2.23018477919605e+001dB,-2.41573102056264e+000°)
1.39636836105593e+003	(-2.23039019067054e+001dB,-2.42122687804839e+000°)
1.39958732257261e+003	(-2.23059660015674e+001dB,-2.42673485845123e+000°)
1.40281370456195e+003	(-2.23080401274687e+001dB,-2.43225498543209e+000°)
1.40604752412990e+003	(-2.23101243356149e+001dB,-2.43778728267044e+000°)
1.40928879842186e+003	(-2.23122186774968e+001dB,-2.44333177386388e+000°)
1.41253754462274e+003	(-2.23143232048925e+001dB,-2.44888848272814e+000°)
1.41579377995707e+003	(-2.23164379698690e+001dB,-2.45445743299651e+000°)
1.41905752168908e+003	(-2.23185630247842e+001dB,-2.46003864841983e+000°)
1.42232878712281e+003	(-2.23206984222887e+001dB,-2.46563215276586e+000°)
1.42560759360218e+003	(-2.23228442153275e+001dB,-2.47123796981926e+000°)
1.42889395851109e+003	(-2.23250004571423e+001dB,-2.47685612338099e+000°)
1.43218789927353e+003	(-2.23271672012730e+001dB,-2.48248663726831e+000°)
1.43548943335364e+003	(-2.23293445015598e+001dB,-2.48812953531423e+000°)
1.43879857825583e+003	(-2.23315324121454e+001dB,-2.49378484136716e+000°)
1.44211535152486e+003	(-2.23337309874763e+001dB,-2.49945257929087e+000°)
1.44543977074592e+003	(-2.23359402823055e+001dB,-2.50513277296380e+000°)
1.44877185354475e+003	(-2.23381603516940e+001dB,-2.51082544627895e+000°)
1.45211161758773e+003	(-2.23403912510127e+001dB,-2.51653062314331e+000°)
1.45545908058195e+003	(-2.23426330359453e+001dB,-2.52224832747793e+000°)
1.45881426027534e+003	(-2.23448857624889e+001dB,-2.52797858321702e+000°)
1.46217717445671e+003	(-2.23471494869574e+001dB,-2.53372141430806e+000°)
1.46554784095590e+003	(-2.23494242659829e+001dB,-2.53947684471110e+000°)
1.46892627764385e+003	(-2.23517101565176e+001dB,-2.54524489839864e+000°)
1.47231250243271e+003	(-2.23540072158365e+001dB,-2.55102559935512e+000°)
1.47570653327588e+003	(-2.23563155015389e+001dB,-2.55681897157646e+000°)
1.47910838816819e+003	(-2.23586350715510e+001dB,-2.56262503907000e+000°)
1.48251808514594e+003	(-2.23609659841279e+001dB,-2.56844382585368e+000°)
1.48593564228699e+003	(-2.23633082978555e+001dB,-2.57427535595597e+000°)
1.48936107771090e+003	(-2.23656620716529e+001dB,-2.58011965341531e+000°)
1.49279440957898e+003	(-2.23680273647749e+001dB,-2.58597674227980e+000°)
1.49623565609442e+003	(-2.23704042368136e+001dB,-2.59184664660673e+000°)
1.49968483550236e+003	(-2.23727927477009e+001dB,-2.59772939046213e+000°)
1.50314196609001e+003	(-2.23751929577110e+001dB,-2.60362499792044e+000°)
1.50660706618673e+003	(-2.23776049274623e+001dB,-2.60953349306397e+000°)
1.51008015416413e+003	(-2.23800287179198e+001dB,-2.61545489998259e+000°)
1.51356124843619e+003	(-2.23824643903976e+001dB,-2.62138924277321e+000°)
1.51705036745932e+003	(-2.23849120065609e+001dB,-2.62733654553942e+000°)
1.52054752973248e+003	(-2.23873716284285e+001dB,-2.63329683239078e+000°)
1.52405275379728e+003	(-2.23898433183751e+001dB,-2.63927012744273e+000°)
1.52756605823806e+003	(-2.23923271391340e+001dB,-2.64525645481592e+000°)
1.53108746168201e+003	(-2.23948231537989e+001dB,-2.65125583863572e+000°)
1.53461698279928e+003	(-2.23973314258268e+001dB,-2.65726830303183e+000°)
1.53815464030302e+003	(-2.23998520190403e+001dB,-2.66329387213775e+000°)
1.54170045294954e+003	(-2.24023849976299e+001dB,-2.66933257009031e+000°)
1.54525443953840e+003	(-2.24049304261566e+001dB,-2.67538442102914e+000°)
1.54881661891247e+003	(-2.24074883695546e+001dB,-2.68144944909625e+000°)
1.55238700995807e+003	(-2.24100588931334e+001dB,-2.68752767843532e+000°)
1.55596563160506e+003	(-2.24126420625807e+001dB,-2.69361913319157e+000°)
1.55955250282694e+003	(-2.24152379439647e+001dB,-2.69972383751073e+000°)
1.56314764264094e+003	(-2.24178466037368e+001dB,-2.70584181553906e+000°)
1.56675107010813e+003	(-2.24204681087342e+001dB,-2.71197309142222e+000°)
1.57036280433354e+003	(-2.24231025261826e+001dB,-2.71811768930530e+000°)
1.57398286446620e+003	(-2.24257499236985e+001dB,-2.72427563333187e+000°)
1.57761126969933e+003	(-2.24284103692924e+001dB,-2.73044694764359e+000°)
1.58124803927037e+003	(-2.24310839313710e+001dB,-2.73663165637965e+000°)
1.58489319246110e+003	(-2.24337706787400e+001dB,-2.74282978367606e+000°)
1.58854674859776e+003	(-2.24364706806072e+001dB,-2.74904135366523e+000°)
1.59220872705115e+003	(-2.24391840065849e+001dB,-2.75526639047542e+000°)
1.59587914723672e+003	(-2.24419107266926e+001dB,-2.76150491822986e+000°)
1.59955802861465e+003	(-2.24446509113601e+001dB,-2.76775696104647e+000°)
1.60324539069002e+003	(-2.24474046314301e+001dB,-2.77402254303705e+000°)
1.60694125301286e+003	(-2.24501719581612e+001dB,-2.78030168830674e+000°)
1.61064563517825e+003	(-2.24529529632306e+001dB,-2.78659442095334e+000°)
1.61435855682647e+003	(-2.24557477187370e+001dB,-2.79290076506680e+000°)
1.61808003764305e+003	(-2.24585562972039e+001dB,-2.79922074472838e+000°)
1.62181009735891e+003	(-2.24613787715820e+001dB,-2.80555438401016e+000°)
1.62554875575047e+003	(-2.24642152152524e+001dB,-2.81190170697426e+000°)
1.62929603263970e+003	(-2.24670657020298e+001dB,-2.81826273767227e+000°)
1.63305194789432e+003	(-2.24699303061649e+001dB,-2.82463750014457e+000°)
1.63681652142779e+003	(-2.24728091023485e+001dB,-2.83102601841959e+000°)
1.64058977319952e+003	(-2.24757021657131e+001dB,-2.83742831651300e+000°)
1.64437172321491e+003	(-2.24786095718377e+001dB,-2.84384441842732e+000°)
1.64816239152549e+003	(-2.24815313967493e+001dB,-2.85027434815082e+000°)
1.65196179822900e+003	(-2.24844677169272e+001dB,-2.85671812965713e+000°)
1.65576996346951e+003	(-2.24874186093057e+001dB,-2.86317578690443e+000°)
1.65958690743754e+003	(-2.24903841512771e+001dB,-2.86964734383436e+000°)
1.66341265037015e+003	(-2.24933644206957e+001dB,-2.87613282437187e+000°)
1.66724721255104e+003	(-2.24963594958800e+001dB,-2.88263225242392e+000°)
1.67109061431069e+003	(-2.24993694556168e+001dB,-2.88914565187905e+000°)
1.67494287602642e+003	(-2.25023943791643e+001dB,-2.89567304660636e+000°)
1.67880401812254e+003	(-2.25054343462552e+001dB,-2.90221446045490e+000°)
1.68267406107045e+003	(-2.25084894371003e+001dB,-2.90876991725286e+000°)
1.68655302538872e+003	(-2.25115597323919e+001dB,-2.91533944080646e+000°)
1.69044093164324e+003	(-2.25146453133073e+001dB,-2.92192305489961e+000°)
1.69433780044731e+003	(-2.25177462615118e+001dB,-2.92852078329261e+000°)
1.69824365246172e+003	(-2.25208626591628e+001dB,-2.93513264972168e+000°)
1.70215850839493e+003	(-2.25239945889129e+001dB,-2.94175867789786e+000°)
1.70608238900310e+003	(-2.25271421339137e+001dB,-2.94839889150617e+000°)
1.71001531509027e+003	(-2.25303053778192e+001dB,-2.95505331420486e+000°)
1.71395730750840e+003	(-2.25334844047896e+001dB,-2.96172196962434e+000°)
1.71790838715757e+003	(-2.25366792994945e+001dB,-2.96840488136646e+000°)
1.72186857498598e+003	(-2.25398901471173e+001dB,-2.97510207300338e+000°)
1.72583789199018e+003	(-2.25431170333583e+001dB,-2.98181356807694e+000°)
1.72981635921508e+003	(-2.25463600444387e+001dB,-2.98853939009742e+000°)
1.73380399775412e+003	(-2.25496192671043e+001dB,-2.99527956254272e+000°)
1.73780082874935e+003	(-2.25528947886293e+001dB,-3.00203410885749e+000°)
1.74180687339159e+003	(-2.25561866968203e+001dB,-3.00880305245190e+000°)
1.74582215292048e+003	(-2.25594950800199e+001dB,-3.01558641670089e+000°)
1.74984668862463e+003	(-2.25628200271108e+001dB,-3.02238422494310e+000°)
1.75388050184174e+003	(-2.25661616275199e+001dB,-3.02919650047982e+000°)
1.75792361395867e+003	(-2.25695199712217e+001dB,-3.03602326657401e+000°)
1.76197604641161e+003	(-2.25728951487430e+001dB,-3.04286454644913e+000°)
1.76603782068614e+003	(-2.25762872511665e+001dB,-3.04972036328834e+000°)
1.77010895831740e+003	(-2.25796963701352e+001dB,-3.05659074023300e+000°)
1.77418948089014e+003	(-2.25831225978561e+001dB,-3.06347570038212e+000°)
1.77827941003890e+003	(-2.25865660271049e+001dB,-3.07037526679098e+000°)
1.78237876744807e+003	(-2.25900267512297e+001dB,-3.07728946246986e+000°)
1.78648757485203e+003	(-2.25935048641556e+001dB,-3.08421831038319e+000°)
1.79060585403527e+003	(-2.25970004603889e+001dB,-3.09116183344837e+000°)
1.79473362683250e+003	(-2.26005136350210e+001dB,-3.09812005453442e+000°)
1.79887091512876e+003	(-2.26040444837336e+001dB,-3.10509299646111e+000°)
1.80301774085954e+003	(-2.26075931028023e+001dB,-3.11208068199737e+000°)
1.80717412601090e+003	(-2.26111595891013e+001dB,-3.11908313386058e+000°)
1.81134009261958e+003	(-2.26147440401081e+001dB,-3.12610037471492e+000°)
1.81551566277311e+003	(-2.26183465539078e+001dB,-3.13313242717035e+000°)
1.81970085860996e+003	(-2.26219672291974e+001dB,-3.14017931378128e+000°)
1.82389570231961e+003	(-2.26256061652911e+001dB,-3.14724105704539e+000°)
1.82810021614272e+003	(-2.26292634621243e+001dB,-3.15431767940240e+000°)
1.83231442237119e+003	(-2.26329392202584e+001dB,-3.16140920323231e+000°)
1.83653834334832e+003	(-2.26366335408859e+001dB,-3.16851565085483e+000°)
1.84077200146893e+003	(-2.26403465258348e+001dB,-3.17563704452750e+000°)
1.84501541917945e+003	(-2.26440782775736e+001dB,-3.18277340644443e+000°)
1.84926861897805e+003	(-2.26478288992158e+001dB,-3.18992475873499e+000°)
1.85353162341478e+003	(-2.26515984945254e+001dB,-3.19709112346253e+000°)
1.85780445509167e+003	(-2.26553871679216e+001dB,-3.20427252262283e+000°)
1.86208713666284e+003	(-2.26591950244835e+001dB,-3.21146897814256e+000°)
1.86637969083464e+003	(-2.26630221699556e+001dB,-3.21868051187817e+000°)
1.87068214036577e+003	(-2.26668687107525e+001dB,-3.22590714561411e+000°)
