Freq.	V(n005)
1.00000000000000e+003	(3.17529024759530e-001dB,-5.61625384359391e-001°)
1.00230523807790e+003	(3.17365932844947e-001dB,-5.62924176460162e-001°)
1.00461579027840e+003	(3.17201964928641e-001dB,-5.64226003025675e-001°)
1.00693166885180e+003	(3.17037304764949e-001dB,-5.65530852074323e-001°)
1.00925288607668e+003	(3.16871835271038e-001dB,-5.66838742417516e-001°)
1.01157945425990e+003	(3.16705627829200e-001dB,-5.68149673553214e-001°)
1.01391138573668e+003	(3.16538564522175e-001dB,-5.69463664493932e-001°)
1.01624869287070e+003	(3.16370792938865e-001dB,-5.70780706865448e-001°)
1.01859138805412e+003	(3.16202233022794e-001dB,-5.72100815808707e-001°)
1.02093948370768e+003	(3.16032957029991e-001dB,-5.73423990697361e-001°)
1.02329299228075e+003	(3.15862807806636e-001dB,-5.74750254788037e-001°)
1.02565192625141e+003	(3.15691895821587e-001dB,-5.76079603509702e-001°)
1.02801629812647e+003	(3.15520101422523e-001dB,-5.77412056323747e-001°)
1.03038612044162e+003	(3.15347651411867e-001dB,-5.78747596411715e-001°)
1.03276140576140e+003	(3.15174232826872e-001dB,-5.80086263603751e-001°)
1.03514216667934e+003	(3.15000150548681e-001dB,-5.81428032814957e-001°)
1.03752841581801e+003	(3.14825167903867e-001dB,-5.82772935987511e-001°)
1.03992016582906e+003	(3.14649435796379e-001dB,-5.84120964195282e-001°)
1.04231742939330e+003	(3.14472872149242e-001dB,-5.85472133148561e-001°)
1.04472021922080e+003	(3.14295472452265e-001dB,-5.86826450385105e-001°)
1.04712854805090e+003	(3.14117232169723e-001dB,-5.88183923462677e-001°)
1.04954242865232e+003	(3.13938146740311e-001dB,-5.89544559959434e-001°)
1.05196187382322e+003	(3.13758211576957e-001dB,-5.90908367473759e-001°)
1.05438689639126e+003	(3.13577501110417e-001dB,-5.92275345120401e-001°)
1.05681750921366e+003	(3.13395852797635e-001dB,-5.93645517507024e-001°)
1.05925372517729e+003	(3.13213499655938e-001dB,-5.95018866661519e-001°)
1.06169555719872e+003	(3.13030278908989e-001dB,-5.96395417271310e-001°)
1.06414301822431e+003	(3.12846185841369e-001dB,-5.97775177036381e-001°)
1.06659612123026e+003	(3.12661135746129e-001dB,-5.99158162382109e-001°)
1.06905487922266e+003	(3.12475203448252e-001dB,-6.00544372426901e-001°)
1.07151930523761e+003	(3.12288544823564e-001dB,-6.01933797361270e-001°)
1.07398941234124e+003	(3.12100995120721e-001dB,-6.03326462377568e-001°)
1.07646521362983e+003	(3.11912549491018e-001dB,-6.04722375279699e-001°)
1.07894672222983e+003	(3.11723203058345e-001dB,-6.06121543892807e-001°)
1.08143395129794e+003	(3.11532950919082e-001dB,-6.07523976063183e-001°)
1.08392691402120e+003	(3.11341869414819e-001dB,-6.08929670664922e-001°)
1.08642562361706e+003	(3.11149872690760e-001dB,-6.10338644496426e-001°)
1.08893009333343e+003	(3.10957037411673e-001dB,-6.11750896389750e-001°)
1.09144033644875e+003	(3.10763195451980e-001dB,-6.13166452389433e-001°)
1.09395636627209e+003	(3.10568505260974e-001dB,-6.14585302249956e-001°)
1.09647819614318e+003	(3.10372962339175e-001dB,-6.16007453817404e-001°)
1.09900583943252e+003	(3.10176397338583e-001dB,-6.17432933456099e-001°)
1.10153930954141e+003	(3.09978887162479e-001dB,-6.18861740020821e-001°)
1.10407861990207e+003	(3.09780592243820e-001dB,-6.20293862879879e-001°)
1.10662378397766e+003	(3.09581259591477e-001dB,-6.21729337970716e-001°)
1.10917481526240e+003	(3.09381132953658e-001dB,-6.23168145237869e-001°)
1.11173172728159e+003	(3.09179958130103e-001dB,-6.24610320923812e-001°)
1.11429453359173e+003	(3.08977812837004e-001dB,-6.26055863776151e-001°)
1.11686324778056e+003	(3.08774859293955e-001dB,-6.27504762831835e-001°)
1.11943788346715e+003	(3.08570841474949e-001dB,-6.28957054796599e-001°)
1.12201845430196e+003	(3.08365921736313e-001dB,-6.30412728706562e-001°)
1.12460497396692e+003	(3.08160010930704e-001dB,-6.31871802333234e-001°)
1.12719745617551e+003	(3.07953188180631e-001dB,-6.33334274178384e-001°)
1.12979591467279e+003	(3.07745363889736e-001dB,-6.34800162147947e-001°)
1.13240036323555e+003	(3.07536702447199e-001dB,-6.36269454869680e-001°)
1.13501081567231e+003	(3.07326859004532e-001dB,-6.37742199868055e-001°)
1.13762728582343e+003	(3.07116168152367e-001dB,-6.39218366068458e-001°)
1.14024978756117e+003	(3.06904454455211e-001dB,-6.40697981476931e-001°)
1.14287833478977e+003	(3.06691798038638e-001dB,-6.42181044454354e-001°)
1.14551294144553e+003	(3.06478107944093e-001dB,-6.43667573317115e-001°)
1.14815362149688e+003	(3.06263378509872e-001dB,-6.45157576484919e-001°)
1.15080038894443e+003	(3.06047690366205e-001dB,-6.46651052246851e-001°)
1.15345325782109e+003	(3.05830951864317e-001dB,-6.48148019128800e-001°)
1.15611224219210e+003	(3.05613243972904e-001dB,-6.49648475370884e-001°)
1.15877735615512e+003	(3.05394561507115e-001dB,-6.51152429342474e-001°)
1.16144861384034e+003	(3.05174899252268e-001dB,-6.52659889435462e-001°)
1.16412602941049e+003	(3.04954077301103e-001dB,-6.54170884852931e-001°)
1.16680961706096e+003	(3.04732176695594e-001dB,-6.55685413880980e-001°)
1.16949939101987e+003	(3.04509454730268e-001dB,-6.57203453651273e-001°)
1.17219536554813e+003	(3.04285555522592e-001dB,-6.58725054518120e-001°)
1.17489755493953e+003	(3.04060560624471e-001dB,-6.60250214693273e-001°)
1.17760597352080e+003	(3.03834729071481e-001dB,-6.61778910935177e-001°)
1.18032063565173e+003	(3.03607613882145e-001dB,-6.63311204949095e-001°)
1.18304155572516e+003	(3.03379474026824e-001dB,-6.64847073541234e-001°)
1.18576874816716e+003	(3.03150215039445e-001dB,-6.66386536103120e-001°)
1.18850222743701e+003	(3.02920098293746e-001dB,-6.67929568887181e-001°)
1.19124200802737e+003	(3.02688761942699e-001dB,-6.69476223805109e-001°)
1.19398810446427e+003	(3.02456557506112e-001dB,-6.71026466061444e-001°)
1.19674053130724e+003	(3.02222941819309e-001dB,-6.72580370009912e-001°)
1.19949930314937e+003	(3.01988356753692e-001dB,-6.74137889757335e-001°)
1.20226443461741e+003	(3.01752797241849e-001dB,-6.75699033892565e-001°)
1.20503594037179e+003	(3.01515986910364e-001dB,-6.77263844476219e-001°)
1.20781383510678e+003	(3.01278100011576e-001dB,-6.78832308208508e-001°)
1.21059813355048e+003	(3.01039130751699e-001dB,-6.80404433905511e-001°)
1.21338885046497e+003	(3.00799073303692e-001dB,-6.81980230407394e-001°)
1.21618600064636e+003	(3.00557739268641e-001dB,-6.83559729299602e-001°)
1.21898959892486e+003	(3.00315395923277e-001dB,-6.85142905549150e-001°)
1.22179966016487e+003	(3.00071946280506e-001dB,-6.86729779377327e-001°)
1.22461619926504e+003	(2.99827292469423e-001dB,-6.88320371243657e-001°)
1.22743923115840e+003	(2.99581519971919e-001dB,-6.89914678697942e-001°)
1.23026877081238e+003	(2.99334622754103e-001dB,-6.91512710728444e-001°)
1.23310483322890e+003	(2.99086594747365e-001dB,-6.93114476348308e-001°)
1.23594743344450e+003	(2.98837337083214e-001dB,-6.94719996334423e-001°)
1.23879658653036e+003	(2.98586935956753e-001dB,-6.96329268120972e-001°)
1.24165230759241e+003	(2.98335478389665e-001dB,-6.97942288947110e-001°)
1.24451461177138e+003	(2.98082678580124e-001dB,-6.99559103475258e-001°)
1.24738351424294e+003	(2.97828809872724e-001dB,-7.01179685296081e-001°)
1.25025903021771e+003	(2.97573585090500e-001dB,-7.02804079458014e-001°)
1.25314117494141e+003	(2.97317372873623e-001dB,-7.04432247194973e-001°)
1.25602996369487e+003	(2.97059885319416e-001dB,-7.06064233774998e-001°)
1.25892541179416e+003	(2.96801209883893e-001dB,-7.07700036422721e-001°)
1.26182753459066e+003	(2.96541245412449e-001dB,-7.09339676650513e-001°)
1.26473634747115e+003	(2.96280174668419e-001dB,-7.10983139320359e-001°)
1.26765186585784e+003	(2.96017706310364e-001dB,-7.12630470658771e-001°)
1.27057410520854e+003	(2.95754118632024e-001dB,-7.14281643106021e-001°)
1.27350308101666e+003	(2.95489310107882e-001dB,-7.15936678336728e-001°)
1.27643880881134e+003	(2.95223369952170e-001dB,-7.17595573214872e-001°)
1.27938130415752e+003	(2.94956004012591e-001dB,-7.19258374770492e-001°)
1.28233058265601e+003	(2.94687493091407e-001dB,-7.20925054850460e-001°)
1.28528665994361e+003	(2.94417445115852e-001dB,-7.22595673605778e-001°)
1.28824955169313e+003	(2.94146528384258e-001dB,-7.24270151672977e-001°)
1.29121927361353e+003	(2.93874254021174e-001dB,-7.25948562027794e-001°)
1.29419584144998e+003	(2.93600614502002e-001dB,-7.27630914409091e-001°)
1.29717927098395e+003	(2.93325602259582e-001dB,-7.29317218584411e-001°)
1.30016957803328e+003	(2.93049502576667e-001dB,-7.31007445307623e-001°)
1.30316677845229e+003	(2.92772016271113e-001dB,-7.32701643079582e-001°)
1.30617088813183e+003	(2.92493233737472e-001dB,-7.34399808615389e-001°)
1.30918192299940e+003	(2.92213147925838e-001dB,-7.36101951610823e-001°)
1.31219989901920e+003	(2.91931948832153e-001dB,-7.37808055267738e-001°)
1.31522483219223e+003	(2.91649038066379e-001dB,-7.39518208901597e-001°)
1.31825673855640e+003	(2.91365098717879e-001dB,-7.41232329341055e-001°)
1.32129563418657e+003	(2.91079629479470e-001dB,-7.42950493071921e-001°)
1.32434153519466e+003	(2.90792920104050e-001dB,-7.44672669771371e-001°)
1.32739445772973e+003	(2.90504864292712e-001dB,-7.46398882688249e-001°)
1.33045441797808e+003	(2.90215454707163e-001dB,-7.48129141713752e-001°)
1.33352143216332e+003	(2.89924784127509e-001dB,-7.49863443063648e-001°)
1.33659551654643e+003	(2.89632645043029e-001dB,-7.51601824029105e-001°)
1.33967668742593e+003	(2.89339129916107e-001dB,-7.53344280947241e-001°)
1.34276496113786e+003	(2.89044332100376e-001dB,-7.55090809925220e-001°)
1.34586035405594e+003	(2.88748143652148e-001dB,-7.56841434764680e-001°)
1.34896288259165e+003	(2.88450354313377e-001dB,-7.58596193586761e-001°)
1.35207256319427e+003	(2.88151361304814e-001dB,-7.60355040497244e-001°)
1.35518941235103e+003	(2.87850954751831e-001dB,-7.62118013544135e-001°)
1.35831344658715e+003	(2.87549126929605e-001dB,-7.63885122877311e-001°)
1.36144468246594e+003	(2.87245767788888e-001dB,-7.65656392971850e-001°)
1.36458313658892e+003	(2.86941073837454e-001dB,-7.67431805512765e-001°)
1.36772882559584e+003	(2.86635037931364e-001dB,-7.69211370536550e-001°)
1.37088176616484e+003	(2.86327549888453e-001dB,-7.70995112606505e-001°)
1.37404197501251e+003	(2.86018498524423e-001dB,-7.72783056587121e-001°)
1.37720946889394e+003	(2.85708185555715e-001dB,-7.74575169104859e-001°)
1.38038426460288e+003	(2.85396189514978e-001dB,-7.76371518923131e-001°)
1.38356637897177e+003	(2.85082708788193e-001dB,-7.78172087297129e-001°)
1.38675582887188e+003	(2.84767943646250e-001dB,-7.79976854958988e-001°)
1.38995263121334e+003	(2.84451678475648e-001dB,-7.81785861766316e-001°)
1.39315680294529e+003	(2.84133905052355e-001dB,-7.83599118197916e-001°)
1.39636836105593e+003	(2.83814510172488e-001dB,-7.85416649818178e-001°)
1.39958732257261e+003	(2.83493800315238e-001dB,-7.87238422003877e-001°)
1.40281370456195e+003	(2.83171663160930e-001dB,-7.89064460096943e-001°)
1.40604752412990e+003	(2.82847774029149e-001dB,-7.90894820290122e-001°)
1.40928879842186e+003	(2.82522440725998e-001dB,-7.92729467626090e-001°)
1.41253754462274e+003	(2.82195655480578e-001dB,-7.94568412553752e-001°)
1.41579377995707e+003	(2.81867197658322e-001dB,-7.96411696523022e-001°)
1.41905752168908e+003	(2.81537271223002e-001dB,-7.98259299362851e-001°)
1.42232878712281e+003	(2.81205761357152e-001dB,-8.00111247245600e-001°)
1.42560759360218e+003	(2.80872766510407e-001dB,-8.01967535256552e-001°)
1.42889395851109e+003	(2.80538278676827e-001dB,-8.03828173996926e-001°)
1.43218789927353e+003	(2.80202182147882e-001dB,-8.05693189952832e-001°)
1.43548943335364e+003	(2.79864360163613e-001dB,-8.07562609939935e-001°)
1.43879857825583e+003	(2.79524911223369e-001dB,-8.09436429098253e-001°)
1.44211535152486e+003	(2.79184043191772e-001dB,-8.11314626219727e-001°)
1.44543977074592e+003	(2.78841531250116e-001dB,-8.13197244146997e-001°)
1.44877185354475e+003	(2.78497475258886e-001dB,-8.15084277664102e-001°)
1.45211161758773e+003	(2.78151648528654e-001dB,-8.16975770209321e-001°)
1.45545908058195e+003	(2.77804369414123e-001dB,-8.18871683936808e-001°)
1.45881426027534e+003	(2.77455191507312e-001dB,-8.20772095353775e-001°)
1.46217717445671e+003	(2.77104543758822e-001dB,-8.22676949908745e-001°)
1.46554784095590e+003	(2.76752197999569e-001dB,-8.24586291556310e-001°)
1.46892627764385e+003	(2.76398255310366e-001dB,-8.26500114813961e-001°)
1.47231250243271e+003	(2.76042707040199e-001dB,-8.28418430694753e-001°)
1.47570653327588e+003	(2.75685433520195e-001dB,-8.30341267100401e-001°)
1.47910838816819e+003	(2.75326536447291e-001dB,-8.32268618410910e-001°)
1.48251808514594e+003	(2.74965672558050e-001dB,-8.34200546785872e-001°)
1.48593564228699e+003	(2.74603389384629e-001dB,-8.36136978608314e-001°)
1.48936107771090e+003	(2.74239343556615e-001dB,-8.38077976105210e-001°)
1.49279440957898e+003	(2.73873637595605e-001dB,-8.40023533470718e-001°)
1.49623565609442e+003	(2.73506149953894e-001dB,-8.41973679288679e-001°)
1.49968483550236e+003	(2.73136757980154e-001dB,-8.43928442504208e-001°)
1.50314196609001e+003	(2.72765903197350e-001dB,-8.45887764902145e-001°)
1.50660706618673e+003	(2.72393124724150e-001dB,-8.47851727683503e-001°)
1.51008015416413e+003	(2.72018638912460e-001dB,-8.49820307382587e-001°)
1.51356124843619e+003	(2.71642550323977e-001dB,-8.51793497657849e-001°)
1.51705036745932e+003	(2.71264508062369e-001dB,-8.53771363220715e-001°)
1.52054752973248e+003	(2.70884615515479e-001dB,-8.55753898134154e-001°)
1.52405275379728e+003	(2.70503206378549e-001dB,-8.57741060144305e-001°)
1.52756605823806e+003	(2.70119698154101e-001dB,-8.59732950758332e-001°)
1.53108746168201e+003	(2.69734654796541e-001dB,-8.61729491434914e-001°)
1.53461698279928e+003	(2.69347606470618e-001dB,-8.63730766340100e-001°)
1.53815464030302e+003	(2.68958889057154e-001dB,-8.65736732591332e-001°)
1.54170045294954e+003	(2.68568261636287e-001dB,-8.67747438496243e-001°)
1.54525443953840e+003	(2.68175597333814e-001dB,-8.69762914567775e-001°)
1.54881661891247e+003	(2.67781350822871e-001dB,-8.71783098637995e-001°)
1.55238700995807e+003	(2.67385163389028e-001dB,-8.73808058082940e-001°)
1.55596563160506e+003	(2.66987375498137e-001dB,-8.75837748628178e-001°)
1.55955250282694e+003	(2.66587274614656e-001dB,-8.77872294886592e-001°)
1.56314764264094e+003	(2.66185317893050e-001dB,-8.79911633957113e-001°)
1.56675107010813e+003	(2.65781730997978e-001dB,-8.81955739663874e-001°)
1.57036280433354e+003	(2.65375914457829e-001dB,-8.84004719192366e-001°)
1.57398286446620e+003	(2.64968447817664e-001dB,-8.86058489169647e-001°)
1.57761126969933e+003	(2.64559084934918e-001dB,-8.88117099765046e-001°)
1.58124803927037e+003	(2.64147696407447e-001dB,-8.90180582489164e-001°)
1.58489319246110e+003	(2.63734509536388e-001dB,-8.92248910710912e-001°)
1.58854674859776e+003	(2.63319155932443e-001dB,-8.94322155139387e-001°)
1.59220872705115e+003	(2.62901982899462e-001dB,-8.96400269426717e-001°)
1.59587914723672e+003	(2.62482740378171e-001dB,-8.98483305120063e-001°)
1.59955802861465e+003	(2.62061657652807e-001dB,-9.00571234997408e-001°)
1.60324539069002e+003	(2.61638362723684e-001dB,-9.02664131038444e-001°)
1.60694125301286e+003	(2.61213206002859e-001dB,-9.04761945927215e-001°)
1.61064563517825e+003	(2.60786056189151e-001dB,-9.06864711941418e-001°)
1.61435855682647e+003	(2.60356902330111e-001dB,-9.08972441507913e-001°)
1.61808003764305e+003	(2.59925733409096e-001dB,-9.11085147092034e-001°)
1.62181009735891e+003	(2.59492538344948e-001dB,-9.13202841197637e-001°)
1.62554875575047e+003	(2.59057305991646e-001dB,-9.15325536367144e-001°)
1.62929603263970e+003	(2.58620025137816e-001dB,-9.17453245182055e-001°)
1.63305194789432e+003	(2.58180438562004e-001dB,-9.19586021773833e-001°)
1.63681652142779e+003	(2.57738902974156e-001dB,-9.21723816831755e-001°)
1.64058977319952e+003	(2.57295407826146e-001dB,-9.23866642760343e-001°)
1.64437172321491e+003	(2.56849818669307e-001dB,-9.26014533054079e-001°)
1.64816239152549e+003	(2.56401999832133e-001dB,-9.28167521644753e-001°)
1.65196179822900e+003	(2.55952187668127e-001dB,-9.30325579145535e-001°)
1.65576996346951e+003	(2.55500246660007e-001dB,-9.32488739468219e-001°)
1.65958690743754e+003	(2.55045915056089e-001dB,-9.34657058425014e-001°)
1.66341265037015e+003	(2.54589680461437e-001dB,-9.36830463334381e-001°)
1.66724721255104e+003	(2.54131281570267e-001dB,-9.39009009886729e-001°)
1.67109061431069e+003	(2.53670706426756e-001dB,-9.41192711103750e-001°)
1.67494287602642e+003	(2.53208069182011e-001dB,-9.43381558180697e-001°)
1.67880401812254e+003	(2.52742979208167e-001dB,-9.45575629824978e-001°)
1.68267406107045e+003	(2.52275802869026e-001dB,-9.47774873579416e-001°)
1.68655302538872e+003	(2.51806274682566e-001dB,-9.49979346681044e-001°)
1.69044093164324e+003	(2.51334636172353e-001dB,-9.52189018102050e-001°)
1.69433780044731e+003	(2.50860875848663e-001dB,-9.54403900797298e-001°)
1.69824365246172e+003	(2.50384726230519e-001dB,-9.56624052761509e-001°)
1.70215850839493e+003	(2.49906302152902e-001dB,-9.58849465064383e-001°)
1.70608238900310e+003	(2.49425848137423e-001dB,-9.61080105675369e-001°)
1.71001531509027e+003	(2.48943224452581e-001dB,-9.63316010211463e-001°)
1.71395730750840e+003	(2.48457773431124e-001dB,-9.65557306489610e-001°)
1.71790838715757e+003	(2.47970255429574e-001dB,-9.67803871098057e-001°)
1.72186857498598e+003	(2.47480659366076e-001dB,-9.70055716952233e-001°)
1.72583789199018e+003	(2.46988453787384e-001dB,-9.72312950052702e-001°)
1.72981635921508e+003	(2.46494145341496e-001dB,-9.74575491230476e-001°)
1.73380399775412e+003	(2.45997461361680e-001dB,-9.76843400489364e-001°)
1.73780082874935e+003	(2.45498257654303e-001dB,-9.79116715170912e-001°)
1.74180687339159e+003	(2.44996913921834e-001dB,-9.81395378276466e-001°)
1.74582215292048e+003	(2.44492892219404e-001dB,-9.83679498252106e-001°)
1.74984668862463e+003	(2.43986836849534e-001dB,-9.85968969980070e-001°)
1.75388050184174e+003	(2.43478075947360e-001dB,-9.88263926609600e-001°)
1.75792361395867e+003	(2.42967124211688e-001dB,-9.90564286138409e-001°)
1.76197604641161e+003	(2.42453571291108e-001dB,-9.92870134732506e-001°)
1.76603782068614e+003	(2.41937801981444e-001dB,-9.95181413611143e-001°)
1.77010895831740e+003	(2.41419403908379e-001dB,-9.97498209721882e-001°)
1.77418948089014e+003	(2.40898496009030e-001dB,-9.99820512937712e-001°)
1.77827941003890e+003	(2.40375466589781e-001dB,-1.00214826321587e+000°)
1.78237876744807e+003	(2.39849497920895e-001dB,-1.00448162293425e+000°)
1.78648757485203e+003	(2.39321111931601e-001dB,-1.00682050751317e+000°)
1.79060585403527e+003	(2.38790430375756e-001dB,-1.00916490583188e+000°)
1.79473362683250e+003	(2.38257305469226e-001dB,-1.01151485678273e+000°)
1.79887091512876e+003	(2.37721588081190e-001dB,-1.01387039978148e+000°)
1.80301774085954e+003	(2.37183263726182e-001dB,-1.01623154930720e+000°)
1.80717412601090e+003	(2.36642317833313e-001dB,-1.01859831988773e+000°)
1.81134009261958e+003	(2.36098735745833e-001dB,-1.02097072609962e+000°)
1.81551566277311e+003	(2.35552502720582e-001dB,-1.02334878256860e+000°)
1.81970085860996e+003	(2.35004015775035e-001dB,-1.02573242609800e+000°)
1.82389570231961e+003	(2.34452987684463e-001dB,-1.02812172245703e+000°)
1.82810021614272e+003	(2.33898990635092e-001dB,-1.03051676465829e+000°)
1.83231442237119e+003	(2.33342422355271e-001dB,-1.03291748927670e+000°)
1.83653834334832e+003	(2.32783130063875e-001dB,-1.03532393726290e+000°)
1.84077200146893e+003	(2.32221376301721e-001dB,-1.03773607036724e+000°)
1.84501541917945e+003	(2.31657147672151e-001dB,-1.04015390279622e+000°)
1.84926861897805e+003	(2.31089732912481e-001dB,-1.04257758299990e+000°)
1.85353162341478e+003	(2.30519952852403e-001dB,-1.04500696538961e+000°)
1.85780445509167e+003	(2.29947374183183e-001dB,-1.04744214521875e+000°)
1.86208713666284e+003	(2.29372121736532e-001dB,-1.04988311042848e+000°)
1.86637969083464e+003	(2.28794180699211e-001dB,-1.05232987584850e+000°)
1.87068214036577e+003	(2.28213394963831e-001dB,-1.05478248384676e+000°)
1.87499450806739e+003	(2.27630031618408e-001dB,-1.05724089450288e+000°)
1.87931681680324e+003	(2.27043650966903e-001dB,-1.05970520565941e+000°)
1.88364908948977e+003	(2.26454520244697e-001dB,-1.06217537736670e+000°)
1.88799134909627e+003	(2.25862481646389e-001dB,-1.06465145272493e+000°)
